Time Stamp,ID,Extended,Dir,Bus,LEN,D1,D2,D3,D4,D5,D6,D7,D8
0,000000B4,false,Rx,0,7,00,00,00,00,00,10,3B,00,
0,000000F0,false,Rx,0,8,00,00,10,00,80,00,10,E9,
0,000000F2,false,Rx,0,8,00,00,00,00,00,00,10,C7,
0,00000108,false,Rx,0,8,00,00,00,3D,09,00,10,64,
0,0000015A,false,Rx,0,4,00,00,01,EC,00,00,00,00,
0,00000160,false,Rx,0,8,00,00,00,44,0F,FF,10,DA,
0,00000175,false,Rx,0,8,00,00,00,00,00,00,10,C7,
0,000001D7,false,Rx,0,8,00,00,00,00,00,00,10,C7,
0,000001D8,false,Rx,0,8,00,00,00,00,E0,00,10,57,
0,00000212,false,Rx,0,8,00,00,00,00,00,00,10,C7,
0,00000234,false,Rx,0,8,00,7D,00,00,00,00,00,FF,
0,00000282,false,Rx,0,8,00,00,00,05,00,00,00,00,
0,00000240,false,Rx,0,8,00,00,00,00,00,00,0F,FF,
0,00000242,false,Rx,0,8,DD,00,00,00,00,00,00,00,
0,00000280,false,Rx,0,8,00,00,00,00,00,00,00,00,
0,000002A4,false,Rx,0,8,00,00,00,00,F5,00,00,00,
0,000002A5,false,Rx,0,6,00,00,01,40,00,00,00,00,
0,000002D0,false,Rx,0,8,FF,FF,41,63,FF,FF,00,00,
0,000002D2,false,Rx,0,8,FF,FF,FF,FF,FF,FF,00,00,
0,00000301,false,Rx,0,8,00,00,00,00,00,00,10,C7,
0,00000320,false,Rx,0,8,3D,09,00,3D,09,00,00,80,
0,0000015A,false,Rx,0,4,00,00,02,CB,00,00,00,00,
0,00000321,false,Rx,0,8,3D,09,00,01,90,00,00,00,
0,00000322,false,Rx,0,8,00,00,00,F5,00,00,00,00,
0,00000323,false,Rx,0,8,00,00,00,00,00,00,00,00,
0,0000038C,false,Rx,0,8,FF,FF,FF,FF,FF,FF,FF,FF,
0,0000039E,false,Rx,0,3,01,10,00,00,00,00,00,00,
0,000003D1,false,Rx,0,8,00,00,00,00,00,00,00,00,
0,000003D2,false,Rx,0,8,32,00,00,00,00,00,00,00,
0,000003E0,false,Rx,0,8,03,00,00,00,00,00,00,00,
0,000003E7,false,Rx,0,8,00,00,00,00,00,00,00,00,
0,000003EE,false,Rx,0,8,00,00,28,00,00,00,00,00,
0,000003EF,false,Rx,0,7,00,00,00,00,80,00,7E,00,
0,000003FD,false,Rx,0,8,47,18,71,23,00,00,00,00,
0,000005A8,false,Rx,0,8,00,00,00,00,00,00,01,17,
0,000000B4,false,Rx,0,7,00,00,00,00,00,20,71,00,
0,000000F0,false,Rx,0,8,00,00,10,00,80,00,20,A3,
0,000000F2,false,Rx,0,8,00,00,00,00,00,00,20,8D,
0,00000108,false,Rx,0,8,00,00,00,3D,09,00,20,2E,
0,00000175,false,Rx,0,8,00,00,00,2E,00,00,20,32,
0,000001D7,false,Rx,0,8,00,00,00,00,00,00,20,8D,
0,0000015A,false,Rx,0,4,00,00,03,D6,00,00,00,00,
0,000000B4,false,Rx,0,7,00,00,00,00,00,30,BC,00,
0,000000F0,false,Rx,0,8,00,00,10,00,80,00,30,6E,
0,000000F2,false,Rx,0,8,00,00,00,00,00,00,30,40,
0,00000108,false,Rx,0,8,00,00,00,3D,09,00,30,E3,
0,00000160,false,Rx,0,8,00,00,00,44,0F,FF,20,90,
0,00000175,false,Rx,0,8,00,00,00,2E,00,00,30,FF,
0,000001D7,false,Rx,0,8,00,00,00,00,00,00,30,40,
0,000001D8,false,Rx,0,8,00,00,00,00,E0,00,20,1D,
0,00000212,false,Rx,0,8,00,00,00,00,00,00,20,8D,
0,0000015A,false,Rx,0,4,00,00,04,85,00,00,00,00,
0,000000B4,false,Rx,0,7,00,00,00,00,00,40,E5,00,
0,000000F0,false,Rx,0,8,00,00,10,00,80,00,40,37,
0,000000F2,false,Rx,0,8,00,00,00,00,00,00,40,19,
0,00000108,false,Rx,0,8,00,00,00,3D,09,00,40,BA,
0,00000175,false,Rx,0,8,00,00,00,2E,00,00,40,A6,
0,000001D7,false,Rx,0,8,00,00,00,00,00,00,40,19,
0,0000015A,false,Rx,0,4,00,00,05,98,00,00,00,00,
0,000000B4,false,Rx,0,7,00,00,00,00,00,50,28,00,
0,000000F0,false,Rx,0,8,00,02,10,00,80,00,50,76,
0,000000F2,false,Rx,0,8,00,00,00,00,00,00,50,D4,
0,00000108,false,Rx,0,8,00,00,00,3D,09,00,50,77,
0,00000160,false,Rx,0,8,00,00,00,44,0F,FF,30,5D,
0,00000175,false,Rx,0,8,00,00,00,2E,00,00,50,6B,
0,000001D7,false,Rx,0,8,00,00,00,00,00,00,50,D4,
0,000001D8,false,Rx,0,8,00,00,00,00,E0,00,30,D0,
0,00000212,false,Rx,0,8,00,00,00,00,00,00,30,40,
0,0000015A,false,Rx,0,4,00,00,06,BF,00,00,00,00,
0,000000B4,false,Rx,0,7,00,00,00,00,00,60,62,00,
0,000000F0,false,Rx,0,8,00,02,10,00,80,00,60,3C,
0,000000F2,false,Rx,0,8,00,00,00,00,00,00,60,9E,
0,00000108,false,Rx,0,8,00,00,00,3D,09,00,60,3D,
0,00000175,false,Rx,0,8,00,00,00,2E,00,00,60,21,
0,000001D7,false,Rx,0,8,00,00,00,00,00,00,60,9E,
0,00000234,false,Rx,0,8,C0,84,00,00,00,0E,01,63,
0,00000240,false,Rx,0,8,00,00,00,00,00,00,0F,FF,
0,00000242,false,Rx,0,8,DD,00,00,00,00,00,00,00,
0,0000015A,false,Rx,0,4,00,00,07,A2,00,00,00,00,
0,000000B4,false,Rx,0,7,00,00,00,00,00,70,AF,00,
0,000000F0,false,Rx,0,8,00,02,10,00,80,00,70,F1,
0,000000F2,false,Rx,0,8,00,00,00,00,00,00,70,53,
0,00000108,false,Rx,0,8,00,00,00,3D,09,00,70,F0,
0,00000160,false,Rx,0,8,00,00,00,44,0F,FF,40,04,
0,00000175,false,Rx,0,8,00,00,00,2E,00,00,70,EC,
0,000001D7,false,Rx,0,8,00,00,00,00,00,00,70,53,
0,000001D8,false,Rx,0,8,00,00,00,00,E0,00,40,89,
0,00000212,false,Rx,0,8,00,00,00,00,00,00,40,19,
0,0000015A,false,Rx,0,4,00,00,08,19,00,00,00,00,
0,000000B4,false,Rx,0,7,00,00,00,00,00,80,D0,00,
0,000000F0,false,Rx,0,8,00,02,10,00,80,00,80,8E,
0,000000F2,false,Rx,0,8,00,00,00,00,00,00,80,2C,
0,00000108,false,Rx,0,8,00,00,00,3D,09,00,80,8F,
0,00000175,false,Rx,0,8,00,00,00,2E,00,00,80,93,
0,000001D7,false,Rx,0,8,00,00,00,00,00,00,80,2C,
0,0000015A,false,Rx,0,4,00,00,09,04,00,00,00,00,
0,000000B4,false,Rx,0,7,00,00,00,00,00,90,1D,00,
0,000000F0,false,Rx,0,8,00,02,10,00,80,00,90,43,
0,000000F2,false,Rx,0,8,00,00,00,00,00,00,90,E1,
0,00000108,false,Rx,0,8,00,00,00,3D,09,00,90,42,
0,00000160,false,Rx,0,8,00,00,00,44,0F,FF,50,C9,
0,00000175,false,Rx,0,8,00,00,00,2E,00,00,90,5E,
0,000001D7,false,Rx,0,8,00,00,00,00,00,00,90,E1,
0,000001D8,false,Rx,0,8,00,00,00,00,E0,00,50,44,
0,00000212,false,Rx,0,8,00,00,00,00,00,00,50,D4,
0,0000015A,false,Rx,0,4,00,00,0A,23,00,00,00,00,
0,000000B4,false,Rx,0,7,00,00,00,00,00,A0,57,00,
0,000000F0,false,Rx,0,8,00,02,10,00,80,00,A0,09,
0,000000F2,false,Rx,0,8,00,00,00,00,00,00,A0,AB,
0,00000108,false,Rx,0,8,00,00,00,3D,09,00,A0,08,
0,00000175,false,Rx,0,8,00,00,00,2E,00,00,A0,14,
0,000001D7,false,Rx,0,8,00,00,00,00,00,00,A0,AB,
0,0000015A,false,Rx,0,4,00,00,0B,3E,00,00,00,00,
0,000000B4,false,Rx,0,7,00,00,00,00,00,B0,9A,00,
0,000000F0,false,Rx,0,8,00,02,10,00,80,00,B0,C4,
0,000000F2,false,Rx,0,8,00,00,00,00,00,00,B0,66,
0,00000108,false,Rx,0,8,00,00,00,3D,09,00,B0,C5,
0,00000160,false,Rx,0,8,00,00,00,44,0F,FF,60,83,
0,00000175,false,Rx,0,8,00,00,00,2E,00,00,B0,D9,
0,000001D7,false,Rx,0,8,00,00,00,00,00,00,B0,66,
0,000001D8,false,Rx,0,8,00,00,00,00,E0,00,60,0E,
0,00000212,false,Rx,0,8,00,00,00,00,00,00,60,9E,
0,00000234,false,Rx,0,8,C2,84,00,00,00,0E,01,63,
0,00000282,false,Rx,0,8,00,00,00,05,00,00,00,FF,
0,00000240,false,Rx,0,8,00,00,00,00,00,00,0F,FF,
0,00000242,false,Rx,0,8,DD,00,00,00,00,00,00,00,
0,00000280,false,Rx,0,8,00,00,00,00,00,00,00,00,
0,000002A4,false,Rx,0,8,00,0A,00,00,F5,0A,00,00,
0,000002A5,false,Rx,0,6,00,00,01,40,00,00,00,00,
0,000002D0,false,Rx,0,8,FF,2C,41,63,C3,B9,00,00,
0,000002D2,false,Rx,0,8,FF,FF,FF,FF,FF,FF,00,00,
0,00000301,false,Rx,0,8,00,00,00,00,00,00,20,8D,
0,00000320,false,Rx,0,8,5E,9A,C0,3D,A0,0F,01,A0,
0,00000321,false,Rx,0,8,6A,CF,C0,03,1B,01,7F,00,
0,0000015A,false,Rx,0,4,00,00,0C,6D,00,00,00,00,
0,00000322,false,Rx,0,8,00,00,01,F5,01,00,00,00,
0,00000323,false,Rx,0,8,00,00,00,00,00,00,00,00,
0,000003E0,false,Rx,0,8,00,59,41,52,54,44,44,45,
0,000003E7,false,Rx,0,8,00,00,00,00,00,00,00,00,
0,000003EE,false,Rx,0,8,00,00,28,00,00,00,00,40,
0,000000B4,false,Rx,0,7,00,00,00,00,00,C0,C3,00,
0,000000F0,false,Rx,0,8,00,02,10,00,80,00,C0,9D,
0,000000F2,false,Rx,0,8,00,00,00,00,00,00,C0,3F,
0,00000108,false,Rx,0,8,00,00,00,3D,09,00,C0,9C,
0,00000175,false,Rx,0,8,00,00,00,2E,00,00,C0,80,
0,000001D7,false,Rx,0,8,00,00,00,00,00,00,C0,3F,
0,0000015A,false,Rx,0,4,00,00,0D,70,00,00,00,00,
0,000000B4,false,Rx,0,7,00,00,00,00,00,D0,0E,00,
0,000000F0,false,Rx,0,8,00,02,10,00,80,00,D0,50,
0,000000F2,false,Rx,0,8,00,00,00,00,00,00,D0,F2,
0,00000108,false,Rx,0,8,00,00,00,3D,09,00,D0,51,
0,00000160,false,Rx,0,8,00,00,00,44,0F,FF,70,4E,
0,00000175,false,Rx,0,8,00,00,00,2E,00,00,D0,4D,
0,000001D7,false,Rx,0,8,00,00,00,00,00,00,D0,F2,
0,000001D8,false,Rx,0,8,00,00,00,00,E0,00,70,C3,
0,00000212,false,Rx,0,8,00,00,00,00,00,00,70,53,
0,0000015A,false,Rx,0,4,00,00,0E,57,00,00,00,00,
0,000000B4,false,Rx,0,7,00,00,00,00,00,E0,44,00,
0,000000F0,false,Rx,0,8,00,02,10,00,80,00,E0,1A,
0,000000F2,false,Rx,0,8,00,00,00,00,00,00,E0,B8,
0,00000108,false,Rx,0,8,00,00,00,3D,09,00,E0,1B,
0,00000175,false,Rx,0,8,00,00,00,2E,00,00,E0,07,
0,000001D7,false,Rx,0,8,00,00,00,00,00,00,E0,B8,
0,0000015A,false,Rx,0,4,00,00,0F,4A,00,00,00,00,
0,000000B4,false,Rx,0,7,00,00,00,00,00,F0,89,00,
0,000000F0,false,Rx,0,8,00,02,10,00,80,00,F0,D7,
0,000000F2,false,Rx,0,8,00,00,00,00,00,00,F0,75,
0,00000108,false,Rx,0,8,00,00,00,3D,09,00,F0,D6,
0,00000160,false,Rx,0,8,00,00,00,44,0F,FF,80,31,
0,00000175,false,Rx,0,8,00,00,00,2E,00,00,F0,CA,
0,000001D7,false,Rx,0,8,00,00,00,00,00,00,F0,75,
0,000001D8,false,Rx,0,8,00,00,00,00,E0,00,80,BC,
0,00000212,false,Rx,0,8,00,00,00,00,00,00,80,2C,
0,0000015A,false,Rx,0,4,00,00,00,F1,00,00,00,00,
0,000000B4,false,Rx,0,7,00,00,00,00,00,00,F6,00,
0,000000F0,false,Rx,0,8,00,02,10,00,80,00,00,A8,
0,000000F2,false,Rx,0,8,00,00,00,00,00,00,00,0A,
0,00000108,false,Rx,0,8,00,00,00,3D,09,00,00,A9,
0,0000015A,false,Rx,0,4,00,00,01,EC,00,00,00,00,
0,000001D7,false,Rx,0,8,00,00,00,00,00,00,00,0A,
0,00000175,false,Rx,0,8,00,00,00,2E,00,00,00,B5,
0,00000234,false,Rx,0,8,C3,84,01,3B,00,0E,01,63,
0,00000240,false,Rx,0,8,00,00,00,00,00,00,0F,FF,
0,00000242,false,Rx,0,8,DD,00,00,00,00,00,00,00,
0,0000015A,false,Rx,0,4,00,00,02,CB,00,00,00,00,
0,000000B4,false,Rx,0,7,00,00,00,00,00,10,3B,00,
0,000000F0,false,Rx,0,8,00,02,10,00,80,00,10,65,
0,000000F2,false,Rx,0,8,00,00,00,00,00,00,10,C7,
0,00000108,false,Rx,0,8,00,00,00,3D,09,00,10,64,
0,00000160,false,Rx,0,8,00,00,00,44,0F,FF,90,FC,
0,00000175,false,Rx,0,8,00,00,00,2E,00,00,10,78,
0,000001D7,false,Rx,0,8,00,00,00,00,00,00,10,C7,
0,000001D8,false,Rx,0,8,00,00,00,00,E0,00,93,56,
0,00000212,false,Rx,0,8,00,00,00,00,00,00,90,E1,
0,0000015A,false,Rx,0,4,00,00,03,D6,00,00,00,00,
0,000000B4,false,Rx,0,7,00,00,00,00,00,20,71,00,
0,000000F0,false,Rx,0,8,00,02,10,00,80,00,20,2F,
0,000000F2,false,Rx,0,8,00,00,00,00,00,00,20,8D,
0,00000108,false,Rx,0,8,00,00,00,3D,09,00,20,2E,
0,00000175,false,Rx,0,8,00,00,00,2E,00,00,20,32,
0,000001D7,false,Rx,0,8,00,00,00,00,00,00,20,8D,
0,0000015A,false,Rx,0,4,00,00,04,85,00,00,00,00,
0,000000B4,false,Rx,0,7,00,00,00,00,00,30,BC,00,
0,000000F0,false,Rx,0,8,00,02,10,00,80,00,30,E2,
0,000000F2,false,Rx,0,8,00,00,00,00,00,00,30,40,
0,00000108,false,Rx,0,8,00,00,00,3D,09,00,30,E3,
0,00000160,false,Rx,0,8,00,00,00,44,0F,FF,A0,B6,
0,00000175,false,Rx,0,8,00,00,00,2E,00,00,30,FF,
0,000001D7,false,Rx,0,8,00,00,00,00,00,00,30,40,
0,000001D8,false,Rx,0,8,00,00,00,00,E0,00,A3,1C,
0,00000212,false,Rx,0,8,00,00,00,00,00,00,A0,AB,
0,0000015A,false,Rx,0,4,00,00,05,98,00,00,00,00,
0,000000B4,false,Rx,0,7,00,00,00,00,00,40,E5,00,
0,000000F0,false,Rx,0,8,00,02,10,00,80,00,40,BB,
0,000000F2,false,Rx,0,8,00,00,00,00,00,00,40,19,
0,00000108,false,Rx,0,8,00,00,00,3D,09,00,40,BA,
0,00000175,false,Rx,0,8,00,00,00,2E,00,00,40,A6,
0,000001D7,false,Rx,0,8,00,00,00,00,00,00,40,19,
0,0000015A,false,Rx,0,4,00,00,06,BF,00,00,00,00,
0,000000B4,false,Rx,0,7,00,00,00,00,00,50,28,00,
0,000000F0,false,Rx,0,8,00,02,10,00,80,00,50,76,
0,000000F2,false,Rx,0,8,00,00,00,00,00,00,50,D4,
0,00000108,false,Rx,0,8,00,00,00,3D,09,00,50,77,
0,00000160,false,Rx,0,8,00,00,00,44,0F,FF,B0,7B,
0,00000175,false,Rx,0,8,00,00,00,2E,00,00,50,6B,
0,000001D7,false,Rx,0,8,00,00,00,00,00,00,50,D4,
0,000001D8,false,Rx,0,8,00,00,00,00,E0,00,B3,D1,
0,00000212,false,Rx,0,8,00,00,00,00,00,00,B0,66,
0,00000234,false,Rx,0,8,C5,84,01,3B,00,0E,01,63,
0,00000282,false,Rx,0,8,00,00,00,05,00,00,00,FF,
0,00000240,false,Rx,0,8,00,00,00,00,00,00,0F,FF,
0,00000242,false,Rx,0,8,DD,00,00,00,00,00,00,00,
0,00000280,false,Rx,0,8,00,00,00,00,00,00,00,00,
0,000002A4,false,Rx,0,8,00,0A,00,00,F5,0A,00,00,
0,000002A5,false,Rx,0,6,00,00,01,40,00,00,00,00,
0,000002D0,false,Rx,0,8,FF,2C,41,63,C3,B9,00,00,
0,000002D2,false,Rx,0,8,FF,FF,FF,FF,FF,FF,00,00,
0,00000301,false,Rx,0,8,00,00,00,00,00,00,30,40,
0,00000320,false,Rx,0,8,5E,9A,C0,3D,A0,0F,01,A0,
0,00000321,false,Rx,0,8,6A,CF,C0,03,1B,01,7F,00,
0,0000015A,false,Rx,0,4,00,00,07,A2,00,00,00,00,
0,00000322,false,Rx,0,8,00,00,01,F5,01,00,00,00,
0,00000323,false,Rx,0,8,00,00,13,00,00,00,00,00,
0,000003E0,false,Rx,0,8,01,46,33,52,47,30,38,36,
0,000003E7,false,Rx,0,8,00,00,00,00,00,00,00,00,
0,000003EE,false,Rx,0,8,00,00,28,00,00,00,00,40,
0,000000B4,false,Rx,0,7,00,00,00,00,00,60,62,00,
0,000000F0,false,Rx,0,8,00,02,10,00,80,00,60,3C,
0,000000F2,false,Rx,0,8,00,00,00,00,00,00,60,9E,
0,00000108,false,Rx,0,8,00,00,00,3D,09,00,60,3D,
0,00000175,false,Rx,0,8,00,00,00,2E,00,00,60,21,
0,000001D7,false,Rx,0,8,00,00,00,00,00,00,60,9E,
0,0000015A,false,Rx,0,4,00,00,08,19,00,00,00,00,
0,000000B4,false,Rx,0,7,00,00,00,00,00,70,AF,00,
0,000000F0,false,Rx,0,8,00,02,10,00,80,00,70,F1,
0,000000F2,false,Rx,0,8,00,00,00,00,00,00,70,53,
0,00000108,false,Rx,0,8,00,00,00,3D,09,00,70,F0,
0,00000160,false,Rx,0,8,00,00,00,44,0F,FF,C0,22,
0,00000175,false,Rx,0,8,00,00,00,2E,00,00,70,EC,
0,000001D7,false,Rx,0,8,00,00,00,00,00,00,70,53,
0,000001D8,false,Rx,0,8,00,00,00,00,E0,00,C3,88,
0,00000212,false,Rx,0,8,00,00,00,00,00,00,C0,3F,
0,0000015A,false,Rx,0,4,00,00,09,04,00,00,00,00,
0,000000B4,false,Rx,0,7,00,00,00,00,00,80,D0,00,
0,000000F0,false,Rx,0,8,00,02,10,00,80,00,80,8E,
0,000000F2,false,Rx,0,8,00,00,00,00,00,00,80,2C,
0,00000108,false,Rx,0,8,00,00,00,3D,09,00,80,8F,
0,00000175,false,Rx,0,8,00,00,00,2E,00,00,80,93,
0,000001D7,false,Rx,0,8,00,00,00,00,00,00,80,2C,
0,0000015A,false,Rx,0,4,00,00,0A,23,00,00,00,00,
0,000000B4,false,Rx,0,7,00,00,00,00,00,90,1D,00,
0,000000F0,false,Rx,0,8,00,02,10,00,80,00,90,43,
0,000000F2,false,Rx,0,8,00,00,00,00,00,00,90,E1,
0,00000108,false,Rx,0,8,00,00,00,3D,09,00,90,42,
0,00000160,false,Rx,0,8,00,00,00,44,0F,FF,D0,EF,
0,00000175,false,Rx,0,8,00,00,00,2E,00,00,90,5E,
0,000001D7,false,Rx,0,8,00,00,00,00,00,00,90,E1,
0,000001D8,false,Rx,0,8,00,00,00,00,E0,00,D3,45,
0,00000212,false,Rx,0,8,00,00,00,00,00,00,D0,F2,
0,0000015A,false,Rx,0,4,00,00,0B,3E,00,00,00,00,
0,000000B4,false,Rx,0,7,00,00,00,00,00,A0,57,00,
0,000000F0,false,Rx,0,8,00,02,10,00,80,00,A0,09,
0,000000F2,false,Rx,0,8,00,00,00,00,00,00,A0,AB,
0,00000108,false,Rx,0,8,00,00,00,3D,09,00,A0,08,
0,00000175,false,Rx,0,8,00,00,00,2E,00,00,A0,14,
0,000001D7,false,Rx,0,8,00,00,00,00,00,00,A0,AB,
0,00000234,false,Rx,0,8,C6,84,01,3A,00,0E,01,63,
0,00000240,false,Rx,0,8,00,00,00,00,00,00,0F,FF,
0,00000242,false,Rx,0,8,DD,00,00,00,00,00,00,00,
0,0000015A,false,Rx,0,4,00,00,0C,6D,00,00,00,00,
0,000000B4,false,Rx,0,7,00,00,00,00,00,B0,9A,00,
0,000000F0,false,Rx,0,8,00,02,10,00,80,00,B0,C4,
0,000000F2,false,Rx,0,8,00,00,00,00,00,00,B0,66,
0,00000108,false,Rx,0,8,00,00,00,3D,09,00,B0,C5,
0,00000160,false,Rx,0,8,00,00,00,44,0F,FF,E0,A5,
0,00000175,false,Rx,0,8,00,00,00,2E,00,00,B0,D9,
0,000001D7,false,Rx,0,8,00,00,00,00,00,00,B0,66,
0,000001D8,false,Rx,0,8,00,00,00,00,E0,00,E3,0F,
0,00000212,false,Rx,0,8,00,00,00,00,00,00,E0,B8,
0,0000015A,false,Rx,0,4,00,00,0D,70,00,00,00,00,
0,00000235,false,Rx,0,8,00,00,00,00,0F,FF,03,FD,
0,000002A0,false,Rx,0,8,00,00,00,D9,00,00,3D,00,
0,00000106,false,Rx,0,8,00,00,00,00,00,00,00,00,
0,000002A2,false,Rx,0,8,00,00,00,00,00,00,00,00,
0,00000115,false,Rx,0,8,00,00,00,00,00,00,00,00,
0,000002BA,false,Rx,0,7,00,00,00,00,00,00,00,00,
0,00000308,false,Rx,0,8,00,00,00,00,04,00,00,00,
0,00000309,false,Rx,0,8,00,00,00,00,00,00,00,60,
0,000000B4,false,Rx,0,7,00,00,00,00,00,C0,C3,00,
0,000000F0,false,Rx,0,8,00,02,10,00,80,00,C0,9D,
0,000000F2,false,Rx,0,8,00,00,00,00,00,00,C0,3F,
0,00000108,false,Rx,0,8,00,00,00,3D,09,00,C0,9C,
0,00000175,false,Rx,0,8,00,00,00,2E,00,00,C0,80,
0,000001D7,false,Rx,0,8,00,00,00,00,00,00,C0,3F,
0,0000031A,false,Rx,0,8,00,00,00,00,00,00,00,00,
0,0000031B,false,Rx,0,8,00,00,00,00,00,00,00,00,
0,0000031C,false,Rx,0,8,00,00,00,00,00,00,00,00,
0,0000031D,false,Rx,0,8,86,00,00,00,00,00,02,00,
0,0000031E,false,Rx,0,8,00,00,00,00,00,00,00,00,
0,0000031F,false,Rx,0,8,00,00,00,00,00,00,00,00,
0,00000324,false,Rx,0,8,00,00,00,00,00,00,00,00,
0,00000355,false,Rx,0,8,00,00,00,00,41,41,41,00,
0,00000357,false,Rx,0,8,00,00,03,FC,00,FF,01,2C,
0,000003D0,false,Rx,0,8,00,00,00,00,00,00,00,00,
0,000003D3,false,Rx,0,6,00,00,00,00,00,00,00,00,
0,000003D4,false,Rx,0,8,00,00,00,00,00,00,00,00,
0,0000015A,false,Rx,0,4,00,00,0E,57,00,00,00,00,
0,000000B4,false,Rx,0,7,00,00,00,00,00,D0,0E,00,
0,000000F0,false,Rx,0,8,00,02,10,00,80,00,D0,50,
0,000000F2,false,Rx,0,8,00,00,00,00,00,00,D0,F2,
0,00000108,false,Rx,0,8,00,00,00,3D,09,00,D0,51,
0,00000160,false,Rx,0,8,00,00,00,44,0F,FF,F0,68,
0,00000175,false,Rx,0,8,00,00,00,2E,00,00,D0,4D,
0,000001D7,false,Rx,0,8,00,00,00,00,00,00,D0,F2,
0,000001D8,false,Rx,0,8,00,00,00,00,E0,00,F3,C2,
0,00000212,false,Rx,0,8,00,00,00,00,00,00,F0,75,
0,0000015A,false,Rx,0,4,00,00,0F,4A,00,00,00,00,
0,000000B4,false,Rx,0,7,00,00,00,00,00,E0,44,00,
0,000000F0,false,Rx,0,8,00,02,10,00,80,00,E0,1A,
0,000000F2,false,Rx,0,8,00,00,00,00,00,00,E0,B8,
0,00000108,false,Rx,0,8,00,00,00,3D,09,00,E0,1B,
0,00000175,false,Rx,0,8,00,00,00,2E,00,00,E0,07,
0,000001D7,false,Rx,0,8,00,00,00,00,00,00,E0,B8,
0,0000015A,false,Rx,0,4,00,00,00,F1,00,00,00,00,
0,00000106,false,Rx,0,8,00,00,00,00,00,00,00,00,
0,000000B4,false,Rx,0,7,00,00,00,00,00,F0,89,00,
0,000000F0,false,Rx,0,8,00,02,10,00,80,00,F0,D7,
0,000000F2,false,Rx,0,8,00,00,00,00,00,00,F0,75,
0,00000108,false,Rx,0,8,00,00,00,3D,09,00,F0,D6,
0,0000015A,false,Rx,0,4,00,00,01,EC,00,00,00,00,
0,00000160,false,Rx,0,8,00,00,00,44,0F,FF,00,17,
0,00000175,false,Rx,0,8,00,00,00,2E,00,00,F0,CA,
0,000001D7,false,Rx,0,8,00,00,00,00,00,00,F0,75,
0,000001D8,false,Rx,0,8,00,00,00,00,E0,00,03,BD,
0,00000212,false,Rx,0,8,00,00,00,00,00,00,00,0A,
0,00000234,false,Rx,0,8,C8,84,01,3B,00,0E,01,63,
0,00000282,false,Rx,0,8,00,00,00,05,00,00,00,FF,
0,00000240,false,Rx,0,8,00,00,00,00,00,00,0F,FF,
0,00000242,false,Rx,0,8,DD,00,00,00,00,00,00,00,
0,00000280,false,Rx,0,8,00,00,00,00,00,00,00,00,
0,000002A4,false,Rx,0,8,00,0A,00,00,F5,0A,00,00,
0,000002A5,false,Rx,0,6,00,00,01,40,00,00,00,00,
0,000002D0,false,Rx,0,8,FF,2C,41,63,C3,B9,00,00,
0,000002D2,false,Rx,0,8,FF,FF,FF,FF,FF,FF,00,00,
0,00000301,false,Rx,0,8,00,00,00,00,00,00,40,19,
0,00000320,false,Rx,0,8,5E,9A,C0,3D,A0,0F,01,A0,
0,0000015A,false,Rx,0,4,00,00,02,CB,00,00,00,00,
0,00000321,false,Rx,0,8,6A,CF,C0,03,1B,01,7F,00,
0,00000322,false,Rx,0,8,00,00,01,F5,01,00,00,00,
0,00000323,false,Rx,0,8,00,00,13,00,00,00,00,00,
0,000003E0,false,Rx,0,8,02,39,37,35,00,00,00,00,
0,000003E7,false,Rx,0,8,00,00,00,00,00,00,00,00,
0,000003EE,false,Rx,0,8,00,00,28,00,00,00,00,40,
0,000000B4,false,Rx,0,7,00,00,00,00,00,00,F6,00,
0,000000F0,false,Rx,0,8,00,02,10,00,80,00,00,A8,
0,000000F2,false,Rx,0,8,00,00,00,00,00,00,00,0A,
0,00000108,false,Rx,0,8,00,00,00,3D,09,00,00,A9,
0,00000175,false,Rx,0,8,00,00,00,2E,00,00,00,B5,
0,000001D7,false,Rx,0,8,00,80,00,00,00,00,00,AA,
0,0000015A,false,Rx,0,4,00,00,03,D6,00,00,00,00,
0,000000B4,false,Rx,0,7,00,00,00,00,00,10,3B,00,
0,000000F0,false,Rx,0,8,00,02,10,00,80,00,10,65,
0,000000F2,false,Rx,0,8,00,00,00,00,00,00,10,C7,
0,00000108,false,Rx,0,8,00,00,00,3D,09,00,10,64,
0,00000160,false,Rx,0,8,00,00,00,44,0F,FF,10,DA,
0,00000175,false,Rx,0,8,00,00,00,2E,00,00,10,78,
0,000001D7,false,Rx,0,8,00,80,00,00,00,00,10,67,
0,000001D8,false,Rx,0,8,00,00,00,00,E0,00,13,70,
0,00000212,false,Rx,0,8,00,00,00,00,00,00,10,C7,
0,00000235,false,Rx,0,8,00,14,00,01,07,CA,05,D3,
0,0000015A,false,Rx,0,4,00,00,04,85,00,00,00,00,
0,000000B4,false,Rx,0,7,00,00,00,00,00,20,71,00,
0,000000F0,false,Rx,0,8,00,02,10,00,80,00,20,2F,
0,000000F2,false,Rx,0,8,00,00,00,00,00,00,20,8D,
0,00000108,false,Rx,0,8,00,00,00,3D,09,00,20,2E,
0,00000175,false,Rx,0,8,00,00,00,2E,00,00,20,32,
0,000001D7,false,Rx,0,8,00,80,00,00,00,00,20,2D,
0,00000106,false,Rx,0,8,00,4E,20,00,00,00,00,00,
0,0000015A,false,Rx,0,4,00,00,05,98,00,00,00,00,
0,000000B4,false,Rx,0,7,00,00,00,00,00,30,BC,00,
0,000000F0,false,Rx,0,8,00,02,10,00,80,00,30,E2,
0,000000F2,false,Rx,0,8,00,00,00,00,00,00,30,40,
0,00000108,false,Rx,0,8,00,00,00,3D,09,00,30,E3,
0,00000160,false,Rx,0,8,00,00,00,44,0F,FF,20,90,
0,00000175,false,Rx,0,8,00,00,00,2E,00,00,30,FF,
0,000001D7,false,Rx,0,8,00,80,00,00,00,00,30,E0,
0,000001D8,false,Rx,0,8,00,00,00,00,E0,00,23,3A,
0,00000212,false,Rx,0,8,00,00,00,00,00,00,20,8D,
0,0000015A,false,Rx,0,4,00,00,06,BF,00,00,00,00,
0,000000B4,false,Rx,0,7,00,00,00,00,00,40,E5,00,
0,000000F0,false,Rx,0,8,00,02,10,00,80,00,40,BB,
0,000000F2,false,Rx,0,8,00,00,00,00,00,00,40,19,
0,00000108,false,Rx,0,8,00,00,00,3D,09,00,40,BA,
0,00000175,false,Rx,0,8,00,00,00,2E,00,00,40,A6,
0,000001D7,false,Rx,0,8,00,80,00,00,00,00,40,B9,
0,00000234,false,Rx,0,8,CA,84,01,3C,00,0E,01,63,
0,00000240,false,Rx,0,8,00,00,00,00,00,00,0F,FF,
0,00000242,false,Rx,0,8,DD,00,00,00,00,00,00,00,
0,000003EC,false,Rx,0,8,03,FF,03,FF,03,FF,00,31,
0,0000015A,false,Rx,0,4,00,00,07,A2,00,00,00,00,
0,00000095,false,Rx,0,8,3A,98,0A,8C,12,01,00,19,
0,000000E0,false,Rx,0,8,00,00,00,00,00,00,00,00,
0,00000107,false,Rx,0,8,00,00,00,00,00,00,00,00,
0,00000150,false,Rx,0,8,00,00,00,00,00,00,00,0A,
0,00000151,false,Rx,0,8,00,00,00,00,00,00,00,00,
0,000001D0,false,Rx,0,8,28,08,00,00,28,00,00,81,
0,00000220,false,Rx,0,8,00,00,00,00,00,00,00,00,
0,00000281,false,Rx,0,8,1F,FF,1F,FF,1F,FF,00,00,
0,00000285,false,Rx,0,8,1F,FF,1F,FF,1F,FF,00,00,
0,000002C6,false,Rx,0,8,00,00,00,00,00,00,50,00,
0,00000306,false,Rx,0,8,00,00,E7,F7,00,00,80,00,
0,00000307,false,Rx,0,8,41,41,00,C0,27,00,27,00,
0,00000106,false,Rx,0,8,00,4E,20,00,00,00,00,00,
0,00000354,false,Rx,0,8,00,00,5F,0A,10,68,08,FC,
0,00000356,false,Rx,0,8,00,00,00,00,00,00,60,00,
0,00000358,false,Rx,0,8,01,00,00,00,00,00,00,57,
0,00000359,false,Rx,0,8,00,00,0C,A3,00,00,00,00,
0,000003E8,false,Rx,0,8,00,00,00,00,00,00,00,00,
0,000000B4,false,Rx,0,7,00,00,00,00,00,50,28,00,
0,000000F0,false,Rx,0,8,00,02,10,00,80,00,50,76,
0,000000F2,false,Rx,0,8,00,00,00,00,00,00,50,D4,
0,00000108,false,Rx,0,8,38,75,20,3D,09,00,50,9D,
0,00000160,false,Rx,0,8,00,00,00,44,0F,FF,30,5D,
0,00000175,false,Rx,0,8,00,00,00,2E,00,00,50,6B,
0,000001D7,false,Rx,0,8,00,80,00,00,00,00,50,74,
0,000001D8,false,Rx,0,8,00,00,00,00,E0,00,33,F7,
0,00000212,false,Rx,0,8,00,00,00,00,00,00,30,40,
0,000003EA,false,Rx,0,8,FF,FF,FF,FF,FF,00,00,B1,
0,000003EB,false,Rx,0,8,FE,FF,FF,00,FF,00,00,4A,
0,000003ED,false,Rx,0,8,FF,FF,78,FF,FF,3F,00,FB,
0,00000107,false,Rx,0,8,00,00,00,00,00,00,00,00,
0,00000095,false,Rx,0,8,3A,98,0A,8C,12,01,10,D4,
0,00000150,false,Rx,0,8,00,00,00,00,00,00,10,C7,
0,0000015A,false,Rx,0,4,00,00,08,19,00,00,00,00,
0,00000235,false,Rx,0,8,00,14,00,01,07,CA,05,D3,
0,0000031A,false,Rx,0,8,3D,09,00,3D,09,00,00,00,
0,00000309,false,Rx,0,8,00,00,00,00,00,00,00,3C,
0,00000115,false,Rx,0,8,00,00,00,00,41,41,01,35,
0,00000308,false,Rx,0,8,00,00,00,00,08,00,39,F4,
0,0000031B,false,Rx,0,8,3D,09,00,3D,09,00,00,00,
0,000000B4,false,Rx,0,7,00,00,00,00,00,60,62,00,
0,000000F0,false,Rx,0,8,00,02,10,00,80,00,60,3C,
0,000000F2,false,Rx,0,8,00,00,00,00,00,00,60,9E,
0,00000108,false,Rx,0,8,38,75,20,3D,09,00,60,D7,
0,00000175,false,Rx,0,8,00,00,00,2E,00,00,60,21,
0,000001D7,false,Rx,0,8,00,80,00,00,00,00,60,3E,
0,0000031C,false,Rx,0,8,01,90,01,90,00,00,00,00,
0,0000031D,false,Rx,0,8,86,00,00,00,00,00,02,00,
0,0000031E,false,Rx,0,8,00,00,00,00,00,00,00,00,
0,0000031F,false,Rx,0,8,01,F4,01,F4,01,F4,00,00,
0,00000324,false,Rx,0,8,00,00,00,00,05,14,01,9D,
0,00000357,false,Rx,0,8,00,00,02,17,01,63,01,2C,
0,00000107,false,Rx,0,8,00,00,00,00,00,00,00,00,
0,00000095,false,Rx,0,8,3A,98,0A,8C,12,01,20,9E,
0,0000015A,false,Rx,0,4,00,00,09,04,00,00,00,00,
0,000000E0,false,Rx,0,8,00,00,00,00,00,00,00,00,
0,00000150,false,Rx,0,8,00,00,00,00,00,00,20,8D,
0,000001D0,false,Rx,0,8,28,08,00,00,28,00,10,4C,
0,00000220,false,Rx,0,8,00,00,00,00,00,00,00,00,
0,000000B4,false,Rx,0,7,00,00,00,00,00,70,AF,00,
0,000000F0,false,Rx,0,8,00,02,10,00,80,00,70,F1,
0,000000F2,false,Rx,0,8,00,00,00,00,00,00,70,53,
0,00000108,false,Rx,0,8,38,75,20,3D,09,00,70,1A,
0,00000160,false,Rx,0,8,00,00,00,44,0F,FF,40,04,
0,00000175,false,Rx,0,8,00,00,00,2E,00,00,70,EC,
0,000001D7,false,Rx,0,8,00,80,00,00,00,00,70,F3,
0,000001D8,false,Rx,0,8,00,00,00,00,E0,00,43,AE,
0,00000212,false,Rx,0,8,00,00,00,00,00,00,40,19,
0,00000107,false,Rx,0,8,00,00,00,00,00,00,00,00,
0,00000095,false,Rx,0,8,3A,98,0A,8C,12,01,30,53,
0,00000150,false,Rx,0,8,00,00,00,00,00,00,30,40,
0,0000015A,false,Rx,0,4,00,00,0A,23,00,00,00,00,
0,00000106,false,Rx,0,8,00,4E,20,00,00,00,00,00,
0,000000B4,false,Rx,0,7,00,00,00,00,00,80,D0,00,
0,000000F0,false,Rx,0,8,00,02,10,00,80,00,80,8E,
0,000000F2,false,Rx,0,8,00,00,00,00,00,00,80,2C,
0,00000108,false,Rx,0,8,38,75,20,3D,09,00,80,65,
0,00000175,false,Rx,0,8,00,00,00,2E,00,00,80,93,
0,000001D7,false,Rx,0,8,00,80,00,00,00,00,80,8C,
0,00000107,false,Rx,0,8,00,00,00,00,00,00,00,00,
0,0000015A,false,Rx,0,4,00,00,0B,3E,00,00,00,00,
0,00000095,false,Rx,0,8,3A,98,0A,8A,09,0F,40,14,
0,000000E0,false,Rx,0,8,00,00,00,00,00,00,00,00,
0,00000150,false,Rx,0,8,00,00,00,00,00,00,40,19,
0,000001D0,false,Rx,0,8,28,08,00,00,28,00,20,06,
0,00000220,false,Rx,0,8,00,00,00,00,00,00,00,00,
0,000000B4,false,Rx,0,7,00,00,00,00,00,90,1D,00,
0,000000F0,false,Rx,0,8,00,02,10,00,80,00,90,43,
0,000000F2,false,Rx,0,8,00,00,00,00,00,00,90,E1,
0,00000108,false,Rx,0,8,38,75,20,3D,09,00,90,A8,
0,00000160,false,Rx,0,8,00,00,00,44,0F,FF,50,C9,
0,00000175,false,Rx,0,8,00,00,00,2E,00,00,90,5E,
0,000001D7,false,Rx,0,8,00,80,00,00,00,00,90,41,
0,000001D8,false,Rx,0,8,00,00,00,00,E0,00,53,63,
0,00000212,false,Rx,0,8,00,00,00,00,00,00,50,D4,
0,00000234,false,Rx,0,8,CB,84,01,3C,00,0E,01,63,
0,00000282,false,Rx,0,8,00,00,00,05,00,00,00,FF,
0,00000240,false,Rx,0,8,00,00,00,00,00,00,0F,FF,
0,00000242,false,Rx,0,8,DD,00,00,00,00,00,00,00,
0,00000280,false,Rx,0,8,00,00,00,00,00,00,00,00,
0,000002A4,false,Rx,0,8,00,0A,00,00,F5,0A,00,00,
0,000002A5,false,Rx,0,6,00,00,01,40,00,00,00,00,
0,000002D0,false,Rx,0,8,FF,28,41,63,C3,B9,00,00,
0,000002D2,false,Rx,0,8,FF,FF,FF,FF,FF,FF,00,00,
0,00000301,false,Rx,0,8,00,00,00,00,00,00,50,D4,
0,00000320,false,Rx,0,8,5E,9A,C0,3E,2D,9F,01,A0,
0,00000321,false,Rx,0,8,6A,CF,C0,03,1B,01,7F,00,
0,00000107,false,Rx,0,8,00,00,00,00,00,00,00,00,
0,0000015A,false,Rx,0,4,00,00,0C,6D,00,00,00,00,
0,00000095,false,Rx,0,8,3A,98,0A,8A,09,0F,50,D9,
0,00000322,false,Rx,0,8,00,00,01,F5,01,00,00,00,
0,00000150,false,Rx,0,8,00,00,00,00,00,00,50,D4,
0,00000323,false,Rx,0,8,00,00,19,00,00,00,00,00,
0,000003E0,false,Rx,0,8,00,59,41,52,54,44,44,45,
0,000003E7,false,Rx,0,8,00,00,00,00,00,00,00,00,
0,000003EE,false,Rx,0,8,00,00,28,00,00,00,00,40,
0,000000B4,false,Rx,0,7,00,00,00,00,00,A0,57,00,
0,000000F0,false,Rx,0,8,00,02,10,00,80,00,A0,09,
0,000000F2,false,Rx,0,8,00,00,00,00,00,00,A0,AB,
0,00000108,false,Rx,0,8,38,6D,50,3D,09,00,A0,4C,
0,00000175,false,Rx,0,8,00,00,00,2E,00,00,A0,14,
0,000001D7,false,Rx,0,8,00,80,00,00,00,00,A0,0B,
0,0000015A,false,Rx,0,4,00,00,0D,70,00,00,00,00,
0,00000107,false,Rx,0,8,00,00,00,00,00,00,00,00,
0,00000095,false,Rx,0,8,3A,98,0A,8A,09,0F,60,93,
0,000000E0,false,Rx,0,8,00,00,00,00,00,00,00,00,
0,00000150,false,Rx,0,8,00,00,00,00,00,00,60,9E,
0,000001D0,false,Rx,0,8,28,08,00,00,28,00,30,CB,
0,00000220,false,Rx,0,8,10,0D,10,11,10,0B,00,00,
0,00000235,false,Rx,0,8,00,14,00,01,07,CA,05,D3,
0,00000106,false,Rx,0,8,00,4E,20,00,00,00,00,00,
0,000000B4,false,Rx,0,7,00,00,00,00,00,B0,9A,00,
0,000000F0,false,Rx,0,8,00,02,10,00,80,00,B0,C4,
0,000000F2,false,Rx,0,8,00,00,00,00,00,00,B0,66,
0,00000108,false,Rx,0,8,38,6D,50,3D,09,00,B0,81,
0,00000160,false,Rx,0,8,00,00,00,44,0F,FF,60,83,
0,00000175,false,Rx,0,8,00,00,00,2E,00,00,B0,D9,
0,000001D7,false,Rx,0,8,00,80,00,00,00,00,B0,C6,
0,000001D8,false,Rx,0,8,00,00,00,00,E0,00,63,29,
0,00000212,false,Rx,0,8,00,00,00,00,00,00,60,9E,
0,00000107,false,Rx,0,8,00,00,00,00,00,00,00,00,
0,0000015A,false,Rx,0,4,00,00,0E,57,00,00,00,00,
0,00000095,false,Rx,0,8,3A,98,0A,8A,09,0F,70,5E,
0,00000150,false,Rx,0,8,00,00,00,00,00,00,70,53,
0,000000B4,false,Rx,0,7,00,00,00,00,00,C0,C3,00,
0,000000F0,false,Rx,0,8,00,02,10,00,80,00,C0,9D,
0,000000F2,false,Rx,0,8,00,00,00,00,00,00,C0,3F,
0,00000108,false,Rx,0,8,38,6D,50,3D,09,00,C0,D8,
0,00000175,false,Rx,0,8,00,00,00,2E,00,00,C0,80,
0,000001D7,false,Rx,0,8,00,80,00,00,00,00,C0,9F,
0,00000107,false,Rx,0,8,00,00,00,00,00,00,00,00,
0,00000095,false,Rx,0,8,3A,98,0A,8A,09,0F,80,21,
0,0000015A,false,Rx,0,4,00,00,0F,4A,00,00,00,00,
0,000000E0,false,Rx,0,8,00,00,00,00,00,00,00,00,
0,00000150,false,Rx,0,8,00,00,00,00,00,00,80,2C,
0,000001D0,false,Rx,0,8,28,08,00,00,28,00,40,92,
0,00000220,false,Rx,0,8,10,0D,10,11,10,0B,00,00,
0,000000B4,false,Rx,0,7,00,00,00,00,00,D0,0E,00,
0,000000F0,false,Rx,0,8,00,02,10,00,80,00,D0,50,
0,000000F2,false,Rx,0,8,00,00,00,00,00,00,D0,F2,
0,00000108,false,Rx,0,8,38,6D,50,3D,09,00,D0,15,
0,00000160,false,Rx,0,8,00,00,00,44,0F,FF,70,4E,
0,00000175,false,Rx,0,8,00,00,00,2E,00,00,D0,4D,
0,000001D7,false,Rx,0,8,00,00,00,00,00,00,D0,F2,
0,000001D8,false,Rx,0,8,00,00,00,00,E0,00,73,E4,
0,00000212,false,Rx,0,8,00,00,00,00,00,00,70,53,
0,00000107,false,Rx,0,8,00,00,00,00,00,00,00,00,
0,0000015A,false,Rx,0,4,00,00,00,F1,00,00,00,00,
0,00000095,false,Rx,0,8,3A,98,0A,8A,09,0F,90,EC,
0,00000150,false,Rx,0,8,00,00,00,00,00,00,90,E1,
0,00000106,false,Rx,0,8,00,4E,20,00,00,00,00,00,
0,000000B4,false,Rx,0,7,00,00,00,00,00,E0,44,00,
0,000000F0,false,Rx,0,8,00,02,10,00,80,00,E0,1A,
0,000000F2,false,Rx,0,8,00,00,00,00,00,00,E0,B8,
0,00000108,false,Rx,0,8,38,6D,50,3D,09,00,E0,5F,
0,0000015A,false,Rx,0,4,00,00,01,EC,00,00,00,00,
0,000001D7,false,Rx,0,8,00,00,00,00,00,00,E0,B8,
0,00000175,false,Rx,0,8,00,00,00,2E,00,00,E0,07,
0,00000234,false,Rx,0,8,CD,84,01,3C,00,0E,01,63,
0,00000240,false,Rx,0,8,00,00,00,00,00,00,0F,FF,
0,00000242,false,Rx,0,8,DD,00,00,00,00,00,00,00,
0,000003EC,false,Rx,0,8,03,FF,03,FF,03,FF,10,FC,
0,00000095,false,Rx,0,8,3A,98,0A,8A,09,0F,A0,A6,
0,000000E0,false,Rx,0,8,00,00,00,00,00,00,00,00,
0,00000107,false,Rx,0,8,00,00,00,00,00,00,00,00,
0,00000150,false,Rx,0,8,00,00,00,00,00,00,A0,AB,
0,000001D0,false,Rx,0,8,28,08,00,00,28,00,50,5F,
0,00000220,false,Rx,0,8,10,0D,10,11,10,0B,00,00,
0,00000281,false,Rx,0,8,1F,FF,1F,FF,1F,FF,00,00,
0,0000015A,false,Rx,0,4,00,00,02,CB,00,00,00,00,
0,00000285,false,Rx,0,8,1F,FF,1F,FF,1F,FF,00,00,
0,00000306,false,Rx,0,8,00,00,E7,F7,EE,EC,8E,F5,
0,00000307,false,Rx,0,8,41,41,00,00,28,00,28,00,
0,000003E8,false,Rx,0,8,00,00,00,00,00,00,00,00,
0,000003EA,false,Rx,0,8,FF,FF,FF,FF,FF,00,10,7C,
0,000003EB,false,Rx,0,8,FE,FF,FF,00,FF,00,10,87,
0,000003ED,false,Rx,0,8,FF,FF,78,FF,FF,3F,10,36,
0,000000B4,false,Rx,0,7,00,00,00,00,00,F0,89,00,
0,000000F0,false,Rx,0,8,00,02,10,00,80,00,F0,D7,
0,000000F2,false,Rx,0,8,00,00,00,00,00,00,F0,75,
0,00000108,false,Rx,0,8,38,6D,50,3D,09,00,F0,92,
0,00000160,false,Rx,0,8,00,00,00,44,0F,FF,80,31,
0,00000175,false,Rx,0,8,00,00,00,2E,00,00,F0,CA,
0,000001D7,false,Rx,0,8,00,00,00,00,00,00,F0,75,
0,000001D8,false,Rx,0,8,00,00,00,00,E0,00,83,9B,
0,00000212,false,Rx,0,8,00,00,00,00,00,00,80,2C,
0,00000107,false,Rx,0,8,00,00,00,00,00,00,00,00,
0,00000095,false,Rx,0,8,3A,98,0A,8A,09,0F,B0,6B,
0,00000150,false,Rx,0,8,00,00,00,00,00,00,B0,66,
0,0000015A,false,Rx,0,4,00,00,03,D6,00,00,00,00,
0,0000063F,false,Rx,0,8,07,59,0E,FF,2D,3A,00,2C,
0,00000235,false,Rx,0,8,00,14,00,01,07,CA,05,D3,
0,0000031A,false,Rx,0,8,3D,09,00,3D,09,00,00,00,
0,00000309,false,Rx,0,8,00,00,00,00,00,00,00,3C,
0,00000115,false,Rx,0,8,00,00,00,00,42,42,02,31,
0,00000308,false,Rx,0,8,00,00,00,00,08,00,39,F4,
0,000000B4,false,Rx,0,7,00,00,00,00,00,00,F6,00,
0,000000F0,false,Rx,0,8,00,02,10,00,80,00,00,A8,
0,000000F2,false,Rx,0,8,00,00,00,00,00,00,00,0A,
0,00000108,false,Rx,0,8,38,6D,50,3D,09,00,00,ED,
0,00000175,false,Rx,0,8,00,00,00,2E,00,00,00,B5,
0,000001D7,false,Rx,0,8,00,00,00,00,00,00,00,0A,
0,0000031B,false,Rx,0,8,3D,09,00,3D,09,00,00,00,
0,0000031C,false,Rx,0,8,01,90,01,90,00,00,00,00,
0,0000031D,false,Rx,0,8,86,00,00,00,00,00,02,00,
0,0000031E,false,Rx,0,8,00,00,00,00,00,00,00,00,
0,0000031F,false,Rx,0,8,01,F4,01,F4,01,F4,00,00,
0,00000324,false,Rx,0,8,00,00,00,00,05,14,01,9D,
0,00000357,false,Rx,0,8,00,00,02,17,01,63,01,2C,
0,00000107,false,Rx,0,8,00,00,00,00,00,00,00,00,
0,00000095,false,Rx,0,8,3A,98,0A,8A,09,0F,C0,32,
0,000000E0,false,Rx,0,8,00,00,00,00,00,00,00,00,
0,0000015A,false,Rx,0,4,00,00,04,85,00,00,00,00,
0,00000150,false,Rx,0,8,00,00,00,00,00,00,C0,3F,
0,000001D0,false,Rx,0,8,28,10,F0,F0,10,00,60,72,
0,00000220,false,Rx,0,8,10,0D,10,11,10,0B,00,00,
0,000000B4,false,Rx,0,7,00,00,00,00,00,10,3B,00,
0,000000F0,false,Rx,0,8,00,02,10,00,80,00,10,65,
0,000000F2,false,Rx,0,8,00,00,00,00,00,00,10,C7,
0,00000108,false,Rx,0,8,38,6D,50,3D,09,00,10,20,
0,00000160,false,Rx,0,8,00,00,00,44,0F,FF,90,FC,
0,00000175,false,Rx,0,8,00,00,00,2E,00,00,10,78,
0,000001D7,false,Rx,0,8,00,00,00,00,00,00,10,C7,
0,000001D8,false,Rx,0,8,00,00,00,00,E0,00,93,56,
0,00000212,false,Rx,0,8,00,00,00,00,00,00,90,E1,
0,00000106,false,Rx,0,8,00,4E,20,00,00,00,00,00,
0,00000107,false,Rx,0,8,00,00,00,00,00,00,00,00,
0,00000095,false,Rx,0,8,3A,98,0A,8A,09,0F,D0,FF,
0,00000150,false,Rx,0,8,00,00,00,00,00,00,D0,F2,
0,0000015A,false,Rx,0,4,00,00,05,98,00,00,00,00,
0,000000B4,false,Rx,0,7,00,00,00,00,00,20,71,00,
0,000000F0,false,Rx,0,8,00,02,10,00,80,00,20,2F,
0,000000F2,false,Rx,0,8,00,00,00,00,00,00,20,8D,
0,00000108,false,Rx,0,8,38,6D,50,3D,09,00,20,6A,
0,00000175,false,Rx,0,8,00,00,00,2E,00,00,20,32,
0,000001D7,false,Rx,0,8,00,00,00,00,00,00,20,8D,
0,0000015A,false,Rx,0,4,00,00,06,BF,00,00,00,00,
0,00000107,false,Rx,0,8,00,00,00,00,00,00,00,00,
0,00000095,false,Rx,0,8,3A,98,0A,8A,09,0F,E0,B5,
0,000000E0,false,Rx,0,8,00,00,00,00,00,00,00,00,
0,00000150,false,Rx,0,8,00,00,00,00,00,00,E0,B8,
0,000001D0,false,Rx,0,8,28,10,F0,F0,10,00,70,BF,
0,00000220,false,Rx,0,8,10,0D,10,11,10,0B,00,00,
0,000000B4,false,Rx,0,7,00,00,00,00,00,30,BC,00,
0,000000F0,false,Rx,0,8,00,02,10,00,80,00,30,E2,
0,000000F2,false,Rx,0,8,00,00,00,00,00,00,30,40,
0,00000108,false,Rx,0,8,38,6D,50,3D,09,00,30,A7,
0,00000160,false,Rx,0,8,00,00,00,44,0F,FF,A0,B6,
0,00000175,false,Rx,0,8,00,00,00,2E,00,00,30,FF,
0,000001D7,false,Rx,0,8,00,00,00,00,00,00,30,40,
0,000001D8,false,Rx,0,8,00,00,00,00,E0,00,A3,1C,
0,00000212,false,Rx,0,8,00,00,00,00,00,00,A0,AB,
0,00000234,false,Rx,0,8,CE,84,01,3C,00,0E,01,63,
0,00000282,false,Rx,0,8,00,00,00,05,00,00,00,01,
0,00000240,false,Rx,0,8,00,00,00,00,00,00,0F,FF,
0,00000242,false,Rx,0,8,DD,00,00,00,00,00,00,00,
0,00000107,false,Rx,0,8,00,00,00,00,00,00,00,00,
0,00000280,false,Rx,0,8,00,00,00,00,00,00,00,00,
0,00000095,false,Rx,0,8,3A,98,0A,8A,09,0F,F0,78,
0,000002A4,false,Rx,0,8,00,0A,00,00,F5,0A,00,00,
0,00000150,false,Rx,0,8,00,00,00,00,00,00,F0,75,
0,000002A5,false,Rx,0,6,00,00,01,40,00,00,00,00,
0,000002D0,false,Rx,0,8,FF,28,41,63,C3,B9,00,00,
0,000002D2,false,Rx,0,8,FF,FF,FF,FF,FF,FF,00,00,
0,0000015A,false,Rx,0,4,00,00,07,A2,00,00,00,00,
0,00000301,false,Rx,0,8,00,00,00,00,00,00,60,9E,
0,00000320,false,Rx,0,8,5E,9A,C0,3E,2D,9F,01,A0,
0,00000321,false,Rx,0,8,6A,CF,C0,03,1B,01,7F,00,
0,00000322,false,Rx,0,8,00,00,01,F5,01,00,00,00,
0,00000323,false,Rx,0,8,00,00,25,00,00,00,00,00,
0,000003D1,false,Rx,0,8,00,00,00,36,00,00,00,00,
0,000003E0,false,Rx,0,8,01,46,33,52,47,30,38,36,
0,000003E7,false,Rx,0,8,00,00,00,00,00,00,00,00,
0,000003EE,false,Rx,0,8,00,00,28,00,00,00,00,40,
0,000003FD,false,Rx,0,8,47,18,71,23,00,00,00,00,
0,00000106,false,Rx,0,8,00,4E,20,00,00,00,00,00,
0,000000B4,false,Rx,0,7,00,00,00,00,00,40,E5,00,
0,000000F0,false,Rx,0,8,00,02,10,00,80,00,40,BB,
0,000000F2,false,Rx,0,8,00,00,00,00,00,00,40,19,
0,00000108,false,Rx,0,8,38,6D,50,3D,09,00,40,FE,
0,00000175,false,Rx,0,8,00,00,00,2E,00,00,40,A6,
0,000001D7,false,Rx,0,8,00,00,00,00,00,00,40,19,
0,0000015A,false,Rx,0,4,00,00,08,19,00,00,00,00,
0,00000107,false,Rx,0,8,00,00,00,00,00,00,00,00,
0,00000095,false,Rx,0,8,3A,98,0A,8A,09,0F,00,07,
0,000000E0,false,Rx,0,8,00,00,00,00,00,00,00,00,
0,00000150,false,Rx,0,8,00,00,00,00,00,00,00,0A,
0,000001D0,false,Rx,0,8,28,10,F0,F0,10,00,80,C0,
0,00000220,false,Rx,0,8,10,0D,10,11,10,0B,00,00,
0,00000235,false,Rx,0,8,00,14,00,01,07,CA,05,D3,
0,000002A0,false,Rx,0,8,00,05,11,CA,00,00,00,00,
0,000002A2,false,Rx,0,8,04,00,04,00,06,83,00,00,
0,00000355,false,Rx,0,8,40,00,00,00,28,28,40,00,
0,000000B4,false,Rx,0,7,00,00,00,00,00,50,28,00,
0,000000F0,false,Rx,0,8,00,02,10,00,80,00,50,76,
0,000000F2,false,Rx,0,8,00,00,00,00,00,00,50,D4,
0,00000108,false,Rx,0,8,38,6D,50,3D,09,00,50,33,
0,00000160,false,Rx,0,8,00,00,00,44,0F,FF,B0,7B,
0,00000175,false,Rx,0,8,00,00,00,2E,00,00,50,6B,
0,000001D7,false,Rx,0,8,00,00,00,00,00,00,50,D4,
0,000001D8,false,Rx,0,8,00,00,00,00,E0,00,B3,D1,
0,00000212,false,Rx,0,8,00,00,00,00,00,00,B0,66,
0,00000107,false,Rx,0,8,00,00,00,00,00,00,00,00,
0,00000095,false,Rx,0,8,3A,98,0A,8A,09,0F,10,CA,
0,00000150,false,Rx,0,8,00,00,00,00,00,00,10,C7,
0,0000015A,false,Rx,0,4,00,00,09,04,00,00,00,00,
0,000000B4,false,Rx,0,7,00,00,00,00,00,60,62,00,
0,000000F0,false,Rx,0,8,00,02,10,00,80,00,60,3C,
0,000000F2,false,Rx,0,8,00,00,00,00,00,00,60,9E,
0,00000108,false,Rx,0,8,38,6D,50,3D,09,00,60,79,
0,00000175,false,Rx,0,8,00,00,00,2E,00,00,60,21,
0,000001D7,false,Rx,0,8,00,00,00,00,00,00,60,9E,
0,00000107,false,Rx,0,8,00,00,00,00,00,00,00,00,
0,00000095,false,Rx,0,8,3A,98,0A,8A,09,0F,20,80,
0,000000E0,false,Rx,0,8,00,00,00,00,00,00,00,00,
0,0000015A,false,Rx,0,4,00,00,0A,23,00,00,00,00,
0,00000150,false,Rx,0,8,00,00,00,00,00,00,20,8D,
0,000001D0,false,Rx,0,8,28,10,F0,F0,10,00,90,0D,
0,00000220,false,Rx,0,8,10,0D,10,11,10,0B,00,00,
0,00000106,false,Rx,0,8,00,4E,20,00,00,00,00,00,
0,000000B4,false,Rx,0,7,00,00,00,00,00,70,AF,00,
0,000000F0,false,Rx,0,8,00,02,10,00,80,00,70,F1,
0,000000F2,false,Rx,0,8,00,00,00,00,00,00,70,53,
0,00000108,false,Rx,0,8,38,6D,50,3D,09,00,70,B4,
0,00000160,false,Rx,0,8,00,00,00,44,0F,FF,C0,22,
0,00000175,false,Rx,0,8,00,00,00,2E,00,00,70,EC,
0,000001D7,false,Rx,0,8,00,00,00,00,00,00,70,53,
0,000001D8,false,Rx,0,8,00,00,00,00,E0,00,C3,88,
0,00000212,false,Rx,0,8,00,00,00,00,00,00,C0,3F,
0,0000015A,false,Rx,0,4,00,00,0B,3E,00,00,00,00,
0,00000107,false,Rx,0,8,00,00,00,00,00,00,00,00,
0,00000095,false,Rx,0,8,3A,98,0A,8A,09,0F,30,4D,
0,00000150,false,Rx,0,8,00,00,00,00,00,00,30,40,
0,000000B4,false,Rx,0,7,00,00,00,00,00,80,D0,00,
0,000000F0,false,Rx,0,8,00,02,10,00,80,00,80,8E,
0,000000F2,false,Rx,0,8,00,00,00,00,00,00,80,2C,
0,00000108,false,Rx,0,8,38,6D,50,3D,09,00,80,CB,
0,00000175,false,Rx,0,8,00,00,00,2E,00,00,80,93,
0,000001D7,false,Rx,0,8,00,00,00,00,00,00,80,2C,
0,00000234,false,Rx,0,8,D0,84,01,3C,00,0E,01,63,
0,00000240,false,Rx,0,8,00,00,00,00,00,00,0F,FF,
0,00000242,false,Rx,0,8,DD,00,00,00,00,00,00,00,
0,0000015A,false,Rx,0,4,00,00,0C,6D,00,00,00,00,
0,000003EC,false,Rx,0,8,03,FF,03,FF,03,FF,20,B6,
0,00000095,false,Rx,0,8,3A,98,0A,8A,09,0F,40,14,
0,000000E0,false,Rx,0,8,00,00,00,00,00,00,00,00,
0,00000107,false,Rx,0,8,00,00,00,00,00,00,00,00,
0,00000150,false,Rx,0,8,00,00,00,00,00,00,40,19,
0,000001D0,false,Rx,0,8,28,10,F0,F0,10,00,A0,47,
0,00000220,false,Rx,0,8,10,0D,10,11,10,0B,00,00,
0,00000281,false,Rx,0,8,1F,FF,1F,FF,1F,FF,00,00,
0,00000285,false,Rx,0,8,1F,FF,1F,FF,1F,FF,00,00,
0,00000306,false,Rx,0,8,00,00,E7,F7,EE,EC,8E,F5,
0,00000307,false,Rx,0,8,41,41,00,C0,27,00,27,00,
0,000003E8,false,Rx,0,8,00,00,00,00,00,00,00,00,
0,000003EA,false,Rx,0,8,4B,00,00,00,7D,00,20,AB,
0,000003EB,false,Rx,0,8,02,00,00,07,FF,00,20,CD,
0,000003ED,false,Rx,0,8,FF,FF,78,FF,FF,3F,20,7C,
0,000000B4,false,Rx,0,7,00,00,00,00,00,90,1D,00,
0,000000F0,false,Rx,0,8,00,02,10,00,80,00,90,43,
0,000000F2,false,Rx,0,8,00,00,00,00,00,00,90,E1,
0,00000108,false,Rx,0,8,38,6D,50,3D,09,00,90,06,
0,00000160,false,Rx,0,8,00,00,00,44,0F,FF,D0,EF,
0,00000175,false,Rx,0,8,00,00,00,2E,00,00,90,5E,
0,000001D7,false,Rx,0,8,00,00,00,00,00,00,90,E1,
0,000001D8,false,Rx,0,8,00,00,00,00,00,00,D3,D5,
0,00000212,false,Rx,0,8,00,00,00,00,00,00,D0,F2,
0,000000F4,false,Rx,0,8,80,07,00,46,44,00,71,BB,
0,000000F5,false,Rx,0,8,00,03,40,00,10,00,70,1E,
0,000000F6,false,Rx,0,8,1C,F8,03,08,00,0B,70,3B,
0,000000F7,false,Rx,0,8,40,00,00,06,80,00,71,39,
0,00000107,false,Rx,0,8,00,00,00,00,00,00,00,00,
0,00000095,false,Rx,0,8,3A,98,0A,8A,09,0F,50,D9,
0,00000150,false,Rx,0,8,00,00,00,00,00,00,50,D4,
0,0000015A,false,Rx,0,4,00,00,0D,70,00,00,00,00,
0,00000235,false,Rx,0,8,00,14,00,01,07,CA,05,D3,
0,00000106,false,Rx,0,8,00,4E,20,00,00,00,00,00,
0,0000031A,false,Rx,0,8,3D,09,00,3D,09,00,00,00,
0,00000115,false,Rx,0,8,00,00,00,00,43,43,03,38,
0,00000308,false,Rx,0,8,00,00,00,00,08,00,39,F4,
0,00000309,false,Rx,0,8,00,00,00,00,00,00,00,20,
0,0000031B,false,Rx,0,8,3D,09,00,3D,09,00,00,00,
0,000000B4,false,Rx,0,7,00,00,00,00,00,A0,57,00,
0,000000F0,false,Rx,0,8,00,02,10,00,80,00,A0,09,
0,000000F2,false,Rx,0,8,00,00,00,00,00,00,A0,AB,
0,00000108,false,Rx,0,8,38,6D,50,3D,09,00,A0,4C,
0,00000175,false,Rx,0,8,00,00,00,2E,00,00,A0,14,
0,000001D7,false,Rx,0,8,00,00,00,00,00,00,A0,AB,
0,0000031C,false,Rx,0,8,01,90,01,90,00,00,00,00,
0,0000031D,false,Rx,0,8,86,00,00,00,00,00,02,00,
0,0000031E,false,Rx,0,8,00,00,00,00,00,00,00,00,
0,0000031F,false,Rx,0,8,01,F4,01,F4,01,F4,00,00,
0,00000324,false,Rx,0,8,00,00,00,00,05,14,01,9D,
0,00000104,false,Rx,0,8,FF,FF,00,53,00,00,40,EE,
0,000000F4,false,Rx,0,8,80,06,00,46,44,00,81,82,
0,000000F5,false,Rx,0,8,00,03,40,00,10,00,80,61,
0,000000F6,false,Rx,0,8,1C,F8,03,08,00,0E,80,25,
0,000000F7,false,Rx,0,8,40,00,00,06,80,00,81,46,
0,00000164,false,Rx,0,8,10,00,1C,F9,03,06,40,7A,
0,00000166,false,Rx,0,8,00,00,04,2C,9B,57,40,CB,
0,00000357,false,Rx,0,8,00,00,02,17,01,63,01,2C,
0,0000015A,false,Rx,0,4,00,00,0E,57,00,00,00,00,
0,00000107,false,Rx,0,8,00,00,00,00,00,00,00,00,
0,00000095,false,Rx,0,8,3A,98,0A,8A,09,0F,60,93,
0,000000E0,false,Rx,0,8,00,00,00,00,00,00,00,00,
0,00000150,false,Rx,0,8,00,00,00,00,00,00,60,9E,
0,000001D0,false,Rx,0,8,28,10,F0,F0,10,00,B0,8A,
0,00000220,false,Rx,0,8,10,0D,10,11,10,0B,00,00,
0,000000B4,false,Rx,0,7,00,00,00,00,00,B0,9A,00,
0,000000F0,false,Rx,0,8,00,02,10,00,80,00,B0,C4,
0,000000F2,false,Rx,0,8,00,00,00,00,00,00,B0,66,
0,00000108,false,Rx,0,8,38,6D,50,3D,09,00,B0,81,
0,00000160,false,Rx,0,8,00,00,00,44,0F,FF,E0,A5,
0,00000175,false,Rx,0,8,00,00,00,2E,00,00,B0,D9,
0,000001D7,false,Rx,0,8,00,00,00,00,00,00,B0,66,
0,000001D8,false,Rx,0,8,00,00,00,00,00,00,E3,9F,
0,00000212,false,Rx,0,8,00,00,00,00,00,00,E0,B8,
0,000000F4,false,Rx,0,8,80,05,00,46,44,00,91,85,
0,000000F5,false,Rx,0,8,00,03,40,00,10,00,90,AC,
0,000000F6,false,Rx,0,8,1C,F8,03,08,00,0E,90,E8,
0,000000F7,false,Rx,0,8,40,00,00,06,80,00,91,8B,
0,00000107,false,Rx,0,8,00,00,00,00,00,00,00,00,
0,00000095,false,Rx,0,8,3A,98,0A,8A,09,0F,70,5E,
0,0000015A,false,Rx,0,4,00,00,0F,4A,00,00,00,00,
0,00000150,false,Rx,0,8,00,00,00,00,00,00,70,53,
0,000000B4,false,Rx,0,7,00,00,00,00,00,C0,C3,00,
0,000000F0,false,Rx,0,8,00,02,10,00,80,00,C0,9D,
0,000000F2,false,Rx,0,8,00,00,00,00,00,00,C0,3F,
0,00000108,false,Rx,0,8,38,6D,50,3D,09,00,C0,D8,
0,00000175,false,Rx,0,8,00,00,00,2E,00,00,C0,80,
0,000001D7,false,Rx,0,8,00,00,00,00,00,00,C0,3F,
0,00000166,false,Rx,0,8,00,00,05,2D,9B,57,50,F1,
0,000000F4,false,Rx,0,8,80,04,00,46,44,00,A1,89,
0,000000F5,false,Rx,0,8,00,03,40,00,10,00,A0,E6,
0,000000F6,false,Rx,0,8,1C,F8,03,08,00,11,A0,B5,
0,000000F7,false,Rx,0,8,40,00,00,06,80,00,A1,C1,
0,00000104,false,Rx,0,8,FF,FF,00,4A,00,00,50,07,
0,00000164,false,Rx,0,8,10,00,1C,B2,03,29,50,D3,
0,00000284,false,Rx,0,8,4E,28,28,00,00,00,00,00,
0,0000015A,false,Rx,0,4,00,00,00,F1,00,00,00,00,
0,00000107,false,Rx,0,8,00,00,00,00,00,00,00,00,
0,00000095,false,Rx,0,8,3A,98,0A,8A,09,0F,80,21,
0,000000E0,false,Rx,0,8,00,00,00,00,00,00,00,00,
0,00000150,false,Rx,0,8,00,00,00,00,00,00,80,2C,
0,000001D0,false,Rx,0,8,28,10,F0,F0,10,00,C0,D3,
0,00000220,false,Rx,0,8,10,0D,10,11,10,0B,00,00,
0,00000106,false,Rx,0,8,00,4E,20,00,00,00,00,00,
0,000000B4,false,Rx,0,7,00,00,00,00,00,D0,0E,00,
0,000000F0,false,Rx,0,8,00,02,10,00,80,00,D0,50,
0,000000F2,false,Rx,0,8,00,00,00,00,00,00,D0,F2,
0,00000108,false,Rx,0,8,38,6D,50,3D,09,00,D0,15,
0,0000015A,false,Rx,0,4,00,00,01,EC,00,00,00,00,
0,00000160,false,Rx,0,8,00,00,00,44,0F,FF,F0,68,
0,00000175,false,Rx,0,8,00,00,00,2E,00,00,D0,4D,
0,000001D7,false,Rx,0,8,00,00,00,00,00,00,D0,F2,
0,000001D8,false,Rx,0,8,00,00,00,00,00,00,F3,52,
0,00000212,false,Rx,0,8,00,00,00,00,00,00,F0,75,
0,00000234,false,Rx,0,8,D2,84,01,3C,00,0E,01,63,
0,00000282,false,Rx,0,8,00,00,00,05,00,00,00,01,
0,00000240,false,Rx,0,8,00,00,00,00,00,00,0F,FF,
0,000000F4,false,Rx,0,8,80,03,00,46,44,00,B1,8B,
0,000000F5,false,Rx,0,8,00,03,40,00,10,00,B0,2B,
0,000000F6,false,Rx,0,8,1C,F8,03,08,00,11,B0,78,
0,000000F7,false,Rx,0,8,40,00,00,06,80,00,B1,0C,
0,00000107,false,Rx,0,8,00,00,00,00,00,00,00,00,
0,00000242,false,Rx,0,8,DD,00,00,00,00,00,00,00,
0,00000095,false,Rx,0,8,3A,98,0A,8A,09,0F,90,EC,
0,00000280,false,Rx,0,8,00,00,00,00,00,00,00,00,
0,00000150,false,Rx,0,8,00,00,00,00,00,00,90,E1,
0,000002A4,false,Rx,0,8,00,0A,00,00,F5,0A,00,00,
0,00000354,false,Rx,0,8,00,00,5F,0A,10,68,08,FC,
0,0000015A,false,Rx,0,4,00,00,02,CB,00,00,00,00,
0,00000356,false,Rx,0,8,00,00,00,00,00,00,0A,BE,
0,000002A5,false,Rx,0,6,00,00,01,40,00,00,00,00,
0,00000358,false,Rx,0,8,01,00,00,00,00,00,10,9A,
0,000002D0,false,Rx,0,8,FF,28,41,63,C3,B9,00,00,
0,00000359,false,Rx,0,8,00,00,0C,A3,01,45,00,00,
0,000002D2,false,Rx,0,8,FF,FF,FF,FF,FF,FF,00,00,
0,00000301,false,Rx,0,8,00,00,00,00,00,00,70,53,
0,00000320,false,Rx,0,8,5E,9A,C0,3E,2D,9F,01,A0,
0,00000321,false,Rx,0,8,6A,CF,C0,03,1B,01,7F,00,
0,00000322,false,Rx,0,8,00,00,01,F5,01,00,00,00,
0,00000323,false,Rx,0,8,00,00,25,00,00,00,00,00,
0,000003E0,false,Rx,0,8,02,39,37,35,00,00,00,00,
0,000003E7,false,Rx,0,8,00,00,00,00,00,00,00,00,
0,000003EE,false,Rx,0,8,00,00,28,00,00,00,00,40,
0,000000B4,false,Rx,0,7,00,00,00,00,00,E0,44,00,
0,000000F0,false,Rx,0,8,00,02,10,00,80,00,E0,1A,
0,000000F2,false,Rx,0,8,00,00,00,00,00,00,E0,B8,
0,00000108,false,Rx,0,8,38,6D,50,3D,09,00,E0,5F,
0,00000175,false,Rx,0,8,00,00,00,2E,00,00,E0,07,
0,000001D7,false,Rx,0,8,00,00,00,00,00,00,E0,B8,
0,00000166,false,Rx,0,8,00,00,06,2D,9B,57,60,05,
0,000000F4,false,Rx,0,8,80,02,00,46,44,00,C1,94,
0,000000F5,false,Rx,0,8,00,03,40,00,10,00,C0,72,
0,000000F6,false,Rx,0,8,1C,F8,03,08,00,14,C0,40,
0,000000F7,false,Rx,0,8,40,00,00,06,80,00,C1,55,
0,00000104,false,Rx,0,8,FF,FF,00,60,00,00,60,BC,
0,00000164,false,Rx,0,8,10,00,1A,9F,04,16,60,15,
0,0000015A,false,Rx,0,4,00,00,03,D6,00,00,00,00,
0,00000107,false,Rx,0,8,00,00,00,00,00,00,00,00,
0,00000095,false,Rx,0,8,3A,98,0A,8A,09,0F,A0,A6,
0,000000E0,false,Rx,0,8,00,00,00,00,00,00,00,00,
0,00000150,false,Rx,0,8,00,00,00,00,00,00,A0,AB,
0,000001D0,false,Rx,0,8,28,10,F0,F0,10,00,D0,1E,
0,00000220,false,Rx,0,8,10,0D,10,11,10,0B,00,00,
0,000000B4,false,Rx,0,7,00,00,00,00,00,F0,89,00,
0,000000F0,false,Rx,0,8,00,02,10,00,80,00,F0,D7,
0,000000F2,false,Rx,0,8,00,00,00,00,00,00,F0,75,
0,00000108,false,Rx,0,8,38,6D,50,3D,09,00,F0,92,
0,00000160,false,Rx,0,8,00,00,00,44,0F,FF,00,17,
0,00000175,false,Rx,0,8,00,00,00,2E,00,00,F0,CA,
0,000001D7,false,Rx,0,8,00,00,00,00,00,00,F0,75,
0,000001D8,false,Rx,0,8,00,00,00,00,00,00,03,2D,
0,00000212,false,Rx,0,8,00,00,00,00,00,00,00,0A,
0,00000235,false,Rx,0,8,00,14,00,01,07,CA,05,D3,
0,000000F4,false,Rx,0,8,80,02,00,46,44,00,D1,59,
0,000000F5,false,Rx,0,8,00,03,40,00,10,00,D0,BF,
0,000000F6,false,Rx,0,8,1C,F8,03,08,00,14,D0,8D,
0,000000F7,false,Rx,0,8,40,00,00,06,80,00,D1,98,
0,00000107,false,Rx,0,8,00,00,00,00,00,00,00,00,
0,00000095,false,Rx,0,8,3A,98,0A,8A,09,0F,B0,6B,
0,00000150,false,Rx,0,8,00,00,00,00,00,00,B0,66,
0,0000015A,false,Rx,0,4,00,00,04,85,00,00,00,00,
0,000000B4,false,Rx,0,7,00,00,00,00,00,00,F6,00,
0,000000F0,false,Rx,0,8,00,02,10,00,80,00,00,A8,
0,000000F2,false,Rx,0,8,00,00,00,00,00,00,00,0A,
0,00000108,false,Rx,0,8,38,6D,50,3D,09,00,00,ED,
0,00000175,false,Rx,0,8,00,00,00,2E,00,00,00,B5,
0,000001D7,false,Rx,0,8,00,00,00,00,00,00,00,0A,
0,00000166,false,Rx,0,8,00,00,07,2E,9B,57,70,18,
0,000000F4,false,Rx,0,8,80,01,00,46,44,00,E1,D9,
0,000000F5,false,Rx,0,8,00,03,40,00,10,00,E0,F5,
0,000000F6,false,Rx,0,8,1C,F8,03,08,00,16,E0,5F,
0,000000F7,false,Rx,0,8,40,00,00,06,80,00,E1,D2,
0,00000104,false,Rx,0,8,FF,FF,00,46,00,00,70,52,
0,00000164,false,Rx,0,8,10,00,18,CA,05,F6,70,B7,
0,00000107,false,Rx,0,8,00,00,00,00,00,00,00,00,
0,0000015A,false,Rx,0,4,00,00,05,98,00,00,00,00,
0,00000095,false,Rx,0,8,3A,98,0A,8A,09,0F,C0,32,
0,00000106,false,Rx,0,8,00,4E,20,00,00,00,00,00,
0,000000E0,false,Rx,0,8,00,00,00,00,00,00,00,00,
0,00000150,false,Rx,0,8,00,00,00,00,00,00,C0,3F,
0,000001D0,false,Rx,0,8,28,10,F0,F0,10,00,E0,54,
0,00000220,false,Rx,0,8,10,0D,10,11,10,0B,00,00,
0,000000B4,false,Rx,0,7,00,00,00,00,00,10,3B,00,
0,000000F0,false,Rx,0,8,00,02,10,00,80,00,10,65,
0,000000F2,false,Rx,0,8,00,00,00,00,00,00,10,C7,
0,00000108,false,Rx,0,8,38,6D,50,3D,09,00,10,20,
0,00000160,false,Rx,0,8,00,00,00,44,0F,FF,10,DA,
0,00000175,false,Rx,0,8,00,00,00,2E,00,00,10,78,
0,000001D7,false,Rx,0,8,00,00,00,00,00,00,10,C7,
0,000001D8,false,Rx,0,8,00,00,00,00,00,00,13,E0,
0,00000212,false,Rx,0,8,00,00,00,00,00,00,10,C7,
0,000000F4,false,Rx,0,8,80,01,00,46,44,00,F1,14,
0,000000F5,false,Rx,0,8,00,03,40,00,10,00,F0,38,
0,000000F6,false,Rx,0,8,1C,F8,03,08,00,16,F0,92,
0,000000F7,false,Rx,0,8,40,00,00,06,80,00,F1,1F,
0,00000107,false,Rx,0,8,00,00,00,00,00,00,00,00,
0,00000095,false,Rx,0,8,3A,98,0A,8A,09,0F,D0,FF,
0,00000150,false,Rx,0,8,00,00,00,00,00,00,D0,F2,
0,0000015A,false,Rx,0,4,00,00,06,BF,00,00,00,00,
0,000000B4,false,Rx,0,7,00,00,00,00,00,20,71,00,
0,000000F0,false,Rx,0,8,00,02,10,00,80,00,20,2F,
0,000000F2,false,Rx,0,8,00,00,00,00,00,00,20,8D,
0,00000108,false,Rx,0,8,38,6D,50,3D,09,00,20,6A,
0,00000175,false,Rx,0,8,00,00,00,2E,00,00,20,32,
0,000001D7,false,Rx,0,8,00,00,00,00,00,00,20,8D,
0,00000234,false,Rx,0,8,D3,84,01,3C,00,0E,01,63,
0,00000240,false,Rx,0,8,00,00,00,00,00,00,0F,FF,
0,00000242,false,Rx,0,8,DD,00,00,00,00,00,00,00,
0,00000166,false,Rx,0,8,00,00,08,2F,9B,57,80,86,
0,000000F4,false,Rx,0,8,80,01,00,46,44,00,01,6B,
0,000000F5,false,Rx,0,8,00,03,40,00,10,00,00,47,
0,000000F6,false,Rx,0,8,1C,F8,03,08,00,19,00,4E,
0,000000F7,false,Rx,0,8,40,00,00,06,80,00,01,60,
0,00000104,false,Rx,0,8,FF,FF,00,57,00,00,80,95,
0,00000164,false,Rx,0,8,10,00,17,5A,07,8B,80,B7,
0,0000015A,false,Rx,0,4,00,00,07,A2,00,00,00,00,
0,000003EC,false,Rx,0,8,00,00,00,00,00,02,30,D8,
0,00000095,false,Rx,0,8,3A,98,0A,8A,09,0F,E0,B5,
0,000000E0,false,Rx,0,8,00,00,00,00,00,00,00,00,
0,00000107,false,Rx,0,8,00,00,00,00,00,00,00,00,
0,00000150,false,Rx,0,8,00,00,00,00,00,00,E0,B8,
0,000001D0,false,Rx,0,8,28,10,F0,F0,10,00,F0,99,
0,00000220,false,Rx,0,8,10,0D,10,11,10,0B,00,00,
0,00000281,false,Rx,0,8,1F,FF,1F,FF,1F,FF,00,00,
0,00000285,false,Rx,0,8,1F,FF,1F,FF,1F,FF,00,00,
0,00000306,false,Rx,0,8,00,00,E7,F7,EE,EC,8E,F5,
0,00000307,false,Rx,0,8,41,41,00,C0,27,00,27,00,
0,000003E8,false,Rx,0,8,00,00,00,00,00,00,00,00,
0,000003EA,false,Rx,0,8,4B,00,00,00,7D,00,30,66,
0,000003EB,false,Rx,0,8,02,00,00,07,00,00,30,0E,
0,000003ED,false,Rx,0,8,FF,FF,00,00,00,00,30,BC,
0,000000B4,false,Rx,0,7,00,00,00,00,00,30,BC,00,
0,000000F0,false,Rx,0,8,00,02,10,00,80,00,30,E2,
0,000000F2,false,Rx,0,8,00,00,00,00,00,00,30,40,
0,00000108,false,Rx,0,8,38,6D,50,3D,09,00,30,A7,
0,00000160,false,Rx,0,8,00,00,00,44,0F,FF,20,90,
0,00000175,false,Rx,0,8,00,00,00,2E,00,00,30,FF,
0,000001D7,false,Rx,0,8,00,00,00,00,00,00,30,40,
0,000001D8,false,Rx,0,8,00,00,00,00,00,00,23,AA,
0,00000212,false,Rx,0,8,00,00,00,00,00,00,20,8D,
0,000000F4,false,Rx,0,8,80,00,00,46,44,00,11,E0,
0,000000F5,false,Rx,0,8,00,03,40,00,10,00,10,8A,
0,000000F6,false,Rx,0,8,1C,F8,03,08,00,19,10,83,
0,000000F7,false,Rx,0,8,40,00,00,06,80,00,11,AD,
0,00000106,false,Rx,0,8,00,4E,20,00,00,00,00,00,
0,00000107,false,Rx,0,8,00,00,00,00,00,00,00,00,
0,00000095,false,Rx,0,8,3A,98,0A,8A,09,0F,F0,78,
0,00000150,false,Rx,0,8,00,00,00,00,00,00,F0,75,
0,0000015A,false,Rx,0,4,00,00,08,19,00,00,00,00,
0,00000235,false,Rx,0,8,00,14,00,01,07,CA,05,D3,
0,0000031A,false,Rx,0,8,3D,09,00,3D,09,00,00,00,
0,0000031B,false,Rx,0,8,3D,09,00,3D,09,00,00,00,
0,00000115,false,Rx,0,8,00,00,00,00,44,44,04,35,
0,00000308,false,Rx,0,8,00,00,00,00,08,00,39,F4,
0,00000309,false,Rx,0,8,00,00,00,00,00,00,00,20,
0,0000031C,false,Rx,0,8,01,90,01,90,00,00,00,00,
0,000000B4,false,Rx,0,7,00,00,00,00,00,40,E5,00,
0,000000F0,false,Rx,0,8,00,02,10,00,80,00,40,BB,
0,000000F2,false,Rx,0,8,00,00,00,00,00,00,40,19,
0,00000108,false,Rx,0,8,38,6D,50,3D,09,00,40,FE,
0,00000175,false,Rx,0,8,00,00,00,2E,00,00,40,A6,
0,000001D7,false,Rx,0,8,00,00,00,00,00,00,40,19,
0,0000031D,false,Rx,0,8,86,00,00,00,00,00,02,00,
0,0000031E,false,Rx,0,8,00,00,00,00,00,00,00,00,
0,0000031F,false,Rx,0,8,01,F4,01,F4,01,F4,00,00,
0,00000324,false,Rx,0,8,00,00,00,00,05,14,01,9D,
0,00000357,false,Rx,0,8,00,00,02,17,01,63,01,2C,
0,00000166,false,Rx,0,8,00,00,09,2F,9B,57,90,21,
0,000000F4,false,Rx,0,8,80,00,00,46,44,00,21,AA,
0,000000F5,false,Rx,0,8,00,03,40,00,10,00,20,C0,
0,000000F6,false,Rx,0,8,1C,F8,03,08,00,1C,20,A8,
0,000000F7,false,Rx,0,8,40,00,00,06,80,00,21,E7,
0,00000104,false,Rx,0,8,FF,FF,00,58,00,00,90,30,
0,00000164,false,Rx,0,8,10,00,16,49,08,B5,90,27,
0,0000015A,false,Rx,0,4,00,00,09,04,00,00,00,00,
0,00000107,false,Rx,0,8,00,00,00,00,00,00,00,00,
0,00000095,false,Rx,0,8,3A,98,0A,8A,09,0F,00,07,
0,000000E0,false,Rx,0,8,00,00,00,00,00,00,00,00,
0,00000150,false,Rx,0,8,00,00,00,00,00,00,00,0A,
0,000001D0,false,Rx,0,8,FF,10,F0,F0,10,00,00,AE,
0,00000220,false,Rx,0,8,10,0D,10,11,10,0B,00,00,
0,000000B4,false,Rx,0,7,00,00,00,00,00,50,28,00,
0,000000F0,false,Rx,0,8,00,02,10,00,80,00,50,76,
0,000000F2,false,Rx,0,8,00,00,00,00,00,00,50,D4,
0,00000108,false,Rx,0,8,38,6D,50,3D,09,00,50,33,
0,00000160,false,Rx,0,8,00,00,00,44,0F,FF,30,5D,
0,00000175,false,Rx,0,8,00,00,00,2E,00,00,50,6B,
0,000001D7,false,Rx,0,8,00,00,00,00,00,00,50,D4,
0,000001D8,false,Rx,0,8,00,00,00,00,00,00,33,67,
0,00000212,false,Rx,0,8,00,00,00,00,00,00,30,40,
0,000000F4,false,Rx,0,8,80,00,00,46,44,00,31,67,
0,000000F5,false,Rx,0,8,00,03,40,00,10,00,30,0D,
0,000000F6,false,Rx,0,8,1C,F8,03,08,00,1C,30,65,
0,000000F7,false,Rx,0,8,40,00,00,06,80,00,31,2A,
0,0000015A,false,Rx,0,4,00,00,0A,23,00,00,00,00,
0,00000107,false,Rx,0,8,00,00,00,00,00,00,00,00,
0,00000095,false,Rx,0,8,3A,98,0A,8A,09,0F,10,CA,
0,00000150,false,Rx,0,8,00,00,00,00,00,00,10,C7,
0,00000106,false,Rx,0,8,00,4E,20,00,00,00,00,00,
0,000000B4,false,Rx,0,7,00,00,00,00,00,60,62,00,
0,000000F0,false,Rx,0,8,00,02,10,00,80,00,60,3C,
0,000000F2,false,Rx,0,8,00,00,00,00,00,00,60,9E,
0,00000108,false,Rx,0,8,38,6D,50,3D,09,00,60,79,
0,00000175,false,Rx,0,8,00,00,00,2E,00,00,60,21,
0,000001D7,false,Rx,0,8,00,00,00,00,00,00,60,9E,
0,00000166,false,Rx,0,8,00,00,0A,30,9B,57,A0,98,
0,000000F4,false,Rx,0,8,80,00,00,46,44,00,41,3E,
0,000000F5,false,Rx,0,8,00,03,40,00,10,00,40,54,
0,000000F6,false,Rx,0,8,1C,F8,03,08,00,1F,40,E8,
0,000000F7,false,Rx,0,8,40,00,00,06,80,00,41,73,
0,00000104,false,Rx,0,8,FF,FF,00,60,00,00,A0,89,
0,00000164,false,Rx,0,8,10,00,15,90,09,A9,A0,1A,
0,00000284,false,Rx,0,8,4E,28,28,00,00,00,00,00,
0,0000015A,false,Rx,0,4,00,00,0B,3E,00,00,00,00,
0,00000107,false,Rx,0,8,00,00,00,00,00,00,00,00,
0,00000095,false,Rx,0,8,3A,98,0A,8A,09,0F,20,80,
0,000000E0,false,Rx,0,8,00,00,00,00,00,00,00,00,
0,00000150,false,Rx,0,8,00,00,00,00,00,00,20,8D,
0,000001D0,false,Rx,0,8,FF,10,F0,F0,10,00,10,63,
0,00000220,false,Rx,0,8,10,0D,10,11,10,0B,00,00,
0,000000B4,false,Rx,0,7,00,00,00,00,00,70,AF,00,
0,000000F0,false,Rx,0,8,00,02,10,00,80,00,70,F1,
0,000000F2,false,Rx,0,8,00,00,00,00,00,00,70,53,
0,00000108,false,Rx,0,8,38,6D,50,3D,09,00,70,B4,
0,00000160,false,Rx,0,8,00,00,00,44,0F,FF,40,04,
0,00000175,false,Rx,0,8,00,00,00,2E,00,00,70,EC,
0,000001D7,false,Rx,0,8,00,00,00,00,00,00,70,53,
0,000001D8,false,Rx,0,8,00,00,00,00,00,00,43,3E,
0,00000212,false,Rx,0,8,00,00,00,00,00,00,40,19,
0,00000234,false,Rx,0,8,D5,84,01,3C,00,0E,01,63,
0,00000282,false,Rx,0,8,00,00,00,05,00,00,00,01,
0,00000240,false,Rx,0,8,00,00,00,00,00,00,0F,FF,
0,00000242,false,Rx,0,8,DD,00,00,00,00,00,00,00,
0,000000F4,false,Rx,0,8,80,00,00,46,44,00,51,F3,
0,000000F5,false,Rx,0,8,00,03,40,00,10,00,50,99,
0,000000F6,false,Rx,0,8,1C,F8,03,08,00,1F,50,25,
0,000000F7,false,Rx,0,8,40,00,00,06,80,00,51,BE,
0,00000107,false,Rx,0,8,00,00,00,00,00,00,00,00,
0,00000280,false,Rx,0,8,00,00,00,00,00,00,00,00,
0,00000095,false,Rx,0,8,3A,98,0A,8A,09,0F,30,4D,
0,000002A4,false,Rx,0,8,00,0A,00,00,F5,0A,00,00,
0,00000150,false,Rx,0,8,00,00,00,00,00,00,30,40,
0,0000015A,false,Rx,0,4,00,00,0C,6D,00,00,00,00,
0,000002A5,false,Rx,0,6,00,00,01,40,00,00,00,00,
0,000002D0,false,Rx,0,8,FF,28,41,63,C3,B9,00,00,
0,000002D2,false,Rx,0,8,FF,FF,FF,FF,FF,FF,00,00,
0,00000301,false,Rx,0,8,00,00,00,00,00,00,80,2C,
0,00000320,false,Rx,0,8,5E,9A,C0,3E,2D,9F,01,A0,
0,00000321,false,Rx,0,8,6A,CF,C0,03,1B,01,7F,00,
0,00000322,false,Rx,0,8,00,00,01,F5,01,00,00,00,
0,00000323,false,Rx,0,8,00,00,25,00,00,00,00,00,
0,000003E0,false,Rx,0,8,00,59,41,52,54,44,44,45,
0,000003E7,false,Rx,0,8,00,00,00,00,00,00,00,00,
0,000003EE,false,Rx,0,8,00,00,28,00,00,00,00,40,
0,000000B4,false,Rx,0,7,00,00,00,00,00,80,D0,00,
0,000000F0,false,Rx,0,8,00,02,10,00,80,00,80,8E,
0,000000F2,false,Rx,0,8,00,00,00,00,00,00,80,2C,
0,00000108,false,Rx,0,8,38,6D,50,3D,09,00,80,CB,
0,00000175,false,Rx,0,8,00,00,00,2E,00,00,80,93,
0,000001D7,false,Rx,0,8,00,00,00,00,00,00,80,2C,
0,00000166,false,Rx,0,8,00,00,0B,30,9B,57,B0,3F,
0,000000F4,false,Rx,0,8,80,00,00,46,44,00,61,B9,
0,000000F5,false,Rx,0,8,00,03,40,00,10,00,60,D3,
0,000000F6,false,Rx,0,8,1C,F8,03,08,00,22,60,95,
0,000000F7,false,Rx,0,8,40,00,00,06,80,00,61,F4,
0,00000104,false,Rx,0,8,FF,FF,00,60,00,00,B0,44,
0,00000107,false,Rx,0,8,00,00,00,00,00,00,00,00,
0,00000164,false,Rx,0,8,10,00,15,01,0A,4D,B0,AD,
0,00000095,false,Rx,0,8,3A,98,0A,8A,09,0F,40,14,
0,0000015A,false,Rx,0,4,00,00,0D,70,00,00,00,00,
0,000000E0,false,Rx,0,8,00,00,00,00,00,00,00,00,
0,00000150,false,Rx,0,8,00,00,00,00,00,00,40,19,
0,000001D0,false,Rx,0,8,FF,10,F0,F0,10,00,20,29,
0,00000220,false,Rx,0,8,10,0D,10,11,10,0B,00,00,
0,00000235,false,Rx,0,8,00,14,00,01,07,CA,05,D3,
0,00000106,false,Rx,0,8,00,4E,20,00,00,00,00,00,
0,000000B4,false,Rx,0,7,00,00,00,00,00,90,1D,00,
0,000000F0,false,Rx,0,8,00,02,10,00,80,00,90,43,
0,000000F2,false,Rx,0,8,00,00,00,00,00,00,90,E1,
0,00000108,false,Rx,0,8,38,6D,50,3D,09,00,90,06,
0,00000160,false,Rx,0,8,00,00,00,44,0F,FF,50,C9,
0,00000175,false,Rx,0,8,00,00,00,2E,00,00,90,5E,
0,000001D7,false,Rx,0,8,00,00,00,00,00,00,90,E1,
0,000001D8,false,Rx,0,8,00,00,00,00,00,00,53,F3,
0,00000212,false,Rx,0,8,00,00,00,00,00,00,50,D4,
0,000000F4,false,Rx,0,8,80,00,00,46,44,00,71,74,
0,000000F5,false,Rx,0,8,00,03,40,00,10,00,70,1E,
0,000000F6,false,Rx,0,8,1C,F8,03,08,00,22,70,58,
0,000000F7,false,Rx,0,8,40,00,00,06,80,00,71,39,
0,00000107,false,Rx,0,8,00,00,00,00,00,00,00,00,
0,00000095,false,Rx,0,8,3A,98,0A,8A,09,0F,50,D9,
0,00000150,false,Rx,0,8,00,00,00,00,00,00,50,D4,
0,0000015A,false,Rx,0,4,00,00,0E,57,00,00,00,00,
0,000000B4,false,Rx,0,7,00,00,00,00,00,A0,57,00,
0,000000F0,false,Rx,0,8,00,02,10,00,80,00,A0,09,
0,000000F2,false,Rx,0,8,00,00,00,00,00,00,A0,AB,
0,00000108,false,Rx,0,8,38,6D,50,3D,09,00,A0,4C,
0,00000175,false,Rx,0,8,00,00,00,2E,00,00,A0,14,
0,000001D7,false,Rx,0,8,00,00,00,00,00,00,A0,AB,
0,00000166,false,Rx,0,8,00,00,0C,31,9B,57,C0,F0,
0,000000F4,false,Rx,0,8,80,00,00,46,44,00,81,0B,
0,000000F5,false,Rx,0,8,00,04,40,00,10,00,80,AE,
0,000000F6,false,Rx,0,8,1C,F8,03,08,00,25,80,DE,
0,000000F7,false,Rx,0,8,40,00,00,06,80,00,81,46,
0,00000104,false,Rx,0,8,FF,FF,00,2B,00,00,C0,AF,
0,00000164,false,Rx,0,8,10,00,14,79,0A,CB,C0,85,
0,00000107,false,Rx,0,8,00,00,00,00,00,00,00,00,
0,00000095,false,Rx,0,8,3A,98,0A,8A,09,0F,60,93,
0,0000015A,false,Rx,0,4,00,00,0F,4A,00,00,00,00,
0,000000E0,false,Rx,0,8,00,00,00,00,00,00,00,00,
0,00000150,false,Rx,0,8,00,00,00,00,00,00,60,9E,
0,000001D0,false,Rx,0,8,FF,10,F0,F0,10,00,30,E4,
0,00000220,false,Rx,0,8,10,0D,10,11,10,0B,00,00,
0,000000B4,false,Rx,0,7,00,00,00,00,00,B0,9A,00,
0,000000F0,false,Rx,0,8,00,02,10,00,80,00,B0,C4,
0,000000F2,false,Rx,0,8,00,00,00,00,00,00,B0,66,
0,00000108,false,Rx,0,8,38,6D,50,3D,09,00,B0,81,
0,00000160,false,Rx,0,8,00,00,00,44,0F,FF,60,83,
0,00000175,false,Rx,0,8,00,00,00,2E,00,00,B0,D9,
0,000001D7,false,Rx,0,8,00,00,00,00,00,00,B0,66,
0,000001D8,false,Rx,0,8,00,00,00,00,00,03,63,6D,
0,00000212,false,Rx,0,8,00,00,00,00,00,00,60,9E,
0,000000F4,false,Rx,0,8,80,00,00,46,44,00,91,C6,
0,000000F5,false,Rx,0,8,00,04,40,00,10,00,90,63,
0,000000F6,false,Rx,0,8,1C,F8,03,08,00,25,90,13,
0,000000F7,false,Rx,0,8,40,00,00,05,80,00,91,31,
0,00000107,false,Rx,0,8,00,00,00,00,00,00,00,00,
0,00000095,false,Rx,0,8,3A,98,0A,8A,09,0F,70,5E,
0,00000150,false,Rx,0,8,00,00,00,00,00,00,70,53,
0,0000015A,false,Rx,0,4,00,00,00,F1,00,00,00,00,
0,00000106,false,Rx,0,8,00,4E,20,00,00,00,00,00,
0,000000B4,false,Rx,0,7,00,00,00,00,00,C0,C3,00,
0,000000F0,false,Rx,0,8,00,02,10,00,80,00,C0,9D,
0,000000F2,false,Rx,0,8,00,00,00,00,00,00,C0,3F,
0,00000108,false,Rx,0,8,38,6D,50,3D,09,00,C0,D8,
0,0000015A,false,Rx,0,4,00,00,01,EC,00,00,00,00,
0,000001D7,false,Rx,0,8,00,00,00,00,00,00,C0,3F,
0,00000175,false,Rx,0,8,00,00,00,2E,00,00,C0,80,
0,00000234,false,Rx,0,8,D6,84,01,3C,00,0E,01,63,
0,00000240,false,Rx,0,8,00,00,00,00,00,00,0F,FF,
0,00000242,false,Rx,0,8,DD,00,00,00,00,00,00,00,
0,000003EC,false,Rx,0,8,00,00,00,00,00,03,40,CD,
0,000000F4,false,Rx,0,8,80,00,00,46,44,00,A1,8C,
0,00000095,false,Rx,0,8,3A,98,0A,8A,09,0F,80,21,
0,000000F5,false,Rx,0,8,00,04,40,00,10,00,A0,29,
0,000000E0,false,Rx,0,8,00,00,00,00,00,00,00,00,
0,000000F6,false,Rx,0,8,1C,F8,03,08,00,28,A0,62,
0,000000F7,false,Rx,0,8,40,00,00,05,80,00,A1,7B,
0,00000104,false,Rx,0,8,FF,FF,00,2A,00,00,D0,FF,
0,00000107,false,Rx,0,8,00,00,00,00,00,00,00,00,
0,0000015A,false,Rx,0,4,00,00,02,CB,00,00,00,00,
0,00000150,false,Rx,0,8,00,00,00,00,00,00,80,2C,
0,00000164,false,Rx,0,8,10,00,14,16,0B,34,D0,30,
0,00000166,false,Rx,0,8,00,00,0D,32,9B,57,D0,ED,
0,000001D0,false,Rx,0,8,FF,10,F0,F0,10,00,40,BD,
0,00000220,false,Rx,0,8,10,0D,10,11,10,0B,00,00,
0,00000281,false,Rx,0,8,1F,FF,1F,FF,1F,FF,00,00,
0,00000285,false,Rx,0,8,1F,FF,1F,FF,1F,FF,00,00,
0,00000306,false,Rx,0,8,00,00,E7,F7,EE,EC,8E,F5,
0,00000307,false,Rx,0,8,41,41,00,C0,27,00,27,00,
0,000003E8,false,Rx,0,8,00,00,00,00,00,00,00,00,
0,000003EA,false,Rx,0,8,4B,00,00,00,7D,00,40,3F,
0,000003EB,false,Rx,0,8,02,00,00,07,00,00,40,57,
0,000003ED,false,Rx,0,8,FF,43,00,00,00,00,40,76,
0,000000B4,false,Rx,0,7,00,00,00,00,00,D0,0E,00,
0,000000F0,false,Rx,0,8,00,02,10,00,80,00,D0,50,
0,000000F2,false,Rx,0,8,00,00,00,00,00,00,D0,F2,
0,00000108,false,Rx,0,8,38,6D,50,3D,09,00,D0,15,
0,00000160,false,Rx,0,8,00,00,00,44,0F,FF,70,4E,
0,00000175,false,Rx,0,8,00,00,00,2E,00,00,D0,4D,
0,000001D7,false,Rx,0,8,00,00,00,00,00,00,D0,F2,
0,000001D8,false,Rx,0,8,00,00,00,00,00,04,73,59,
0,00000212,false,Rx,0,8,00,00,00,00,00,00,70,53,
0,000000F4,false,Rx,0,8,80,00,00,46,44,00,B1,41,
0,000000F5,false,Rx,0,8,00,04,40,00,10,00,B0,E4,
0,000000F6,false,Rx,0,8,1C,F8,03,08,00,28,B0,AF,
0,000000F7,false,Rx,0,8,40,00,00,05,80,00,B1,B6,
0,00000107,false,Rx,0,8,00,00,00,00,00,00,00,00,
0,00000095,false,Rx,0,8,3A,98,0A,8A,09,0F,90,EC,
0,00000150,false,Rx,0,8,00,00,00,00,00,00,90,E1,
0,0000015A,false,Rx,0,4,00,00,03,D6,00,00,00,00,
0,00000235,false,Rx,0,8,07,05,00,01,07,CA,05,D3,
0,000002A0,false,Rx,0,8,00,05,15,D3,00,00,00,00,
0,000002A2,false,Rx,0,8,04,00,04,00,06,83,00,00,
0,00000115,false,Rx,0,8,00,00,00,00,45,45,05,30,
0,000002BA,false,Rx,0,7,00,00,00,00,00,00,04,00,
0,00000308,false,Rx,0,8,00,00,00,00,08,00,39,F4,
0,00000309,false,Rx,0,8,00,00,00,00,00,00,00,20,
0,0000031A,false,Rx,0,8,3D,09,00,3D,09,00,00,00,
0,000000B4,false,Rx,0,7,00,00,00,00,00,E0,44,00,
0,000000F0,false,Rx,0,8,00,02,10,00,80,00,E0,1A,
0,000000F2,false,Rx,0,8,00,00,00,00,00,00,E0,B8,
0,00000108,false,Rx,0,8,38,6D,50,3D,09,00,E0,5F,
0,00000175,false,Rx,0,8,00,00,00,2E,00,00,E0,07,
0,000001D7,false,Rx,0,8,00,00,00,00,00,00,E0,B8,
0,0000031B,false,Rx,0,8,3D,09,00,3D,09,00,00,00,
0,0000031C,false,Rx,0,8,01,90,01,90,00,00,00,00,
0,0000031D,false,Rx,0,8,86,00,00,00,00,00,02,00,
0,0000031E,false,Rx,0,8,00,00,00,00,00,00,00,00,
0,0000031F,false,Rx,0,8,01,F4,01,F4,01,F4,00,00,
0,000000F4,false,Rx,0,8,80,00,00,46,44,00,C1,18,
0,000000F5,false,Rx,0,8,00,04,40,00,10,00,C0,BD,
0,000000F6,false,Rx,0,8,1C,F8,03,08,00,2A,C0,6E,
0,000000F7,false,Rx,0,8,40,00,00,05,80,00,C1,EF,
0,00000104,false,Rx,0,8,FF,FF,00,2A,00,00,E0,B5,
0,00000164,false,Rx,0,8,10,00,13,BC,0B,8B,E0,1E,
0,00000166,false,Rx,0,8,00,00,0E,32,9B,57,E0,19,
0,00000324,false,Rx,0,8,00,00,00,00,05,14,01,9D,
0,00000355,false,Rx,0,8,40,00,00,00,47,48,40,00,
0,0000015A,false,Rx,0,4,00,00,04,85,00,00,00,00,
0,00000107,false,Rx,0,8,00,00,00,00,00,00,00,00,
0,00000357,false,Rx,0,8,00,00,02,17,01,63,01,2C,
0,00000095,false,Rx,0,8,3A,98,0A,8A,09,0F,A0,A6,
0,000003D0,false,Rx,0,8,00,FF,FE,FF,FE,0D,10,00,
0,000000E0,false,Rx,0,8,00,00,00,00,00,00,00,00,
0,00000150,false,Rx,0,8,00,00,00,00,00,00,A0,AB,
0,000001D0,false,Rx,0,8,FF,10,F0,F0,10,00,50,70,
0,00000220,false,Rx,0,8,10,0D,10,11,10,0B,00,00,
0,000000B4,false,Rx,0,7,00,00,00,00,00,F0,89,00,
0,000000F0,false,Rx,0,8,00,02,10,00,80,00,F0,D7,
0,000000F2,false,Rx,0,8,00,00,00,00,00,00,F0,75,
0,00000108,false,Rx,0,8,38,6D,50,3D,09,00,F0,92,
0,00000160,false,Rx,0,8,00,00,00,44,0F,FF,80,31,
0,00000175,false,Rx,0,8,00,00,00,2E,00,00,F0,CA,
0,000001D7,false,Rx,0,8,00,00,00,00,00,00,F0,75,
0,000001D8,false,Rx,0,8,00,00,00,00,00,04,83,26,
0,00000212,false,Rx,0,8,00,00,00,00,00,00,80,2C,
0,000000F4,false,Rx,0,8,80,00,00,46,44,00,D1,D5,
0,000000F5,false,Rx,0,8,00,04,40,00,10,00,D0,70,
0,000000F6,false,Rx,0,8,1C,F8,03,08,00,2A,D0,A3,
0,000000F7,false,Rx,0,8,40,00,00,05,80,00,D1,22,
0,00000106,false,Rx,0,8,00,4E,20,00,00,00,00,00,
0,00000107,false,Rx,0,8,00,00,00,00,00,00,00,00,
0,0000015A,false,Rx,0,4,00,00,05,98,00,00,00,00,
0,00000095,false,Rx,0,8,3A,98,0A,8A,09,0F,B0,6B,
0,00000150,false,Rx,0,8,00,00,00,00,00,00,B0,66,
0,000000B4,false,Rx,0,7,00,00,00,00,00,00,F6,00,
0,000000F0,false,Rx,0,8,00,02,10,00,80,00,00,A8,
0,000000F2,false,Rx,0,8,00,00,00,00,00,00,00,0A,
0,00000108,false,Rx,0,8,38,6D,50,3D,09,00,00,ED,
0,00000175,false,Rx,0,8,00,00,00,2E,00,00,00,B5,
0,000001D7,false,Rx,0,8,00,00,00,00,00,00,00,0A,
0,00000166,false,Rx,0,8,00,00,0F,32,9B,57,F0,BE,
0,000000F4,false,Rx,0,8,80,00,00,46,44,00,E1,9F,
0,000000F5,false,Rx,0,8,00,04,40,00,10,00,E0,3A,
0,000000F6,false,Rx,0,8,1C,F8,03,08,00,2D,E0,10,
0,000000F7,false,Rx,0,8,40,12,00,05,80,00,E5,84,
0,00000104,false,Rx,0,8,FF,FF,00,2A,00,00,F0,78,
0,00000164,false,Rx,0,8,10,00,13,6C,0B,E0,F0,46,
0,00000284,false,Rx,0,8,4E,28,28,00,00,00,00,00,
0,0000015A,false,Rx,0,4,00,00,06,BF,00,00,00,00,
0,00000107,false,Rx,0,8,00,00,00,00,00,00,00,00,
0,00000095,false,Rx,0,8,3A,98,0A,8A,09,0F,C0,32,
0,000000E0,false,Rx,0,8,00,00,00,00,00,00,00,00,
0,00000150,false,Rx,0,8,00,00,00,00,00,00,C0,3F,
0,000001D0,false,Rx,0,8,FF,10,F0,F0,10,00,60,3A,
0,00000220,false,Rx,0,8,10,0D,10,11,10,0B,00,00,
0,000000B4,false,Rx,0,7,00,00,00,00,00,10,3B,00,
0,000000F0,false,Rx,0,8,00,02,10,00,80,00,10,65,
0,000000F2,false,Rx,0,8,00,00,00,00,00,00,10,C7,
0,00000108,false,Rx,0,8,38,6D,50,3D,09,00,10,20,
0,00000160,false,Rx,0,8,00,00,00,44,0F,FF,90,FC,
0,00000175,false,Rx,0,8,00,00,00,2E,00,00,10,78,
0,000001D7,false,Rx,0,8,00,00,00,00,00,00,10,C7,
0,000001D8,false,Rx,0,8,00,00,00,00,00,04,93,EB,
0,00000212,false,Rx,0,8,00,00,00,00,00,00,90,E1,
0,00000234,false,Rx,0,8,D8,84,01,3C,00,0E,01,63,
0,00000282,false,Rx,0,8,00,00,00,05,00,00,00,01,
0,00000240,false,Rx,0,8,00,00,00,00,00,00,0F,FF,
0,00000242,false,Rx,0,8,DD,00,00,00,00,00,00,00,
0,000000F4,false,Rx,0,8,80,00,00,46,44,00,F1,52,
0,000000F5,false,Rx,0,8,00,04,40,00,10,00,F0,F7,
0,000000F6,false,Rx,0,8,1C,F8,03,08,00,2D,F0,DD,
0,000000F7,false,Rx,0,8,40,12,00,05,80,00,F5,49,
0,00000280,false,Rx,0,8,00,00,00,00,00,00,00,00,
0,000002A4,false,Rx,0,8,00,0A,00,00,F5,0A,00,00,
0,000002A5,false,Rx,0,6,00,00,01,40,00,00,00,00,
0,000002D0,false,Rx,0,8,FF,28,41,63,C3,B9,00,00,
0,00000107,false,Rx,0,8,00,00,00,00,00,00,00,00,
0,0000015A,false,Rx,0,4,00,00,07,A2,00,00,00,00,
0,00000095,false,Rx,0,8,3A,98,0A,8A,09,0F,D0,FF,
0,000002D2,false,Rx,0,8,FF,FF,FF,FF,FF,FF,00,00,
0,00000150,false,Rx,0,8,00,00,00,00,00,00,D0,F2,
0,00000301,false,Rx,0,8,00,00,00,00,00,00,90,E1,
0,00000320,false,Rx,0,8,5E,9A,C0,3E,2D,9F,01,A0,
0,00000321,false,Rx,0,8,6A,CF,C0,03,1B,01,7F,00,
0,00000322,false,Rx,0,8,00,00,01,F5,01,00,00,00,
0,00000323,false,Rx,0,8,00,00,25,00,00,00,00,00,
0,000003E0,false,Rx,0,8,01,46,33,52,47,30,38,36,
0,000003E7,false,Rx,0,8,00,00,00,00,00,00,00,00,
0,000003EE,false,Rx,0,8,00,00,28,00,00,00,00,40,
0,00000106,false,Rx,0,8,00,4E,20,00,00,00,00,00,
0,000000B4,false,Rx,0,7,00,00,00,00,00,20,71,00,
0,000000F0,false,Rx,0,8,00,02,10,00,80,00,20,2F,
0,000000F2,false,Rx,0,8,00,00,00,00,00,00,20,8D,
0,00000108,false,Rx,0,8,38,6D,50,3D,09,00,20,6A,
0,00000175,false,Rx,0,8,00,00,00,2E,00,00,20,32,
0,000001D7,false,Rx,0,8,00,00,00,00,00,00,20,8D,
0,00000166,false,Rx,0,8,00,00,10,32,9B,57,00,53,
0,000000F4,false,Rx,0,8,80,00,00,46,44,00,01,2D,
0,000000F5,false,Rx,0,8,00,04,40,00,10,00,00,88,
0,000000F6,false,Rx,0,8,1C,F8,03,08,00,02,00,74,
0,000000F7,false,Rx,0,8,40,12,00,05,80,00,05,36,
0,00000104,false,Rx,0,8,FF,FF,00,2A,00,00,00,07,
0,00000164,false,Rx,0,8,10,00,13,30,0C,1C,00,45,
0,0000015A,false,Rx,0,4,00,00,08,19,00,00,00,00,
0,00000107,false,Rx,0,8,00,00,00,00,00,00,00,00,
0,00000095,false,Rx,0,8,3A,98,0A,8A,09,0F,E0,B5,
0,000000E0,false,Rx,0,8,00,00,00,00,00,00,00,00,
0,00000150,false,Rx,0,8,00,00,00,00,00,00,E0,B8,
0,000001D0,false,Rx,0,8,FF,10,F0,F0,10,00,70,F7,
0,00000220,false,Rx,0,8,10,0D,10,11,10,0B,00,00,
0,000000B4,false,Rx,0,7,00,00,00,00,00,30,BC,00,
0,000000F0,false,Rx,0,8,00,02,10,00,80,00,30,E2,
0,000000F2,false,Rx,0,8,00,00,00,00,00,00,30,40,
0,00000108,false,Rx,0,8,38,6D,50,3D,09,00,30,A7,
0,00000160,false,Rx,0,8,00,00,00,44,0F,FF,A0,B6,
0,00000175,false,Rx,0,8,00,00,00,2E,00,00,30,FF,
0,000001D7,false,Rx,0,8,00,00,00,00,00,00,30,40,
0,000001D8,false,Rx,0,8,00,00,00,00,00,04,A3,A1,
0,00000212,false,Rx,0,8,00,00,00,00,00,00,A0,AB,
0,00000235,false,Rx,0,8,07,05,00,01,07,CA,05,D3,
0,000000F4,false,Rx,0,8,80,00,00,46,44,00,11,E0,
0,000000F5,false,Rx,0,8,00,04,40,00,10,00,10,45,
0,000000F6,false,Rx,0,8,1C,F8,03,08,00,02,10,B9,
0,000000F7,false,Rx,0,8,40,12,00,05,80,00,15,FB,
0,00000107,false,Rx,0,8,00,00,00,00,00,00,00,00,
0,00000095,false,Rx,0,8,3A,98,0A,8A,09,0F,F0,78,
0,00000150,false,Rx,0,8,00,00,00,00,00,00,F0,75,
0,0000015A,false,Rx,0,4,00,00,09,04,00,00,00,00,
0,000000B4,false,Rx,0,7,00,00,00,00,00,40,E5,00,
0,000000F0,false,Rx,0,8,00,02,10,00,80,00,40,BB,
0,000000F2,false,Rx,0,8,00,00,00,00,00,00,40,19,
0,00000108,false,Rx,0,8,38,6D,50,3D,09,00,40,FE,
0,00000175,false,Rx,0,8,00,00,00,2E,00,00,40,A6,
0,000001D7,false,Rx,0,8,00,00,00,00,00,00,40,19,
0,00000166,false,Rx,0,8,00,00,01,32,9B,57,10,1A,
0,000000F4,false,Rx,0,8,80,00,00,46,44,00,21,AA,
0,000000F5,false,Rx,0,8,00,04,40,00,10,00,20,0F,
0,000000F6,false,Rx,0,8,1C,F8,03,08,00,05,20,0A,
0,000000F7,false,Rx,0,8,40,12,00,05,80,00,25,B1,
0,00000104,false,Rx,0,8,FF,FF,00,2D,00,00,10,3E,
0,00000107,false,Rx,0,8,00,00,00,00,00,00,00,00,
0,00000164,false,Rx,0,8,10,00,1C,FC,03,03,10,16,
0,00000095,false,Rx,0,8,3A,98,0A,8A,09,0F,00,07,
0,0000015A,false,Rx,0,4,00,00,0A,23,00,00,00,00,
0,000000E0,false,Rx,0,8,00,00,00,00,00,00,00,00,
0,00000150,false,Rx,0,8,00,00,00,00,00,00,00,0A,
0,000001D0,false,Rx,0,8,FF,10,F0,F0,10,00,80,88,
0,00000220,false,Rx,0,8,10,0D,10,11,10,0B,00,00,
0,000000B4,false,Rx,0,7,00,00,00,00,00,50,28,00,
0,000000F0,false,Rx,0,8,00,02,10,00,80,00,50,76,
0,000000F2,false,Rx,0,8,00,00,00,00,00,00,50,D4,
0,00000108,false,Rx,0,8,38,6D,50,3D,09,00,50,33,
0,00000160,false,Rx,0,8,00,00,00,44,0F,FF,B0,7B,
0,00000175,false,Rx,0,8,00,00,00,2E,00,00,50,6B,
0,000001D7,false,Rx,0,8,00,00,00,00,00,00,50,D4,
0,000001D8,false,Rx,0,8,00,00,00,00,00,04,B3,6C,
0,00000212,false,Rx,0,8,00,00,00,00,00,00,B0,66,
0,00000106,false,Rx,0,8,00,4E,20,00,00,00,00,00,
0,000000F4,false,Rx,0,8,80,00,00,46,44,00,31,67,
0,000000F5,false,Rx,0,8,00,04,40,00,10,00,30,C2,
0,000000F6,false,Rx,0,8,1C,F8,03,08,00,05,30,C7,
0,000000F7,false,Rx,0,8,40,12,00,05,80,00,35,7C,
0,00000107,false,Rx,0,8,00,00,00,00,00,00,00,00,
0,00000095,false,Rx,0,8,3A,98,0A,8A,09,0F,10,CA,
0,00000150,false,Rx,0,8,00,00,00,00,00,00,10,C7,
0,0000015A,false,Rx,0,4,00,00,0B,3E,00,00,00,00,
0,000000B4,false,Rx,0,7,00,00,00,00,00,60,62,00,
0,000000F0,false,Rx,0,8,00,02,10,00,80,00,60,3C,
0,000000F2,false,Rx,0,8,00,00,00,00,00,00,60,9E,
0,00000108,false,Rx,0,8,38,6D,50,3D,09,00,60,79,
0,00000175,false,Rx,0,8,00,00,00,2E,00,00,60,21,
0,000001D7,false,Rx,0,8,00,00,00,00,00,00,60,9E,
0,00000234,false,Rx,0,8,DA,84,01,3B,00,0E,01,63,
0,00000240,false,Rx,0,8,00,00,00,00,00,00,0F,FF,
0,00000242,false,Rx,0,8,DD,00,00,00,00,00,00,00,
0,00000166,false,Rx,0,8,00,00,02,32,9B,57,20,EE,
0,000000F4,false,Rx,0,8,80,00,00,46,44,00,41,3E,
0,000000F5,false,Rx,0,8,00,04,40,00,10,00,40,9B,
0,000000F6,false,Rx,0,8,1C,F8,03,08,00,08,40,A5,
0,000000F7,false,Rx,0,8,40,12,00,05,80,00,45,25,
0,00000104,false,Rx,0,8,FF,FF,00,2B,00,00,20,1D,
0,00000164,false,Rx,0,8,10,00,1C,FB,03,04,20,51,
0,0000015A,false,Rx,0,4,00,00,0C,6D,00,00,00,00,
0,000003EC,false,Rx,0,8,00,00,00,00,00,03,50,00,
0,00000095,false,Rx,0,8,3A,98,0A,8A,09,0F,20,80,
0,000000E0,false,Rx,0,8,00,00,00,00,00,00,00,00,
0,00000107,false,Rx,0,8,00,00,00,00,00,00,00,00,
0,00000150,false,Rx,0,8,00,00,00,00,00,00,20,8D,
0,000001D0,false,Rx,0,8,FF,10,F0,F0,10,00,90,45,
0,00000220,false,Rx,0,8,10,0D,10,11,10,0B,00,00,
0,00000281,false,Rx,0,8,1F,FF,1F,FF,1F,FF,00,00,
0,00000285,false,Rx,0,8,1F,FF,1F,FF,1F,FF,00,00,
0,00000306,false,Rx,0,8,00,00,E7,F7,EE,EC,8E,F5,
0,00000307,false,Rx,0,8,41,41,00,C0,27,00,27,00,
0,00000354,false,Rx,0,8,00,00,5F,0A,10,68,08,FC,
0,00000356,false,Rx,0,8,00,00,00,00,00,00,0A,BE,
0,00000358,false,Rx,0,8,01,00,00,00,00,00,20,D0,
0,00000359,false,Rx,0,8,00,00,0C,A3,01,45,00,00,
0,000003E8,false,Rx,0,8,00,00,00,00,00,00,00,00,
0,000003EA,false,Rx,0,8,4B,00,00,00,7D,00,50,F2,
0,000003EB,false,Rx,0,8,02,00,00,07,00,00,50,9A,
0,000000B4,false,Rx,0,7,00,00,00,00,00,70,AF,00,
0,000000F0,false,Rx,0,8,00,02,10,00,80,00,70,F1,
0,000000F2,false,Rx,0,8,00,00,00,00,00,00,70,53,
0,00000108,false,Rx,0,8,38,6D,50,3D,09,00,70,B4,
0,00000160,false,Rx,0,8,00,00,00,44,0F,FF,C0,22,
0,00000175,false,Rx,0,8,00,00,00,2E,00,00,70,EC,
0,000001D7,false,Rx,0,8,00,00,00,00,00,00,70,53,
0,000001D8,false,Rx,0,8,00,00,00,00,00,04,C3,35,
0,00000212,false,Rx,0,8,00,00,00,00,00,00,C0,3F,
0,000003ED,false,Rx,0,8,FF,43,00,00,00,00,50,BB,
0,000000F4,false,Rx,0,8,80,00,00,46,44,00,51,F3,
0,000000F5,false,Rx,0,8,00,04,40,00,10,00,50,56,
0,000000F6,false,Rx,0,8,1C,F8,03,08,00,08,50,68,
0,000000F7,false,Rx,0,8,40,12,00,05,80,00,55,E8,
0,00000107,false,Rx,0,8,00,00,00,00,00,00,00,00,
0,00000095,false,Rx,0,8,3A,98,0A,8A,09,0F,30,4D,
0,00000150,false,Rx,0,8,00,00,00,00,00,00,30,40,
0,0000015A,false,Rx,0,4,00,00,0D,70,00,00,00,00,
0,00000235,false,Rx,0,8,08,A5,00,01,07,CA,05,D3,
0,00000106,false,Rx,0,8,00,4E,20,00,00,00,00,00,
0,0000031A,false,Rx,0,8,3D,09,00,3D,09,00,00,00,
0,0000031B,false,Rx,0,8,3D,09,00,3D,09,00,00,00,
0,0000031C,false,Rx,0,8,01,90,01,90,00,00,00,00,
0,000000B4,false,Rx,0,7,00,00,00,00,00,80,D0,00,
0,000000F0,false,Rx,0,8,00,02,10,00,80,00,80,8E,
0,000000F2,false,Rx,0,8,00,00,00,00,00,00,80,2C,
0,00000108,false,Rx,0,8,38,6D,50,3D,09,00,80,CB,
0,00000175,false,Rx,0,8,00,00,00,2E,00,00,80,93,
0,000001D7,false,Rx,0,8,00,00,00,00,00,00,80,2C,
0,0000031D,false,Rx,0,8,86,00,00,00,00,00,02,00,
0,00000115,false,Rx,0,8,00,00,00,00,46,46,06,39,
0,00000308,false,Rx,0,8,00,00,00,00,08,00,39,F4,
0,00000309,false,Rx,0,8,00,00,00,00,00,00,00,20,
0,0000031E,false,Rx,0,8,00,00,00,00,00,00,00,00,
0,0000031F,false,Rx,0,8,01,F4,01,F4,01,F4,00,00,
0,000000F4,false,Rx,0,8,80,00,00,46,44,00,61,B9,
0,000000F5,false,Rx,0,8,00,04,40,00,10,00,60,1C,
0,000000F6,false,Rx,0,8,1C,F8,03,08,00,0B,60,F6,
0,000000F7,false,Rx,0,8,40,12,00,05,80,00,65,A2,
0,00000104,false,Rx,0,8,FF,FF,00,2B,00,00,30,D0,
0,00000164,false,Rx,0,8,10,00,1C,FA,03,05,30,4D,
0,00000166,false,Rx,0,8,00,00,03,32,9B,57,30,49,
0,00000324,false,Rx,0,8,00,00,00,00,05,14,01,9D,
0,00000357,false,Rx,0,8,00,00,02,17,01,63,01,2C,
0,0000015A,false,Rx,0,4,00,00,0E,57,00,00,00,00,
0,00000107,false,Rx,0,8,00,00,00,00,00,00,00,00,
0,00000095,false,Rx,0,8,3A,98,0A,8A,09,0F,40,14,
0,000000E0,false,Rx,0,8,00,00,00,00,00,00,00,00,
0,00000150,false,Rx,0,8,00,00,00,00,00,00,40,19,
0,000001D0,false,Rx,0,8,FF,10,F0,F0,10,00,A0,0F,
0,00000220,false,Rx,0,8,10,0D,10,11,10,0B,00,00,
0,000000B4,false,Rx,0,7,00,00,00,00,00,90,1D,00,
0,000000F0,false,Rx,0,8,00,02,10,00,80,00,90,43,
0,000000F2,false,Rx,0,8,00,00,00,00,00,00,90,E1,
0,00000108,false,Rx,0,8,38,6D,50,3D,09,00,90,06,
0,00000160,false,Rx,0,8,00,00,00,44,0F,FF,D0,EF,
0,00000175,false,Rx,0,8,00,00,00,2E,00,00,90,5E,
0,000001D7,false,Rx,0,8,00,00,00,00,00,00,90,E1,
0,000001D8,false,Rx,0,8,00,00,00,00,00,04,D3,F8,
0,00000212,false,Rx,0,8,00,00,00,00,00,00,D0,F2,
0,000000F4,false,Rx,0,8,80,00,00,46,44,00,71,74,
0,000000F5,false,Rx,0,8,00,04,40,00,10,00,70,D1,
0,000000F6,false,Rx,0,8,1C,F8,03,08,00,0B,70,3B,
0,000000F7,false,Rx,0,8,40,12,00,05,80,00,75,6F,
0,00000107,false,Rx,0,8,00,00,00,00,00,00,00,00,
0,0000015A,false,Rx,0,4,00,00,0F,4A,00,00,00,00,
0,00000095,false,Rx,0,8,3A,98,0A,8A,09,0F,50,D9,
0,00000150,false,Rx,0,8,00,00,00,00,00,00,50,D4,
0,000000B4,false,Rx,0,7,00,00,00,00,00,A0,57,00,
0,000000F0,false,Rx,0,8,00,02,10,00,80,00,A0,09,
0,000000F2,false,Rx,0,8,00,00,00,00,00,00,A0,AB,
0,00000108,false,Rx,0,8,38,6D,50,3D,09,00,A0,4C,
0,00000175,false,Rx,0,8,00,00,00,2E,00,00,A0,14,
0,000001D7,false,Rx,0,8,00,00,00,00,00,00,A0,AB,
0,00000166,false,Rx,0,8,00,00,04,32,9B,57,40,1B,
0,000000F4,false,Rx,0,8,80,00,00,46,44,00,81,0B,
0,000000F5,false,Rx,0,8,00,04,40,00,10,00,80,AE,
0,000000F6,false,Rx,0,8,1C,F8,03,08,00,0E,80,25,
0,000000F7,false,Rx,0,8,40,12,00,05,80,00,85,10,
0,00000104,false,Rx,0,8,FF,FF,00,2C,00,00,40,7D,
0,00000164,false,Rx,0,8,10,00,1C,F9,03,06,40,7A,
0,00000284,false,Rx,0,8,4E,28,28,00,00,00,00,00,
0,0000015A,false,Rx,0,4,00,00,00,F1,00,00,00,00,
0,00000107,false,Rx,0,8,00,00,00,00,00,00,00,00,
0,00000095,false,Rx,0,8,3A,98,0A,8A,09,0F,60,93,
0,000000E0,false,Rx,0,8,00,00,00,00,00,00,00,00,
0,00000150,false,Rx,0,8,00,00,00,00,00,00,60,9E,
0,000001D0,false,Rx,0,8,FF,10,F0,F0,10,00,B0,C2,
0,00000220,false,Rx,0,8,10,0D,10,11,10,0B,00,00,
0,00000106,false,Rx,0,8,00,4E,20,00,00,00,00,00,
0,000000B4,false,Rx,0,7,00,00,00,00,00,B0,9A,00,
0,000000F0,false,Rx,0,8,00,02,10,00,80,00,B0,C4,
0,000000F2,false,Rx,0,8,00,00,00,00,00,00,B0,66,
0,00000108,false,Rx,0,8,38,6D,50,3D,09,00,B0,81,
0,0000015A,false,Rx,0,4,00,00,01,EC,00,00,00,00,
0,00000160,false,Rx,0,8,00,00,00,44,0F,FF,E0,A5,
0,00000175,false,Rx,0,8,00,00,00,2E,00,00,B0,D9,
0,000001D7,false,Rx,0,8,00,00,00,00,00,00,B0,66,
0,000001D8,false,Rx,0,8,00,00,00,00,00,04,E3,B2,
0,00000212,false,Rx,0,8,00,00,00,00,00,00,E0,B8,
0,00000234,false,Rx,0,8,DB,84,01,3B,00,0E,01,63,
0,00000282,false,Rx,0,8,00,00,00,05,00,00,00,01,
0,00000240,false,Rx,0,8,00,00,00,00,00,00,0F,FF,
0,000000F4,false,Rx,0,8,80,00,00,46,44,00,91,C6,
0,000000F5,false,Rx,0,8,00,04,40,00,10,00,90,63,
0,000000F6,false,Rx,0,8,1C,F8,03,08,00,0E,90,E8,
0,000000F7,false,Rx,0,8,40,12,00,05,80,00,95,DD,
0,00000242,false,Rx,0,8,DD,00,00,00,00,00,00,00,
0,00000280,false,Rx,0,8,00,00,00,00,00,00,00,00,
0,000002A4,false,Rx,0,8,00,0A,00,00,F5,0A,00,00,
0,000002A5,false,Rx,0,6,00,00,01,40,00,00,00,00,
0,00000107,false,Rx,0,8,00,00,00,00,00,00,00,00,
0,000002D0,false,Rx,0,8,FF,28,41,63,C3,B9,00,00,
0,00000095,false,Rx,0,8,3A,98,0A,8A,09,0F,70,5E,
0,0000015A,false,Rx,0,4,00,00,02,CB,00,00,00,00,
0,00000150,false,Rx,0,8,00,00,00,00,00,00,70,53,
0,000002D2,false,Rx,0,8,FF,FF,FF,FF,FF,FF,00,00,
0,00000301,false,Rx,0,8,00,00,00,00,00,00,A0,AB,
0,00000320,false,Rx,0,8,5E,9A,C0,3E,2D,9F,01,A0,
0,00000321,false,Rx,0,8,6A,CF,C0,03,1B,01,7F,00,
0,00000322,false,Rx,0,8,00,00,01,F5,01,00,00,00,
0,00000323,false,Rx,0,8,00,00,25,00,00,00,00,00,
0,000003E0,false,Rx,0,8,02,39,37,35,00,00,00,00,
0,000003E7,false,Rx,0,8,00,00,00,00,00,00,00,00,
0,000003EE,false,Rx,0,8,00,00,28,00,00,00,00,40,
0,000000B4,false,Rx,0,7,00,00,00,00,00,C0,C3,00,
0,000000F0,false,Rx,0,8,00,02,10,00,80,00,C0,9D,
0,000000F2,false,Rx,0,8,00,00,00,00,00,00,C0,3F,
0,00000108,false,Rx,0,8,38,6D,50,3D,09,00,C0,D8,
0,00000175,false,Rx,0,8,00,00,00,2E,00,00,C0,80,
0,000001D7,false,Rx,0,8,00,00,00,00,00,00,C0,3F,
0,00000166,false,Rx,0,8,00,00,05,32,9B,57,50,BC,
0,000000F4,false,Rx,0,8,80,00,00,46,44,00,A1,8C,
0,000000F5,false,Rx,0,8,00,04,40,00,10,00,A0,29,
0,000000F6,false,Rx,0,8,1C,F8,03,08,00,11,A0,B5,
0,000000F7,false,Rx,0,8,40,12,00,05,80,00,A5,97,
0,00000104,false,Rx,0,8,FF,FF,00,2C,00,00,50,B0,
0,00000164,false,Rx,0,8,10,00,1C,B2,03,29,50,D3,
0,0000015A,false,Rx,0,4,00,00,03,D6,00,00,00,00,
0,00000107,false,Rx,0,8,00,00,00,00,00,00,00,00,
0,00000095,false,Rx,0,8,3A,98,0A,8A,09,0F,80,21,
0,000000E0,false,Rx,0,8,00,00,00,00,00,00,00,00,
0,00000150,false,Rx,0,8,00,00,00,00,00,00,80,2C,
0,000001D0,false,Rx,0,8,FF,10,F0,F0,10,00,C0,9B,
0,00000220,false,Rx,0,8,10,0D,10,11,10,0B,00,00,
0,000000B4,false,Rx,0,7,00,00,00,00,00,D0,0E,00,
0,000000F0,false,Rx,0,8,00,02,10,00,80,00,D0,50,
0,000000F2,false,Rx,0,8,00,00,00,00,00,00,D0,F2,
0,00000108,false,Rx,0,8,38,6D,50,3D,09,00,D0,15,
0,00000160,false,Rx,0,8,00,00,00,44,0F,FF,F0,68,
0,00000175,false,Rx,0,8,00,00,00,2E,00,00,D0,4D,
0,000001D7,false,Rx,0,8,00,00,00,00,00,00,D0,F2,
0,000001D8,false,Rx,0,8,00,00,00,00,00,04,F3,7F,
0,00000212,false,Rx,0,8,00,00,00,00,00,00,F0,75,
0,00000235,false,Rx,0,8,09,14,00,2C,07,CA,05,D3,
0,000000F4,false,Rx,0,8,80,00,00,46,44,00,B1,41,
0,000000F5,false,Rx,0,8,00,04,40,00,10,00,B0,E4,
0,000000F6,false,Rx,0,8,1C,F8,03,08,00,11,B0,78,
0,000000F7,false,Rx,0,8,40,12,00,05,80,00,B5,5A,
0,00000107,false,Rx,0,8,00,00,00,00,00,00,00,00,
0,00000095,false,Rx,0,8,3A,98,0A,8A,09,0F,90,EC,
0,00000150,false,Rx,0,8,00,00,00,00,00,00,90,E1,
0,0000015A,false,Rx,0,4,00,00,04,85,00,00,00,00,
0,000000B4,false,Rx,0,7,00,00,00,00,00,E0,44,00,
0,000000F0,false,Rx,0,8,00,02,10,00,80,00,E0,1A,
0,000000F2,false,Rx,0,8,00,00,00,00,00,00,E0,B8,
0,00000108,false,Rx,0,8,38,6D,50,3D,09,00,E0,5F,
0,00000175,false,Rx,0,8,00,00,00,2E,00,00,E0,07,
0,000001D7,false,Rx,0,8,00,00,00,00,00,00,E0,B8,
0,00000166,false,Rx,0,8,00,00,06,32,9B,57,60,48,
0,000000F4,false,Rx,0,8,80,00,00,46,44,00,C1,18,
0,000000F5,false,Rx,0,8,00,04,40,00,10,00,C0,BD,
0,000000F6,false,Rx,0,8,1C,F8,03,08,00,14,C0,40,
0,000000F7,false,Rx,0,8,40,12,00,05,80,00,C5,03,
0,00000104,false,Rx,0,8,FF,FF,00,2D,00,00,60,67,
0,00000107,false,Rx,0,8,00,00,00,00,00,00,00,00,
0,00000164,false,Rx,0,8,10,00,1A,9F,04,16,60,15,
0,00000095,false,Rx,0,8,3A,98,0A,8A,09,0F,A0,A6,
0,0000015A,false,Rx,0,4,00,00,05,98,00,00,00,00,
0,000000E0,false,Rx,0,8,00,00,00,00,00,00,00,00,
0,00000150,false,Rx,0,8,00,00,00,00,00,00,A0,AB,
0,000001D0,false,Rx,0,8,FF,10,F0,F0,10,00,D0,56,
0,00000220,false,Rx,0,8,10,0D,10,11,10,0B,00,00,
0,00000106,false,Rx,0,8,00,4E,20,00,00,00,00,00,
0,000000B4,false,Rx,0,7,00,00,00,00,00,F0,89,00,
0,000000F0,false,Rx,0,8,00,02,10,00,80,00,F0,D7,
0,000000F2,false,Rx,0,8,00,00,00,00,00,00,F0,75,
0,00000108,false,Rx,0,8,38,6D,50,3D,09,00,F0,92,
0,00000160,false,Rx,0,8,00,00,00,44,0F,FF,00,17,
0,00000175,false,Rx,0,8,00,00,00,2E,00,00,F0,CA,
0,000001D7,false,Rx,0,8,00,00,00,00,00,00,F0,75,
0,000001D8,false,Rx,0,8,00,00,00,00,00,04,03,00,
0,00000212,false,Rx,0,8,00,00,00,00,00,00,00,0A,
0,000000F4,false,Rx,0,8,80,00,00,46,44,00,D1,D5,
0,000000F5,false,Rx,0,8,00,04,40,00,10,00,D0,70,
0,000000F6,false,Rx,0,8,1C,F8,03,08,00,14,D0,8D,
0,000000F7,false,Rx,0,8,40,12,00,05,80,00,D5,CE,
0,00000107,false,Rx,0,8,00,00,00,00,00,00,00,00,
0,00000095,false,Rx,0,8,3A,98,0A,8A,09,0F,B0,6B,
0,00000150,false,Rx,0,8,00,00,00,00,00,00,B0,66,
0,0000015A,false,Rx,0,4,00,00,06,BF,00,00,00,00,
0,000000B4,false,Rx,0,7,00,00,00,00,00,00,F6,00,
0,000000F0,false,Rx,0,8,00,02,10,00,80,00,00,A8,
0,000000F2,false,Rx,0,8,00,00,00,00,00,00,00,0A,
0,00000108,false,Rx,0,8,38,6D,50,3D,09,00,00,ED,
0,00000175,false,Rx,0,8,00,00,00,2E,00,00,00,B5,
0,000001D7,false,Rx,0,8,00,00,00,00,00,00,00,0A,
0,00000234,false,Rx,0,8,DD,84,01,3B,00,0E,01,63,
0,00000240,false,Rx,0,8,00,00,00,00,00,00,0F,FF,
0,00000242,false,Rx,0,8,DD,00,00,00,00,00,00,00,
0,00000166,false,Rx,0,8,00,00,07,32,9B,57,70,EF,
0,000000F4,false,Rx,0,8,80,00,00,46,44,00,E1,9F,
0,000000F5,false,Rx,0,8,00,04,40,00,10,00,E0,3A,
0,000000F6,false,Rx,0,8,1C,F8,03,08,00,16,E0,5F,
0,000000F7,false,Rx,0,8,40,12,00,05,80,00,E5,84,
0,00000104,false,Rx,0,8,FF,FF,00,2C,00,00,70,37,
0,00000164,false,Rx,0,8,10,00,18,CA,05,F6,70,B7,
0,0000015A,false,Rx,0,4,00,00,07,A2,00,00,00,00,
0,000003EC,false,Rx,0,8,00,00,00,00,00,03,60,4A,
0,00000095,false,Rx,0,8,3A,98,0A,8A,09,0F,C0,32,
0,000000E0,false,Rx,0,8,00,00,00,00,00,00,00,00,
0,00000107,false,Rx,0,8,00,00,00,00,00,00,00,00,
0,00000150,false,Rx,0,8,00,00,00,00,00,00,C0,3F,
0,000001D0,false,Rx,0,8,FF,10,F0,F0,10,00,E0,1C,
0,00000220,false,Rx,0,8,10,0D,10,11,10,0B,00,00,
0,00000281,false,Rx,0,8,1F,FF,1F,FF,1F,FF,00,00,
0,00000285,false,Rx,0,8,1F,FF,1F,FF,1F,FF,00,00,
0,00000306,false,Rx,0,8,00,00,E7,F7,EE,EC,8E,F5,
0,00000307,false,Rx,0,8,41,41,00,C0,27,00,27,00,
0,00000106,false,Rx,0,8,00,4E,20,00,00,00,00,00,
0,000003E8,false,Rx,0,8,00,00,00,00,00,00,00,00,
0,000003EA,false,Rx,0,8,4B,00,00,00,7D,00,60,B8,
0,000003EB,false,Rx,0,8,02,00,00,07,00,00,60,D0,
0,000003ED,false,Rx,0,8,FF,43,00,00,00,00,60,F1,
0,000000B4,false,Rx,0,7,00,00,00,00,00,10,3B,00,
0,000000F0,false,Rx,0,8,00,02,10,00,80,00,10,65,
0,000000F2,false,Rx,0,8,00,00,00,00,00,00,10,C7,
0,00000108,false,Rx,0,8,38,6D,50,3D,09,00,10,20,
0,00000160,false,Rx,0,8,00,00,00,44,0F,FF,10,DA,
0,00000175,false,Rx,0,8,00,00,00,2E,00,00,10,78,
0,000001D7,false,Rx,0,8,00,00,00,00,00,00,10,C7,
0,000001D8,false,Rx,0,8,00,00,00,00,00,04,13,CD,
0,00000212,false,Rx,0,8,00,00,00,00,00,00,10,C7,
0,000000F4,false,Rx,0,8,80,00,00,46,44,00,F1,52,
0,000000F5,false,Rx,0,8,00,04,40,00,10,00,F0,F7,
0,000000F6,false,Rx,0,8,1C,F8,03,08,00,16,F0,92,
0,000000F7,false,Rx,0,8,40,12,00,05,80,00,F5,49,
0,00000107,false,Rx,0,8,00,00,00,00,00,00,00,00,
0,00000095,false,Rx,0,8,3A,98,0A,8A,09,0F,D0,FF,
0,00000150,false,Rx,0,8,00,00,00,00,00,00,D0,F2,
0,0000015A,false,Rx,0,4,00,00,08,19,00,00,00,00,
0,00000235,false,Rx,0,8,09,14,00,2C,07,CA,05,D3,
0,0000031A,false,Rx,0,8,3D,09,00,3D,09,00,00,00,
0,0000031B,false,Rx,0,8,3D,09,00,3D,09,00,00,00,
0,00000115,false,Rx,0,8,00,00,00,00,47,47,07,39,
0,00000309,false,Rx,0,8,00,00,00,00,00,00,00,20,
0,000000B4,false,Rx,0,7,00,00,00,00,00,20,71,00,
0,000000F0,false,Rx,0,8,00,02,10,00,80,00,20,2F,
0,000000F2,false,Rx,0,8,00,00,00,00,00,00,20,8D,
0,00000108,false,Rx,0,8,38,6D,50,3D,09,00,20,6A,
0,00000175,false,Rx,0,8,00,00,00,2E,00,00,20,32,
0,000001D7,false,Rx,0,8,00,00,00,00,00,00,20,8D,
0,00000308,false,Rx,0,8,00,00,00,00,08,00,39,F4,
0,0000031C,false,Rx,0,8,01,90,01,90,00,00,00,00,
0,0000031D,false,Rx,0,8,86,00,00,00,00,00,02,00,
0,0000031E,false,Rx,0,8,00,00,00,00,00,00,00,00,
0,0000031F,false,Rx,0,8,01,F4,01,F4,01,F4,00,00,
0,00000324,false,Rx,0,8,00,00,00,00,05,14,01,9D,
0,000000F4,false,Rx,0,8,80,00,00,46,44,00,01,2D,
0,000000F5,false,Rx,0,8,00,05,40,00,10,00,00,CE,
0,000000F6,false,Rx,0,8,1C,F8,03,08,00,19,00,4E,
0,000000F7,false,Rx,0,8,40,12,00,05,80,00,05,36,
0,00000104,false,Rx,0,8,FF,FF,00,2B,00,00,80,BC,
0,00000164,false,Rx,0,8,10,00,17,5A,07,8B,80,B7,
0,00000166,false,Rx,0,8,00,00,08,32,9B,57,80,EC,
0,00000357,false,Rx,0,8,00,00,02,17,01,63,01,2C,
0,0000015A,false,Rx,0,4,00,00,09,04,00,00,00,00,
0,00000107,false,Rx,0,8,00,00,00,00,00,00,00,00,
0,00000095,false,Rx,0,8,3A,98,0A,8A,09,0F,E0,B5,
0,000000E0,false,Rx,0,8,00,00,00,00,00,00,00,00,
0,00000150,false,Rx,0,8,00,00,00,00,00,00,E0,B8,
0,000001D0,false,Rx,0,8,FF,10,F0,F0,10,00,F0,D1,
0,00000220,false,Rx,0,8,10,0D,10,11,10,0B,00,00,
0,000000B4,false,Rx,0,7,00,00,00,00,00,30,BC,00,
0,000000F0,false,Rx,0,8,00,02,10,00,80,00,30,E2,
0,000000F2,false,Rx,0,8,00,00,00,00,00,00,30,40,
0,00000108,false,Rx,0,8,38,6D,50,3D,09,00,30,A7,
0,00000160,false,Rx,0,8,00,00,00,44,0F,FF,20,90,
0,00000175,false,Rx,0,8,00,00,00,2E,00,00,30,FF,
0,000001D7,false,Rx,0,8,00,00,00,00,00,00,30,40,
0,000001D8,false,Rx,0,8,00,00,00,00,00,04,23,87,
0,00000212,false,Rx,0,8,00,00,00,00,00,00,20,8D,
0,000000F4,false,Rx,0,8,80,00,00,46,44,00,11,E0,
0,000000F5,false,Rx,0,8,00,05,40,00,10,00,10,03,
0,000000F6,false,Rx,0,8,1C,F8,03,08,00,19,10,83,
0,000000F7,false,Rx,0,8,40,12,00,05,80,00,15,FB,
0,00000107,false,Rx,0,8,00,00,00,00,00,00,00,00,
0,0000015A,false,Rx,0,4,00,00,0A,23,00,00,00,00,
0,00000095,false,Rx,0,8,3A,98,0A,8A,09,0F,F0,78,
0,00000150,false,Rx,0,8,00,00,00,00,00,00,F0,75,
0,00000106,false,Rx,0,8,00,4E,20,00,00,00,00,00,
0,000000B4,false,Rx,0,7,00,00,00,00,00,40,E5,00,
0,000000F0,false,Rx,0,8,00,02,10,00,80,00,40,BB,
0,000000F2,false,Rx,0,8,00,00,00,00,00,00,40,19,
0,00000108,false,Rx,0,8,38,6D,50,3D,09,00,40,FE,
0,00000175,false,Rx,0,8,00,00,00,2E,00,00,40,A6,
0,000001D7,false,Rx,0,8,00,00,00,00,00,00,40,19,
0,00000166,false,Rx,0,8,00,00,09,32,9B,57,90,4B,
0,000000F4,false,Rx,0,8,80,00,00,46,44,00,21,AA,
0,000000F5,false,Rx,0,8,00,04,40,00,10,00,20,0F,
0,000000F6,false,Rx,0,8,1C,F8,03,08,00,1C,20,A8,
0,000000F7,false,Rx,0,8,42,12,00,05,80,00,25,0B,
0,00000104,false,Rx,0,8,FF,FF,00,63,00,00,90,79,
0,00000164,false,Rx,0,8,10,00,16,49,08,B5,90,27,
0,00000284,false,Rx,0,8,4E,28,28,00,00,00,00,00,
0,0000015A,false,Rx,0,4,00,00,0B,3E,00,00,00,00,
0,00000107,false,Rx,0,8,00,00,00,00,00,00,00,00,
0,00000095,false,Rx,0,8,3A,98,0A,8A,09,0F,00,07,
0,000000E0,false,Rx,0,8,00,00,00,00,00,00,00,00,
0,00000150,false,Rx,0,8,00,00,00,00,00,00,00,0A,
0,000001D0,false,Rx,0,8,FF,10,F0,F0,10,00,00,AE,
0,00000220,false,Rx,0,8,10,0D,10,11,10,0B,00,00,
0,000000B4,false,Rx,0,7,00,00,00,00,00,50,28,00,
0,000000F0,false,Rx,0,8,00,02,10,00,80,00,50,76,
0,000000F2,false,Rx,0,8,00,00,00,00,00,00,50,D4,
0,00000108,false,Rx,0,8,38,6D,50,3D,09,00,50,33,
0,00000160,false,Rx,0,8,00,00,00,44,0F,FF,30,5D,
0,00000175,false,Rx,0,8,00,00,00,2E,00,00,50,6B,
0,000001D7,false,Rx,0,8,00,00,00,00,00,00,50,D4,
0,000001D8,false,Rx,0,8,00,00,00,00,00,05,33,06,
0,00000212,false,Rx,0,8,00,00,00,00,00,00,30,40,
0,00000234,false,Rx,0,8,DE,84,01,3B,00,0E,01,63,
0,00000282,false,Rx,0,8,00,00,00,05,00,00,00,01,
0,00000240,false,Rx,0,8,00,00,00,00,00,00,0F,FF,
0,00000242,false,Rx,0,8,DD,00,00,00,00,00,00,00,
0,000000F4,false,Rx,0,8,80,00,00,46,44,00,31,67,
0,000000F5,false,Rx,0,8,00,04,40,00,10,00,30,C2,
0,000000F6,false,Rx,0,8,1C,F8,03,08,00,1C,30,65,
0,000000F7,false,Rx,0,8,42,12,00,05,80,00,35,C6,
0,00000280,false,Rx,0,8,00,00,00,00,00,00,00,00,
0,000002A4,false,Rx,0,8,00,0A,00,00,F5,0A,00,00,
0,000002A5,false,Rx,0,6,00,00,01,40,00,00,00,00,
0,000002D0,false,Rx,0,8,FF,28,41,63,C3,B9,00,00,
0,00000107,false,Rx,0,8,00,00,00,00,00,00,00,00,
0,0000015A,false,Rx,0,4,00,00,0C,6D,00,00,00,00,
0,00000095,false,Rx,0,8,3A,98,0A,8A,09,0F,10,CA,
0,000002D2,false,Rx,0,8,FF,FF,FF,FF,FF,FF,00,00,
0,00000150,false,Rx,0,8,00,00,00,00,00,00,10,C7,
0,00000301,false,Rx,0,8,00,00,00,00,00,00,B0,66,
0,00000320,false,Rx,0,8,5E,9A,C0,3E,2D,9F,01,A0,
0,00000321,false,Rx,0,8,6A,CF,C0,03,1B,01,7F,00,
0,00000322,false,Rx,0,8,00,00,01,F5,01,00,00,00,
0,00000323,false,Rx,0,8,00,00,25,00,00,00,00,00,
0,0000038C,false,Rx,0,8,07,EA,07,04,17,0D,00,0D,
0,000003D1,false,Rx,0,8,00,00,00,69,00,00,00,00,
0,000003D2,false,Rx,0,8,7C,00,03,E3,82,00,00,00,
0,000003E0,false,Rx,0,8,00,59,41,52,54,44,44,45,
0,000003E7,false,Rx,0,8,00,00,00,00,00,00,00,00,
0,000003EE,false,Rx,0,8,00,00,28,00,00,00,00,40,
0,000003EF,false,Rx,0,7,01,7F,00,B4,FE,01,46,00,
0,000003FD,false,Rx,0,8,47,18,71,23,00,00,00,00,
0,000005A8,false,Rx,0,8,00,00,00,00,00,00,02,30,
0,000000B4,false,Rx,0,7,00,00,00,00,00,60,62,00,
0,000000F0,false,Rx,0,8,00,02,10,00,80,00,60,3C,
0,000000F2,false,Rx,0,8,00,00,00,00,00,00,60,9E,
0,00000108,false,Rx,0,8,38,6D,50,3D,09,00,60,79,
0,00000175,false,Rx,0,8,00,00,00,2E,00,00,60,21,
0,000001D7,false,Rx,0,8,00,00,00,00,00,00,60,9E,
0,00000166,false,Rx,0,8,00,00,0A,32,9B,57,A0,BF,
0,000000F4,false,Rx,0,8,80,00,00,46,44,00,41,3E,
0,000000F5,false,Rx,0,8,00,05,40,00,10,00,40,DD,
0,000000F6,false,Rx,0,8,1C,F8,03,08,00,1F,40,E8,
0,000000F7,false,Rx,0,8,42,12,00,05,80,00,45,9F,
0,00000104,false,Rx,0,8,FF,FF,00,2B,00,00,A0,3B,
0,00000164,false,Rx,0,8,10,00,15,90,09,A9,A0,1A,
0,0000015A,false,Rx,0,4,00,00,0D,70,00,00,00,00,
0,00000107,false,Rx,0,8,00,00,00,00,00,00,00,00,
0,00000095,false,Rx,0,8,3A,98,0A,8A,09,0F,20,80,
0,000000E0,false,Rx,0,8,00,00,00,00,00,00,00,00,
0,00000150,false,Rx,0,8,00,00,00,00,00,00,20,8D,
0,000001D0,false,Rx,0,8,FF,10,F0,F0,10,00,10,63,
0,00000220,false,Rx,0,8,10,0D,10,11,10,0B,00,00,
0,00000235,false,Rx,0,8,09,14,00,2C,07,CA,05,D3,
0,00000106,false,Rx,0,8,00,4E,20,00,00,00,00,00,
0,000002A0,false,Rx,0,8,00,05,10,DA,00,00,00,00,
0,000002A2,false,Rx,0,8,04,00,04,00,06,83,00,00,
0,00000355,false,Rx,0,8,40,00,00,00,47,48,40,00,
0,000000B4,false,Rx,0,7,00,00,00,00,00,70,AF,00,
0,000000F0,false,Rx,0,8,00,02,10,00,80,00,70,F1,
0,000000F2,false,Rx,0,8,00,00,00,00,00,00,70,53,
0,00000108,false,Rx,0,8,38,6D,50,3D,09,00,70,B4,
0,00000160,false,Rx,0,8,00,00,00,44,0F,FF,40,04,
0,00000175,false,Rx,0,8,00,00,00,2E,00,00,70,EC,
0,000001D7,false,Rx,0,8,00,00,00,00,00,00,70,53,
0,000001D8,false,Rx,0,8,00,00,00,00,00,04,43,13,
0,00000212,false,Rx,0,8,00,00,00,00,00,00,40,19,
0,000000F4,false,Rx,0,8,80,00,00,46,44,00,51,F3,
0,000000F5,false,Rx,0,8,00,05,40,00,10,00,50,10,
0,000000F6,false,Rx,0,8,1C,F8,03,08,00,1F,50,25,
0,000000F7,false,Rx,0,8,42,12,00,05,80,00,55,52,
0,00000107,false,Rx,0,8,00,00,00,00,00,00,00,00,
0,00000095,false,Rx,0,8,3A,98,0A,8A,09,0F,30,4D,
0,00000150,false,Rx,0,8,00,00,00,00,00,00,30,40,
0,0000015A,false,Rx,0,4,00,00,0E,57,00,00,00,00,
0,000000B4,false,Rx,0,7,00,00,00,00,00,80,D0,00,
0,000000F0,false,Rx,0,8,00,02,10,00,80,00,80,8E,
0,000000F2,false,Rx,0,8,00,00,00,00,00,00,80,2C,
0,00000108,false,Rx,0,8,38,6D,50,3D,09,00,80,CB,
0,00000175,false,Rx,0,8,00,00,00,2E,00,00,80,93,
0,000001D7,false,Rx,0,8,00,00,00,00,00,00,80,2C,
0,00000166,false,Rx,0,8,00,00,0B,32,9B,57,B0,18,
0,000000F4,false,Rx,0,8,80,00,00,46,44,00,61,B9,
0,000000F5,false,Rx,0,8,00,05,40,00,10,00,60,5A,
0,000000F6,false,Rx,0,8,1C,F8,03,08,00,22,60,95,
0,000000F7,false,Rx,0,8,42,12,00,05,80,00,65,18,
0,00000104,false,Rx,0,8,FF,FF,00,2D,00,00,B0,9F,
0,00000107,false,Rx,0,8,00,00,00,00,00,00,00,00,
0,00000164,false,Rx,0,8,10,00,15,01,0A,4D,B0,AD,
0,00000095,false,Rx,0,8,3A,98,0A,8A,09,0F,40,14,
0,0000015A,false,Rx,0,4,00,00,0F,4A,00,00,00,00,
0,000000E0,false,Rx,0,8,00,00,00,00,00,00,00,00,
0,00000150,false,Rx,0,8,00,00,00,00,00,00,40,19,
0,000001D0,false,Rx,0,8,FF,10,F0,F0,10,00,20,29,
0,00000220,false,Rx,0,8,10,0D,10,11,10,0B,00,00,
0,000000B4,false,Rx,0,7,00,00,00,00,00,91,00,00,
0,000000F0,false,Rx,0,8,00,02,10,00,80,00,90,43,
0,000000F2,false,Rx,0,8,00,00,00,00,00,00,90,E1,
0,00000108,false,Rx,0,8,38,6D,50,3D,09,00,90,06,
0,00000160,false,Rx,0,8,00,00,00,44,0F,FF,50,C9,
0,00000175,false,Rx,0,8,00,00,00,2E,00,00,90,5E,
0,000001D7,false,Rx,0,8,00,00,00,00,00,00,90,E1,
0,000001D8,false,Rx,0,8,00,00,00,00,00,05,53,92,
0,00000212,false,Rx,0,8,00,00,00,00,00,00,50,D4,
0,000000F4,false,Rx,0,8,80,00,00,46,44,00,71,74,
0,000000F5,false,Rx,0,8,00,05,40,00,10,00,70,97,
0,000000F6,false,Rx,0,8,1C,F8,03,08,00,22,70,58,
0,000000F7,false,Rx,0,8,42,12,00,05,80,00,75,D5,
0,00000107,false,Rx,0,8,00,00,00,00,00,00,00,00,
0,00000095,false,Rx,0,8,3A,98,0A,8A,09,0F,50,D9,
0,00000150,false,Rx,0,8,00,00,00,00,00,00,50,D4,
0,0000015A,false,Rx,0,4,00,00,00,F1,00,00,00,00,
0,00000106,false,Rx,0,8,00,4E,20,00,00,00,00,00,
0,000000B4,false,Rx,0,7,00,00,00,00,00,A1,4A,00,
0,000000F0,false,Rx,0,8,00,02,10,00,80,00,A0,09,
0,000000F2,false,Rx,0,8,00,00,00,00,00,00,A0,AB,
0,00000108,false,Rx,0,8,38,6D,50,3D,09,00,A0,4C,
0,0000015A,false,Rx,0,4,00,00,01,EC,00,00,00,00,
0,000001D7,false,Rx,0,8,00,00,00,00,00,00,A0,AB,
0,00000175,false,Rx,0,8,00,00,00,2E,00,00,A0,14,
0,00000234,false,Rx,0,8,E0,84,01,3B,00,0E,01,63,
0,00000240,false,Rx,0,8,00,00,00,00,00,00,0F,FF,
0,00000242,false,Rx,0,8,DD,00,00,00,00,00,00,00,
0,000003EC,false,Rx,0,8,00,00,00,00,00,04,70,7E,
0,000000F4,false,Rx,0,8,80,00,00,46,44,00,81,0B,
0,00000095,false,Rx,0,8,3A,98,0A,8A,09,0F,60,93,
0,000000F5,false,Rx,0,8,00,05,40,00,10,00,80,E8,
0,000000E0,false,Rx,0,8,00,00,00,00,00,00,00,00,
0,000000F6,false,Rx,0,8,1C,F8,03,08,00,25,80,DE,
0,000000F7,false,Rx,0,8,42,12,00,05,80,00,85,AA,
0,00000104,false,Rx,0,8,FF,FF,00,2C,00,00,C0,5B,
0,00000107,false,Rx,0,8,00,00,00,00,00,00,00,00,
0,0000015A,false,Rx,0,4,00,00,02,CB,00,00,00,00,
0,00000150,false,Rx,0,8,00,00,00,00,00,00,60,9E,
0,00000164,false,Rx,0,8,10,00,14,79,0A,CB,C0,85,
0,00000166,false,Rx,0,8,00,00,0C,32,9B,57,C0,4A,
0,000001D0,false,Rx,0,8,FF,10,F0,F0,10,00,30,E4,
0,00000220,false,Rx,0,8,10,0D,10,11,10,0B,00,00,
0,00000281,false,Rx,0,8,1F,FF,1F,FF,1F,FF,00,00,
0,00000285,false,Rx,0,8,1F,FF,1F,FF,1F,FF,00,00,
0,00000306,false,Rx,0,8,00,00,E7,F7,EE,EC,8E,F5,
0,00000307,false,Rx,0,8,41,41,00,00,42,00,43,00,
0,000003E8,false,Rx,0,8,00,00,00,00,00,00,00,00,
0,000003EA,false,Rx,0,8,4B,00,00,00,7D,00,70,75,
0,000003EB,false,Rx,0,8,02,00,00,07,00,00,70,1D,
0,000003ED,false,Rx,0,8,FF,43,00,00,00,00,70,3C,
0,000000B4,false,Rx,0,7,00,00,00,00,00,B1,87,00,
0,000000F0,false,Rx,0,8,00,02,10,00,80,00,B0,C4,
0,000000F2,false,Rx,0,8,00,00,00,00,00,00,B0,66,
0,00000108,false,Rx,0,8,38,6D,50,3D,09,00,B0,81,
0,00000160,false,Rx,0,8,00,00,00,44,0F,FF,60,83,
0,00000175,false,Rx,0,8,00,00,00,2E,00,00,B0,D9,
0,000001D7,false,Rx,0,8,00,00,00,00,00,00,B0,66,
0,000001D8,false,Rx,0,8,00,00,00,00,00,05,63,D8,
0,00000212,false,Rx,0,8,00,00,00,00,00,00,60,9E,
0,000000F4,false,Rx,0,8,80,00,00,46,44,00,91,C6,
0,000000F5,false,Rx,0,8,00,05,40,00,10,00,90,25,
0,000000F6,false,Rx,0,8,1C,F8,03,08,00,25,90,13,
0,000000F7,false,Rx,0,8,42,12,00,05,80,00,95,67,
0,00000107,false,Rx,0,8,00,00,00,00,00,00,00,00,
0,00000095,false,Rx,0,8,3A,98,0A,8A,09,0F,70,5E,
0,00000150,false,Rx,0,8,00,00,00,00,00,00,70,53,
0,0000015A,false,Rx,0,4,00,00,03,D6,00,00,00,00,
