Time Stamp,ID,Extended,Dir,Bus,LEN,D1,D2,D3,D4,D5,D6,D7,D8
0,000000B4,false,Rx,0,7,00,00,00,00,00,10,3B,00,
0,000000F0,false,Rx,0,8,00,00,10,00,80,00,10,E9,
0,000000F2,false,Rx,0,8,00,00,00,00,00,00,10,C7,
0,00000108,false,Rx,0,8,00,00,00,3D,09,00,10,64,
0,0000015A,false,Rx,0,4,00,00,01,EC,00,00,00,00,
0,00000160,false,Rx,0,8,00,00,00,46,0F,FF,10,FD,
0,00000175,false,Rx,0,8,00,00,00,00,00,00,10,C7,
0,000001D7,false,Rx,0,8,00,00,00,00,00,00,10,C7,
0,000001D8,false,Rx,0,8,00,00,00,00,E0,00,10,57,
0,00000212,false,Rx,0,8,00,00,00,00,00,00,17,94,
0,00000234,false,Rx,0,8,00,7D,00,00,00,00,00,FF,
0,00000282,false,Rx,0,8,00,00,00,05,00,00,00,00,
0,00000240,false,Rx,0,8,00,00,00,00,00,00,0F,FF,
0,00000242,false,Rx,0,8,DD,00,00,00,00,00,00,00,
0,00000280,false,Rx,0,8,00,00,00,00,00,00,00,00,
0,000002A4,false,Rx,0,8,00,00,00,00,F5,00,00,00,
0,000002A5,false,Rx,0,6,00,00,01,40,00,00,00,00,
0,000002D0,false,Rx,0,8,FF,FF,FF,7F,FF,FF,00,00,
0,000002D2,false,Rx,0,8,FF,FF,FF,FF,FF,FF,00,00,
0,00000301,false,Rx,0,8,00,00,00,00,00,00,10,C7,
0,00000320,false,Rx,0,8,3D,09,00,3D,09,00,00,80,
0,0000015A,false,Rx,0,4,00,00,02,CB,00,00,00,00,
0,00000321,false,Rx,0,8,3D,09,00,01,90,00,00,00,
0,00000322,false,Rx,0,8,00,00,00,F5,00,00,00,00,
0,00000323,false,Rx,0,8,00,00,00,00,00,00,00,00,
0,0000038C,false,Rx,0,8,FF,FF,FF,FF,FF,FF,FF,FF,
0,0000039E,false,Rx,0,3,01,10,00,00,00,00,00,00,
0,000003D1,false,Rx,0,8,00,00,00,00,00,00,00,00,
0,000003D2,false,Rx,0,8,FF,00,00,00,00,00,00,00,
0,000003E0,false,Rx,0,8,03,00,00,00,00,00,00,00,
0,000003E7,false,Rx,0,8,00,00,00,00,00,00,00,00,
0,000003EE,false,Rx,0,8,00,00,28,00,00,00,00,00,
0,000003EF,false,Rx,0,7,00,00,00,00,80,00,7E,00,
0,000003FD,false,Rx,0,8,47,18,71,23,00,00,00,00,
0,000005A8,false,Rx,0,8,00,00,00,00,00,00,01,17,
0,000000B4,false,Rx,0,7,00,00,00,00,00,20,71,00,
0,000000F0,false,Rx,0,8,00,00,10,00,80,00,20,A3,
0,000000F2,false,Rx,0,8,00,00,00,00,00,00,20,8D,
0,00000108,false,Rx,0,8,00,00,00,3D,09,00,20,2E,
0,00000175,false,Rx,0,8,00,00,00,00,00,00,20,8D,
0,000001D7,false,Rx,0,8,00,00,00,00,00,00,20,8D,
0,0000015A,false,Rx,0,4,00,00,03,D6,00,00,00,00,
0,000000B4,false,Rx,0,7,00,00,00,00,00,30,BC,00,
0,000000F0,false,Rx,0,8,00,00,10,00,80,00,30,6E,
0,000000F2,false,Rx,0,8,00,00,00,00,00,00,30,40,
0,00000108,false,Rx,0,8,00,00,00,3D,09,00,30,E3,
0,00000160,false,Rx,0,8,00,00,00,46,0F,FF,20,B7,
0,00000175,false,Rx,0,8,00,00,00,00,00,00,30,40,
0,000001D7,false,Rx,0,8,00,00,00,00,00,00,30,40,
0,000001D8,false,Rx,0,8,00,00,00,00,E0,00,20,1D,
0,00000212,false,Rx,0,8,00,00,00,00,00,00,27,DE,
0,000000F4,false,Rx,0,8,80,01,00,46,45,00,F1,9B,
0,000000F5,false,Rx,0,8,00,03,40,00,10,00,F0,38,
0,000000F6,false,Rx,0,8,1C,F8,03,08,00,16,F0,92,
0,000000F7,false,Rx,0,8,40,00,00,06,80,00,F1,1F,
0,0000015A,false,Rx,0,4,00,00,04,85,00,00,00,00,
0,000000B4,false,Rx,0,7,00,00,00,00,00,40,E5,00,
0,000000F0,false,Rx,0,8,00,00,10,00,80,00,40,37,
0,000000F2,false,Rx,0,8,00,00,00,00,00,00,40,19,
0,00000108,false,Rx,0,8,00,00,00,3D,09,00,40,BA,
0,00000175,false,Rx,0,8,00,00,00,00,00,00,40,19,
0,000001D7,false,Rx,0,8,00,00,00,00,00,00,40,19,
0,00000166,false,Rx,0,8,00,00,08,2F,9B,57,80,86,
0,000000F4,false,Rx,0,8,80,01,00,46,45,00,01,E4,
0,000000F5,false,Rx,0,8,00,04,40,00,10,00,00,88,
0,000000F6,false,Rx,0,8,1C,F8,03,08,00,19,00,4E,
0,000000F7,false,Rx,0,8,40,00,00,06,80,00,01,60,
0,00000104,false,Rx,0,8,FF,FF,00,60,00,00,80,0E,
0,00000164,false,Rx,0,8,10,00,17,5A,07,8B,80,B7,
0,0000015A,false,Rx,0,4,00,00,05,98,00,00,00,00,
0,000000B4,false,Rx,0,7,00,00,00,00,00,50,28,00,
0,000000F0,false,Rx,0,8,00,00,10,00,80,00,50,FA,
0,000000F2,false,Rx,0,8,00,00,00,00,00,00,50,D4,
0,00000108,false,Rx,0,8,00,00,00,3D,09,00,50,77,
0,00000160,false,Rx,0,8,00,00,00,46,0F,FF,30,7A,
0,00000175,false,Rx,0,8,00,00,00,2E,00,00,50,6B,
0,000001D7,false,Rx,0,8,00,00,00,00,00,00,50,D4,
0,000001D8,false,Rx,0,8,00,00,00,00,E0,00,30,D0,
0,00000212,false,Rx,0,8,00,00,00,00,00,00,37,13,
0,000000F4,false,Rx,0,8,80,01,00,46,45,00,11,29,
0,000000F5,false,Rx,0,8,00,04,40,00,10,00,10,45,
0,000000F6,false,Rx,0,8,1C,F8,03,08,00,19,10,83,
0,000000F7,false,Rx,0,8,40,00,00,06,80,00,11,AD,
0,0000015A,false,Rx,0,4,00,00,06,BF,00,00,00,00,
0,00000235,false,Rx,0,8,02,2D,00,01,07,CA,05,D3,
0,000002A0,false,Rx,0,8,00,05,52,DD,00,00,00,00,
0,00000106,false,Rx,0,8,00,4E,20,00,00,00,00,00,
0,00000115,false,Rx,0,8,00,00,00,00,40,40,00,30,
0,000000B4,false,Rx,0,7,00,00,00,00,00,60,62,00,
0,000000F0,false,Rx,0,8,00,00,10,00,80,00,60,B0,
0,000000F2,false,Rx,0,8,00,00,00,00,00,00,60,9E,
0,00000108,false,Rx,0,8,00,00,00,3D,09,00,60,3D,
0,00000175,false,Rx,0,8,00,00,00,2E,00,00,60,21,
0,000001D7,false,Rx,0,8,00,00,00,00,00,00,60,9E,
0,00000234,false,Rx,0,8,C0,84,01,4B,00,0E,01,63,
0,000002A2,false,Rx,0,8,00,00,00,00,06,83,00,00,
0,00000240,false,Rx,0,8,00,00,00,00,00,00,0F,FF,
0,000000F4,false,Rx,0,8,80,00,00,46,45,00,21,25,
0,000000F5,false,Rx,0,8,00,04,40,00,10,00,20,0F,
0,000000F6,false,Rx,0,8,1C,F8,03,08,00,1C,20,A8,
0,000000F7,false,Rx,0,8,40,00,00,06,80,00,21,E7,
0,00000104,false,Rx,0,8,FF,FF,00,5A,00,00,90,17,
0,00000164,false,Rx,0,8,10,00,16,49,08,B5,90,27,
0,00000166,false,Rx,0,8,00,00,09,2F,9B,57,90,21,
0,00000242,false,Rx,0,8,DD,00,00,00,00,00,00,00,
0,000002BA,false,Rx,0,7,00,00,00,00,00,00,04,00,
0,00000308,false,Rx,0,8,00,00,00,00,08,00,39,F4,
0,00000309,false,Rx,0,8,00,00,00,00,00,00,00,20,
0,0000031A,false,Rx,0,8,3D,09,00,3D,09,00,00,00,
0,0000015A,false,Rx,0,4,00,00,07,A2,00,00,00,00,
0,0000031B,false,Rx,0,8,3D,09,00,3D,09,00,00,00,
0,0000031C,false,Rx,0,8,01,90,01,90,00,00,00,00,
0,0000031D,false,Rx,0,8,86,00,00,00,00,00,02,00,
0,0000031E,false,Rx,0,8,00,00,00,00,00,00,00,00,
0,0000031F,false,Rx,0,8,01,F4,01,F4,01,F4,00,00,
0,00000324,false,Rx,0,8,00,00,00,00,05,14,01,9D,
0,00000355,false,Rx,0,8,00,00,00,00,28,28,40,00,
0,00000357,false,Rx,0,8,00,00,01,F4,00,FF,01,2C,
0,000003D0,false,Rx,0,8,00,FF,FE,FF,FE,08,00,00,
0,000003D3,false,Rx,0,6,28,28,28,4C,00,00,00,00,
0,000003D4,false,Rx,0,8,10,76,C1,AF,00,00,00,00,
0,000000B4,false,Rx,0,7,00,00,00,00,00,70,AF,00,
0,000000F0,false,Rx,0,8,00,00,10,00,80,00,70,7D,
0,000000F2,false,Rx,0,8,00,00,00,00,00,00,70,53,
0,00000108,false,Rx,0,8,00,00,00,3D,09,00,70,F0,
0,00000160,false,Rx,0,8,00,00,00,46,0F,FF,40,23,
0,00000175,false,Rx,0,8,00,00,00,2E,00,00,70,EC,
0,000001D7,false,Rx,0,8,00,00,00,00,00,00,70,53,
0,000001D8,false,Rx,0,8,00,00,00,00,E0,00,40,89,
0,00000212,false,Rx,0,8,00,00,00,00,00,00,47,4A,
0,000000F4,false,Rx,0,8,80,00,00,46,45,00,31,E8,
0,000000F5,false,Rx,0,8,00,04,40,00,10,00,30,C2,
0,000000F6,false,Rx,0,8,1C,F8,03,08,00,1C,30,65,
0,000000F7,false,Rx,0,8,40,00,00,06,80,00,31,2A,
0,0000015A,false,Rx,0,4,00,00,08,19,00,00,00,00,
0,000000B4,false,Rx,0,7,00,00,00,00,00,80,D0,00,
0,000000F0,false,Rx,0,8,00,00,10,00,80,00,80,02,
0,000000F2,false,Rx,0,8,00,00,00,00,00,00,80,2C,
0,00000108,false,Rx,0,8,00,00,00,3D,09,00,80,8F,
0,00000175,false,Rx,0,8,00,00,00,2E,00,00,80,93,
0,000001D7,false,Rx,0,8,00,00,00,00,00,00,80,2C,
0,00000166,false,Rx,0,8,00,00,0A,30,9B,57,A0,98,
0,000000F4,false,Rx,0,8,80,00,00,45,45,00,41,0B,
0,000000F5,false,Rx,0,8,00,04,40,00,10,00,40,9B,
0,000000F6,false,Rx,0,8,1C,F8,03,08,00,1F,40,E8,
0,000000F7,false,Rx,0,8,40,00,00,06,80,00,41,73,
0,00000104,false,Rx,0,8,FF,FF,00,61,00,00,A0,14,
0,00000164,false,Rx,0,8,10,00,15,90,09,A9,A0,1A,
0,00000284,false,Rx,0,8,51,28,28,00,00,00,00,00,
0,000003EC,false,Rx,0,8,03,FF,03,FF,03,FF,00,31,
0,00000095,false,Rx,0,8,3A,98,0A,8B,09,0B,00,B7,
0,000000E0,false,Rx,0,8,00,00,00,00,00,00,00,00,
0,00000107,false,Rx,0,8,00,00,00,00,00,00,00,00,
0,0000015A,false,Rx,0,4,00,00,09,04,00,00,00,00,
0,00000150,false,Rx,0,8,00,00,00,00,00,00,00,0A,
0,00000151,false,Rx,0,8,00,00,00,00,00,00,00,00,
0,000001D0,false,Rx,0,8,FF,08,F0,F0,10,00,00,B0,
0,00000220,false,Rx,0,8,10,0E,10,11,10,0C,00,00,
0,00000281,false,Rx,0,8,1F,FF,1F,FF,1F,FF,00,00,
0,00000285,false,Rx,0,8,1F,FF,1F,FF,1F,FF,00,00,
0,000002C6,false,Rx,0,8,00,00,00,00,00,00,50,00,
0,00000306,false,Rx,0,8,00,00,E7,F7,00,00,80,00,
0,00000307,false,Rx,0,8,41,42,00,C0,27,00,27,00,
0,00000354,false,Rx,0,8,00,00,5F,0A,10,68,08,FC,
0,00000356,false,Rx,0,8,00,00,00,00,00,00,0A,BE,
0,00000358,false,Rx,0,8,01,00,00,00,00,00,00,57,
0,00000359,false,Rx,0,8,00,00,0C,A3,01,45,00,00,
0,000003E8,false,Rx,0,8,00,00,00,00,00,00,00,00,
0,000003EA,false,Rx,0,8,FF,FF,FF,FF,FF,00,00,B1,
0,00000106,false,Rx,0,8,00,4E,20,00,00,00,00,00,
0,000003EB,false,Rx,0,8,FE,FF,FF,00,FF,00,00,4A,
0,000003ED,false,Rx,0,8,FF,FF,78,FF,FF,3F,00,FB,
0,000000B4,false,Rx,0,7,00,00,00,00,00,90,1D,00,
0,000000F0,false,Rx,0,8,00,00,10,00,80,00,90,CF,
0,000000F2,false,Rx,0,8,00,00,00,00,00,00,90,E1,
0,00000108,false,Rx,0,8,00,00,00,3D,09,00,90,42,
0,00000160,false,Rx,0,8,00,00,00,46,0F,FF,50,EE,
0,00000175,false,Rx,0,8,00,00,00,2E,00,00,90,5E,
0,000001D7,false,Rx,0,8,00,00,00,00,00,00,90,E1,
0,000001D8,false,Rx,0,8,00,00,00,00,E0,00,50,44,
0,00000212,false,Rx,0,8,00,00,00,00,00,00,57,87,
0,000000F4,false,Rx,0,8,80,00,00,46,45,00,51,7C,
0,000000F5,false,Rx,0,8,00,04,40,00,10,00,50,56,
0,000000F6,false,Rx,0,8,1C,F8,03,08,00,1F,50,25,
0,000000F7,false,Rx,0,8,40,00,00,06,80,00,51,BE,
0,00000107,false,Rx,0,8,00,00,00,00,00,00,00,00,
0,00000095,false,Rx,0,8,3A,98,0A,8B,09,0B,10,7A,
0,00000150,false,Rx,0,8,00,00,00,00,00,00,10,C7,
0,0000015A,false,Rx,0,4,00,00,0A,23,00,00,00,00,
0,000000B4,false,Rx,0,7,00,00,00,00,00,A0,57,00,
0,000000F0,false,Rx,0,8,00,00,10,00,80,00,A0,85,
0,000000F2,false,Rx,0,8,00,00,00,00,00,00,A0,AB,
0,00000108,false,Rx,0,8,38,71,38,3D,09,00,A0,7E,
0,00000175,false,Rx,0,8,00,00,00,2E,00,00,A0,14,
0,000001D7,false,Rx,0,8,00,00,00,00,00,00,A0,AB,
0,00000166,false,Rx,0,8,00,00,0B,31,9B,57,B0,A2,
0,000000F4,false,Rx,0,8,80,00,00,46,45,00,61,36,
0,000000F5,false,Rx,0,8,00,04,40,00,10,00,60,1C,
0,000000F6,false,Rx,0,8,1C,F8,03,08,00,22,60,95,
0,000000F7,false,Rx,0,8,40,00,00,06,80,00,61,F4,
0,00000104,false,Rx,0,8,FF,FF,00,60,00,00,B0,44,
0,00000107,false,Rx,0,8,00,00,00,00,00,00,00,00,
0,00000164,false,Rx,0,8,10,00,15,01,0A,4D,B0,AD,
0,00000095,false,Rx,0,8,3A,98,0A,8B,09,0B,20,30,
0,000000E0,false,Rx,0,8,00,00,00,00,00,00,00,00,
0,00000150,false,Rx,0,8,00,00,00,00,00,00,20,8D,
0,000001D0,false,Rx,0,8,FF,08,F0,F0,10,00,10,7D,
0,0000015A,false,Rx,0,4,00,00,0B,3E,00,00,00,00,
0,00000220,false,Rx,0,8,10,0E,10,11,10,0C,00,00,
0,00000235,false,Rx,0,8,02,2D,00,01,07,CA,05,D3,
0,000000B4,false,Rx,0,7,00,00,00,00,00,B0,9A,00,
0,000000F0,false,Rx,0,8,00,00,10,00,80,00,B0,48,
0,000000F2,false,Rx,0,8,00,00,00,00,00,00,B0,66,
0,00000108,false,Rx,0,8,38,71,38,3D,09,00,B0,B3,
0,00000160,false,Rx,0,8,00,00,00,46,0F,FF,60,A4,
0,00000175,false,Rx,0,8,00,00,00,2E,00,00,B0,D9,
0,000001D7,false,Rx,0,8,00,00,00,00,00,00,B0,66,
0,000001D8,false,Rx,0,8,00,00,00,00,E0,00,60,0E,
0,00000212,false,Rx,0,8,00,00,00,00,00,00,67,CD,
0,00000234,false,Rx,0,8,C2,84,01,4B,00,0E,01,63,
0,00000282,false,Rx,0,8,00,00,00,05,00,00,00,FF,
0,000000F4,false,Rx,0,8,80,00,00,46,45,00,71,FB,
0,000000F5,false,Rx,0,8,00,04,40,00,10,00,70,D1,
0,000000F6,false,Rx,0,8,1C,F8,03,08,00,22,70,58,
0,000000F7,false,Rx,0,8,40,00,00,06,80,00,71,39,
0,00000107,false,Rx,0,8,00,00,00,00,00,00,00,00,
0,00000240,false,Rx,0,8,00,00,00,00,00,00,0F,FF,
0,00000095,false,Rx,0,8,3A,98,0A,8B,09,0B,30,FD,
0,00000242,false,Rx,0,8,DD,00,00,00,00,00,00,00,
0,00000150,false,Rx,0,8,00,00,00,00,00,00,30,40,
0,00000280,false,Rx,0,8,00,00,00,00,00,00,00,00,
0,0000015A,false,Rx,0,4,00,00,0C,6D,00,00,00,00,
0,000002A4,false,Rx,0,8,00,0A,00,00,F5,0A,00,00,
0,000002A5,false,Rx,0,6,00,00,01,40,00,00,00,00,
0,000002D0,false,Rx,0,8,FF,FF,FF,7F,FF,FF,00,00,
0,000002D2,false,Rx,0,8,FF,FF,FF,FF,FF,FF,00,00,
0,00000301,false,Rx,0,8,00,00,00,00,00,00,20,8D,
0,00000320,false,Rx,0,8,5E,9A,C0,3D,A0,0F,01,A0,
0,00000321,false,Rx,0,8,6A,CF,C0,03,1B,01,7F,00,
0,00000322,false,Rx,0,8,00,00,01,F5,01,00,00,00,
0,00000323,false,Rx,0,8,00,00,00,00,00,00,00,00,
0,000003E0,false,Rx,0,8,03,00,00,00,00,00,00,00,
0,000003E7,false,Rx,0,8,00,00,00,00,00,00,00,00,
0,000003EE,false,Rx,0,8,00,00,28,00,00,00,00,40,
0,000000B4,false,Rx,0,7,00,00,00,00,00,C0,C3,00,
0,000000F0,false,Rx,0,8,00,00,10,00,80,00,C0,11,
0,000000F2,false,Rx,0,8,00,00,00,00,00,00,C0,3F,
0,00000108,false,Rx,0,8,38,71,38,3D,09,00,C0,EA,
0,00000175,false,Rx,0,8,00,00,00,2E,00,00,C0,80,
0,000001D7,false,Rx,0,8,00,00,00,00,00,00,C0,3F,
0,00000166,false,Rx,0,8,00,00,0C,31,9B,57,C0,F0,
0,000000F4,false,Rx,0,8,80,00,00,46,45,00,81,84,
0,000000F5,false,Rx,0,8,00,04,40,00,10,00,80,AE,
0,000000F6,false,Rx,0,8,1C,F8,03,08,00,25,80,DE,
0,000000F7,false,Rx,0,8,40,00,00,06,80,00,81,46,
0,00000104,false,Rx,0,8,FF,FF,00,2A,00,00,C0,32,
0,00000107,false,Rx,0,8,00,00,00,00,00,00,00,00,
0,00000164,false,Rx,0,8,10,00,14,79,0A,CB,C0,85,
0,00000095,false,Rx,0,8,3A,98,0A,8B,09,0B,40,A4,
0,000000E0,false,Rx,0,8,00,00,00,00,00,00,00,00,
0,00000150,false,Rx,0,8,00,00,00,00,00,00,40,19,
0,000001D0,false,Rx,0,8,FF,08,F0,F0,10,00,20,37,
0,0000015A,false,Rx,0,4,00,00,0D,70,00,00,00,00,
0,00000220,false,Rx,0,8,10,0E,10,11,10,0C,00,00,
0,00000106,false,Rx,0,8,00,4E,20,00,00,00,00,00,
0,000000B4,false,Rx,0,7,00,00,00,00,00,D0,0E,00,
0,000000F0,false,Rx,0,8,00,00,10,00,80,00,D0,DC,
0,000000F2,false,Rx,0,8,00,00,00,00,00,00,D0,F2,
0,00000108,false,Rx,0,8,38,71,38,3D,09,00,D0,27,
0,00000160,false,Rx,0,8,00,00,00,46,0F,FF,70,69,
0,00000175,false,Rx,0,8,00,00,00,2E,00,00,D0,4D,
0,000001D7,false,Rx,0,8,00,00,00,00,00,00,D0,F2,
0,000001D8,false,Rx,0,8,00,00,00,00,E0,00,70,C3,
0,00000212,false,Rx,0,8,00,00,00,00,00,00,77,00,
0,000000F4,false,Rx,0,8,80,00,00,46,45,00,91,49,
0,000000F5,false,Rx,0,8,00,04,40,00,10,00,90,63,
0,000000F6,false,Rx,0,8,1C,F8,03,08,00,25,90,13,
0,000000F7,false,Rx,0,8,40,00,00,05,80,00,91,31,
0,00000107,false,Rx,0,8,00,00,00,00,00,00,00,00,
0,00000095,false,Rx,0,8,3A,98,0A,8B,09,0B,50,69,
0,00000150,false,Rx,0,8,00,00,00,00,00,00,50,D4,
0,0000015A,false,Rx,0,4,00,00,0E,57,00,00,00,00,
0,000000B4,false,Rx,0,7,00,00,00,00,00,E0,44,00,
0,000000F0,false,Rx,0,8,00,00,10,00,80,00,E0,96,
0,000000F2,false,Rx,0,8,00,00,00,00,00,00,E0,B8,
0,00000108,false,Rx,0,8,38,71,38,3D,09,00,E0,6D,
0,00000175,false,Rx,0,8,00,00,00,2E,00,00,E0,07,
0,000001D7,false,Rx,0,8,00,00,00,00,00,00,E0,B8,
0,00000166,false,Rx,0,8,00,00,0D,32,9B,57,D0,ED,
0,000000F4,false,Rx,0,8,80,00,00,46,45,00,A1,03,
0,000000F5,false,Rx,0,8,00,04,40,00,10,00,A0,29,
0,000000F6,false,Rx,0,8,1C,F8,03,08,00,28,A0,62,
0,000000F7,false,Rx,0,8,40,00,00,05,80,00,A1,7B,
0,00000104,false,Rx,0,8,FF,FF,00,2B,00,00,D0,62,
0,00000107,false,Rx,0,8,00,00,00,00,00,00,00,00,
0,00000164,false,Rx,0,8,10,00,14,16,0B,34,D0,30,
0,00000095,false,Rx,0,8,3A,98,0A,8B,09,0B,60,23,
0,000000E0,false,Rx,0,8,00,00,00,00,00,00,00,00,
0,00000150,false,Rx,0,8,00,00,00,00,00,00,60,9E,
0,000001D0,false,Rx,0,8,FF,08,F0,F0,10,00,30,FA,
0,0000015A,false,Rx,0,4,00,00,0F,4A,00,00,00,00,
0,00000220,false,Rx,0,8,10,0E,10,11,10,0C,00,00,
0,00000106,false,Rx,0,8,00,4E,20,00,00,00,00,00,
0,000000B4,false,Rx,0,7,00,00,00,00,00,F0,89,00,
0,000000F0,false,Rx,0,8,00,00,10,00,80,00,F0,5B,
0,000000F2,false,Rx,0,8,00,00,00,00,00,00,F0,75,
0,00000108,false,Rx,0,8,38,71,38,3D,09,00,F0,A0,
0,00000160,false,Rx,0,8,00,00,00,46,0F,FF,80,16,
0,00000175,false,Rx,0,8,00,00,00,2E,00,00,F0,CA,
0,000001D7,false,Rx,0,8,00,00,00,00,00,00,F0,75,
0,000001D8,false,Rx,0,8,00,00,00,00,E0,00,83,9B,
0,00000212,false,Rx,0,8,00,00,00,00,00,00,87,7F,
0,000000F4,false,Rx,0,8,80,00,00,46,45,00,B1,CE,
0,000000F5,false,Rx,0,8,00,04,40,00,10,00,B0,E4,
0,000000F6,false,Rx,0,8,1C,F8,03,08,00,28,B0,AF,
0,000000F7,false,Rx,0,8,40,00,00,05,80,00,B1,B6,
0,00000107,false,Rx,0,8,00,00,00,00,00,00,00,00,
0,00000095,false,Rx,0,8,3A,98,0A,8B,09,0B,70,EE,
0,00000150,false,Rx,0,8,00,00,00,00,00,00,70,53,
0,0000015A,false,Rx,0,4,00,00,00,F1,00,00,00,00,
0,00000235,false,Rx,0,8,07,C3,00,01,07,CA,05,D3,
0,0000031A,false,Rx,0,8,3D,09,00,3D,09,00,00,00,
0,000000B4,false,Rx,0,7,00,00,00,00,00,00,F6,00,
0,000000F0,false,Rx,0,8,00,00,10,00,80,00,00,24,
0,000000F2,false,Rx,0,8,00,00,00,00,00,00,00,0A,
0,00000108,false,Rx,0,8,38,71,38,3D,09,00,00,DF,
0,0000015A,false,Rx,0,4,00,00,01,EC,00,00,00,00,
0,000001D7,false,Rx,0,8,00,00,00,00,00,00,00,0A,
0,00000175,false,Rx,0,8,00,00,00,2E,00,00,00,B5,
0,00000309,false,Rx,0,8,00,00,00,00,00,00,00,20,
0,00000234,false,Rx,0,8,C3,84,01,4B,00,0E,01,63,
0,00000115,false,Rx,0,8,00,00,00,00,41,41,01,35,
0,000000F4,false,Rx,0,8,80,00,00,46,45,00,C1,97,
0,000000F5,false,Rx,0,8,00,04,40,00,10,00,C0,BD,
0,000000F6,false,Rx,0,8,1C,F8,03,08,00,2A,C0,6E,
0,000000F7,false,Rx,0,8,40,00,00,05,80,00,C1,EF,
0,00000104,false,Rx,0,8,FF,FF,00,2A,00,00,E0,B5,
0,00000107,false,Rx,0,8,00,00,00,00,00,00,00,00,
0,00000164,false,Rx,0,8,10,00,13,BC,0B,8B,E0,1E,
0,00000095,false,Rx,0,8,3A,98,0A,8B,09,0B,80,91,
0,00000166,false,Rx,0,8,00,00,0E,32,9B,57,E0,19,
0,000000E0,false,Rx,0,8,00,00,00,00,00,00,00,00,
0,00000240,false,Rx,0,8,00,00,00,00,00,00,0F,FF,
0,00000150,false,Rx,0,8,00,00,00,00,00,00,80,2C,
0,0000015A,false,Rx,0,4,00,00,02,CB,00,00,00,00,
0,000001D0,false,Rx,0,8,FF,08,F0,F0,10,00,40,A3,
0,00000242,false,Rx,0,8,DD,00,00,00,00,00,00,00,
0,00000220,false,Rx,0,8,10,0E,10,11,10,0C,00,00,
0,00000308,false,Rx,0,8,00,00,00,00,08,00,39,F4,
0,0000031B,false,Rx,0,8,3D,09,00,3D,09,00,00,00,
0,0000031C,false,Rx,0,8,01,90,01,90,00,00,00,00,
0,0000031D,false,Rx,0,8,86,00,00,00,00,00,02,00,
0,0000031E,false,Rx,0,8,00,00,00,00,00,00,00,00,
0,0000031F,false,Rx,0,8,01,F4,01,F4,01,F4,00,00,
0,00000324,false,Rx,0,8,00,00,00,00,05,14,01,9D,
0,00000357,false,Rx,0,8,00,00,02,17,01,63,01,2C,
0,000000B4,false,Rx,0,7,00,00,00,00,00,10,3B,00,
0,000000F0,false,Rx,0,8,00,00,10,00,80,00,10,E9,
0,000000F2,false,Rx,0,8,00,00,00,00,00,00,10,C7,
0,00000108,false,Rx,0,8,38,71,38,3D,09,00,10,12,
0,00000160,false,Rx,0,8,00,00,00,46,0F,FF,90,DB,
0,00000175,false,Rx,0,8,00,00,00,2E,00,00,10,78,
0,000001D7,false,Rx,0,8,00,00,00,00,00,00,10,C7,
0,000001D8,false,Rx,0,8,00,00,00,00,E0,00,93,56,
0,00000212,false,Rx,0,8,00,00,00,00,00,00,97,B2,
0,00000107,false,Rx,0,8,00,00,00,00,00,00,00,00,
0,000000F4,false,Rx,0,8,80,00,00,46,45,00,D1,5A,
0,00000095,false,Rx,0,8,3A,98,0A,8B,09,0B,90,5C,
0,000000F5,false,Rx,0,8,00,04,40,00,10,00,D0,70,
0,000000F6,false,Rx,0,8,1C,F8,03,08,00,2A,D0,A3,
0,000000F7,false,Rx,0,8,40,00,00,05,80,00,D1,22,
0,00000150,false,Rx,0,8,00,00,00,00,00,00,90,E1,
0,0000015A,false,Rx,0,4,00,00,03,D6,00,00,00,00,
0,00000106,false,Rx,0,8,00,4E,20,00,00,00,00,00,
0,000000B4,false,Rx,0,7,00,00,00,00,00,20,71,00,
0,000000F0,false,Rx,0,8,00,00,10,00,80,00,20,A3,
0,000000F2,false,Rx,0,8,00,00,00,00,00,00,20,8D,
0,00000108,false,Rx,0,8,38,71,38,3D,09,00,20,58,
0,00000175,false,Rx,0,8,00,00,00,2E,00,00,20,32,
0,000001D7,false,Rx,0,8,00,00,00,00,00,00,20,8D,
0,00000166,false,Rx,0,8,00,00,0F,32,9B,57,F0,BE,
0,000000F4,false,Rx,0,8,80,00,00,46,45,00,E1,10,
0,000000F5,false,Rx,0,8,00,05,40,00,10,00,E0,7C,
0,000000F6,false,Rx,0,8,1C,F8,03,08,00,2D,E0,10,
0,000000F7,false,Rx,0,8,40,12,00,05,80,00,E5,84,
0,00000104,false,Rx,0,8,FF,FF,00,2A,00,00,F0,78,
0,00000164,false,Rx,0,8,10,00,13,6C,0B,E0,F0,46,
0,00000284,false,Rx,0,8,51,28,28,00,00,00,00,00,
0,000003EC,false,Rx,0,8,03,FF,03,FF,03,FF,10,FC,
0,00000095,false,Rx,0,8,3A,98,0A,8B,09,0B,A0,16,
0,000000E0,false,Rx,0,8,00,00,00,00,00,00,00,00,
0,00000107,false,Rx,0,8,00,00,00,00,00,00,00,00,
0,0000015A,false,Rx,0,4,00,00,04,85,00,00,00,00,
0,00000150,false,Rx,0,8,00,00,00,00,00,00,A0,AB,
0,000001D0,false,Rx,0,8,FF,08,F0,F0,10,00,50,6E,
0,00000220,false,Rx,0,8,10,0E,10,11,10,0C,00,00,
0,00000281,false,Rx,0,8,1F,FF,1F,FF,1F,FF,00,00,
0,00000285,false,Rx,0,8,1F,FF,1F,FF,1F,FF,00,00,
0,00000306,false,Rx,0,8,00,00,E7,F7,EE,EC,8E,F5,
0,00000307,false,Rx,0,8,41,42,00,C0,27,00,27,00,
0,000003E8,false,Rx,0,8,00,00,00,00,00,00,00,00,
0,000003EA,false,Rx,0,8,FF,FF,FF,FF,FF,00,10,7C,
0,000003EB,false,Rx,0,8,FE,FF,FF,00,FF,00,10,87,
0,000003ED,false,Rx,0,8,FF,FF,78,FF,FF,3F,10,36,
0,000000B4,false,Rx,0,7,00,00,00,00,00,30,BC,00,
0,000000F0,false,Rx,0,8,00,00,10,00,80,00,30,6E,
0,000000F2,false,Rx,0,8,00,00,00,00,00,00,30,40,
0,00000108,false,Rx,0,8,38,71,38,3D,09,00,30,95,
0,00000160,false,Rx,0,8,00,00,00,46,0F,FF,A0,91,
0,00000175,false,Rx,0,8,00,00,00,2E,00,00,30,FF,
0,000001D7,false,Rx,0,8,00,00,00,00,00,00,30,40,
0,000001D8,false,Rx,0,8,00,00,00,00,E0,00,A3,1C,
0,00000212,false,Rx,0,8,00,00,00,00,00,00,A7,F8,
0,000000F4,false,Rx,0,8,80,00,00,46,45,00,F1,DD,
0,000000F5,false,Rx,0,8,00,05,40,00,10,00,F0,B1,
0,000000F6,false,Rx,0,8,1C,F8,03,08,00,2D,F0,DD,
0,000000F7,false,Rx,0,8,40,12,00,05,80,00,F5,49,
0,00000107,false,Rx,0,8,00,00,00,00,00,00,00,00,
0,00000095,false,Rx,0,8,3A,98,0A,8B,09,0B,B0,DB,
0,00000150,false,Rx,0,8,00,00,00,00,00,00,B0,66,
0,0000015A,false,Rx,0,4,00,00,05,98,00,00,00,00,
0,000000B4,false,Rx,0,7,00,00,00,00,00,40,E5,00,
0,000000F0,false,Rx,0,8,00,00,10,00,80,00,40,37,
0,000000F2,false,Rx,0,8,00,00,00,00,00,00,40,19,
0,00000108,false,Rx,0,8,38,71,38,3D,09,00,40,CC,
0,00000175,false,Rx,0,8,00,00,00,2E,00,00,40,A6,
0,000001D7,false,Rx,0,8,00,00,00,00,00,00,40,19,
0,00000166,false,Rx,0,8,00,00,10,32,9B,57,00,53,
0,000000F4,false,Rx,0,8,80,00,00,46,45,00,01,A2,
0,000000F5,false,Rx,0,8,00,04,40,00,10,00,00,88,
0,000000F6,false,Rx,0,8,1C,F8,03,08,00,02,00,74,
0,000000F7,false,Rx,0,8,40,12,00,05,80,00,05,36,
0,00000104,false,Rx,0,8,FF,FF,00,2A,00,00,00,07,
0,00000107,false,Rx,0,8,00,00,00,00,00,00,00,00,
0,00000164,false,Rx,0,8,10,00,13,30,0C,1C,00,45,
0,00000095,false,Rx,0,8,3A,98,0A,8B,09,0B,C0,82,
0,000000E0,false,Rx,0,8,00,00,00,00,00,00,00,00,
0,00000150,false,Rx,0,8,00,00,00,00,00,00,C0,3F,
0,000001D0,false,Rx,0,8,FF,08,F0,F0,10,00,60,24,
0,0000015A,false,Rx,0,4,00,00,06,BF,00,00,00,00,
0,00000220,false,Rx,0,8,10,0E,10,11,10,0C,00,00,
0,00000235,false,Rx,0,8,07,C3,00,01,07,CA,05,D3,
0,00000106,false,Rx,0,8,00,4E,20,00,00,00,00,00,
0,000000B4,false,Rx,0,7,00,00,00,00,00,50,28,00,
0,000000F0,false,Rx,0,8,00,00,10,00,80,00,50,FA,
0,000000F2,false,Rx,0,8,00,00,00,00,00,00,50,D4,
0,00000108,false,Rx,0,8,38,71,38,3D,09,00,50,01,
0,00000160,false,Rx,0,8,00,00,00,46,0F,FF,B0,5C,
0,00000175,false,Rx,0,8,00,00,00,2E,00,00,50,6B,
0,000001D7,false,Rx,0,8,00,00,00,00,00,00,50,D4,
0,000001D8,false,Rx,0,8,00,00,00,00,E0,00,B3,D1,
0,00000212,false,Rx,0,8,00,00,00,00,00,00,B7,35,
0,00000234,false,Rx,0,8,C5,84,01,4B,00,0E,01,63,
0,000000F4,false,Rx,0,8,80,00,00,46,45,00,11,6F,
0,000000F5,false,Rx,0,8,00,04,40,00,10,00,10,45,
0,000000F6,false,Rx,0,8,1C,F8,03,08,00,02,10,B9,
0,000000F7,false,Rx,0,8,40,12,00,05,80,00,15,FB,
0,00000107,false,Rx,0,8,00,00,00,00,00,00,00,00,
0,00000240,false,Rx,0,8,00,00,00,00,00,00,0F,FF,
0,00000095,false,Rx,0,8,3A,98,0A,8B,09,0B,D0,4F,
0,00000242,false,Rx,0,8,DD,00,00,00,00,00,00,00,
0,00000150,false,Rx,0,8,00,00,00,00,00,00,D0,F2,
0,00000280,false,Rx,0,8,00,00,00,00,00,00,00,00,
0,00000282,false,Rx,0,8,00,00,00,05,00,00,00,FF,
0,000002A4,false,Rx,0,8,00,0A,00,00,F5,0A,00,00,
0,0000015A,false,Rx,0,4,00,00,07,A2,00,00,00,00,
0,000002A5,false,Rx,0,6,00,00,01,40,00,00,00,00,
0,000002D0,false,Rx,0,8,FF,FF,FF,7F,FF,FF,00,00,
0,000002D2,false,Rx,0,8,FF,FF,FF,FF,FF,FF,00,00,
0,00000301,false,Rx,0,8,00,00,00,00,00,00,30,40,
0,00000320,false,Rx,0,8,5E,9A,C0,3E,2D,9F,01,A0,
0,00000321,false,Rx,0,8,6A,CF,C0,03,1B,01,7F,00,
0,00000322,false,Rx,0,8,00,00,01,F5,01,00,00,00,
0,00000323,false,Rx,0,8,00,00,25,00,00,00,00,00,
0,000003E0,false,Rx,0,8,03,00,00,00,00,00,00,00,
0,000003E7,false,Rx,0,8,00,00,00,00,00,00,00,00,
0,000003EE,false,Rx,0,8,00,00,28,00,00,00,00,40,
0,000000B4,false,Rx,0,7,00,00,00,00,00,60,62,00,
0,000000F0,false,Rx,0,8,00,00,10,00,80,00,60,B0,
0,000000F2,false,Rx,0,8,00,00,00,00,00,00,60,9E,
0,00000108,false,Rx,0,8,38,71,38,3D,09,00,60,4B,
0,00000175,false,Rx,0,8,00,00,00,2E,00,00,60,21,
0,000001D7,false,Rx,0,8,00,00,00,00,00,00,60,9E,
0,00000166,false,Rx,0,8,00,00,01,32,9B,57,10,1A,
0,000000F4,false,Rx,0,8,80,00,00,46,45,00,21,25,
0,000000F5,false,Rx,0,8,00,04,40,00,10,00,20,0F,
0,000000F6,false,Rx,0,8,1C,F8,03,08,00,05,20,0A,
0,000000F7,false,Rx,0,8,40,12,00,05,80,00,25,B1,
0,00000104,false,Rx,0,8,FF,FF,00,2C,00,00,10,A3,
0,00000107,false,Rx,0,8,00,00,00,00,00,00,00,00,
0,00000164,false,Rx,0,8,10,00,1C,FC,03,03,10,16,
0,00000095,false,Rx,0,8,3A,98,0A,8B,09,0B,E0,05,
0,000000E0,false,Rx,0,8,00,00,00,00,00,00,00,00,
0,00000150,false,Rx,0,8,00,00,00,00,00,00,E0,B8,
0,000001D0,false,Rx,0,8,FF,08,F0,F0,10,00,70,E9,
0,0000015A,false,Rx,0,4,00,00,08,19,00,00,00,00,
0,00000220,false,Rx,0,8,10,0E,10,11,10,0C,00,00,
0,000000B4,false,Rx,0,7,00,00,00,00,00,70,AF,00,
0,000000F0,false,Rx,0,8,00,00,10,00,80,00,70,7D,
0,000000F2,false,Rx,0,8,00,00,00,00,00,00,70,53,
0,00000108,false,Rx,0,8,38,71,38,3D,09,00,70,86,
0,00000160,false,Rx,0,8,00,00,00,46,0F,FF,C0,05,
0,00000175,false,Rx,0,8,00,00,00,2E,00,00,70,EC,
0,000001D7,false,Rx,0,8,00,00,00,00,00,00,70,53,
0,000001D8,false,Rx,0,8,00,00,00,00,E0,04,C3,A5,
0,00000212,false,Rx,0,8,00,00,00,00,00,00,C7,6C,
0,000000F4,false,Rx,0,8,80,00,00,46,45,00,31,E8,
0,000000F5,false,Rx,0,8,00,05,40,00,10,00,30,84,
0,000000F6,false,Rx,0,8,1C,F8,03,08,00,05,30,C7,
0,000000F7,false,Rx,0,8,40,12,00,05,80,00,35,7C,
0,00000107,false,Rx,0,8,00,00,00,00,00,00,00,00,
0,00000095,false,Rx,0,8,3A,98,0A,8B,09,0B,F0,C8,
0,00000150,false,Rx,0,8,00,00,00,00,00,00,F0,75,
0,0000015A,false,Rx,0,4,00,00,09,04,00,00,00,00,
0,00000106,false,Rx,0,8,00,4E,20,00,00,00,00,00,
0,000000B4,false,Rx,0,7,00,00,00,00,00,80,D0,00,
0,000000F0,false,Rx,0,8,00,00,10,00,80,00,80,02,
0,000000F2,false,Rx,0,8,00,00,00,00,00,00,80,2C,
0,00000108,false,Rx,0,8,38,71,38,3D,09,00,80,F9,
0,00000175,false,Rx,0,8,00,00,00,2E,00,00,80,93,
0,000001D7,false,Rx,0,8,00,00,00,00,00,00,80,2C,
0,00000166,false,Rx,0,8,00,00,02,32,9B,57,20,EE,
0,000000F4,false,Rx,0,8,80,00,00,46,45,00,41,B1,
0,000000F5,false,Rx,0,8,00,05,40,00,10,00,40,DD,
0,000000F6,false,Rx,0,8,1C,F8,03,08,00,08,40,A5,
0,000000F7,false,Rx,0,8,40,12,00,05,80,00,45,25,
0,00000104,false,Rx,0,8,FF,FF,00,2D,00,00,20,74,
0,00000107,false,Rx,0,8,00,00,00,00,00,00,00,00,
0,00000164,false,Rx,0,8,10,00,1C,FB,03,04,20,51,
0,00000095,false,Rx,0,8,3A,98,0A,8B,09,0B,00,B7,
0,000000E0,false,Rx,0,8,00,00,00,00,00,00,00,00,
0,00000150,false,Rx,0,8,00,00,00,00,00,00,00,0A,
0,000001D0,false,Rx,0,8,FF,08,F0,F0,10,00,80,96,
0,0000015A,false,Rx,0,4,00,00,0A,23,00,00,00,00,
0,00000220,false,Rx,0,8,10,0E,10,11,10,0C,00,00,
0,0000063F,false,Rx,0,8,07,59,0E,FF,2D,3A,00,2F,
0,000000B4,false,Rx,0,7,00,00,00,00,00,90,1D,00,
0,000000F0,false,Rx,0,8,00,00,10,00,80,00,90,CF,
0,000000F2,false,Rx,0,8,00,00,00,00,00,00,90,E1,
0,00000108,false,Rx,0,8,38,71,38,3D,09,00,90,34,
0,00000160,false,Rx,0,8,00,00,00,46,0F,FF,D0,C8,
0,00000175,false,Rx,0,8,00,00,00,2E,00,00,90,5E,
0,000001D7,false,Rx,0,8,00,00,00,00,00,00,90,E1,
0,000001D8,false,Rx,0,8,00,00,00,00,E0,04,D3,68,
0,00000212,false,Rx,0,8,00,00,00,00,00,00,D7,A1,
0,000000F4,false,Rx,0,8,80,00,00,46,45,00,51,7C,
0,000000F5,false,Rx,0,8,00,05,40,00,10,00,50,10,
0,000000F6,false,Rx,0,8,1C,F8,03,08,00,08,50,68,
0,000000F7,false,Rx,0,8,40,12,00,05,80,00,55,E8,
0,00000107,false,Rx,0,8,00,00,00,00,00,00,00,00,
0,00000095,false,Rx,0,8,3A,98,0A,8B,09,0B,10,7A,
0,00000150,false,Rx,0,8,00,00,00,00,00,00,10,C7,
0,0000015A,false,Rx,0,4,00,00,0B,3E,00,00,00,00,
0,00000235,false,Rx,0,8,09,32,00,2C,07,CA,05,D3,
0,00000357,false,Rx,0,8,00,00,02,17,01,63,01,2C,
0,0000031A,false,Rx,0,8,3D,09,00,3D,09,00,00,00,
0,000000B4,false,Rx,0,7,00,00,00,00,00,A0,57,00,
0,000000F0,false,Rx,0,8,00,00,10,00,80,00,A0,85,
0,000000F2,false,Rx,0,8,00,00,00,00,00,00,A0,AB,
0,00000108,false,Rx,0,8,38,71,38,3D,09,00,A0,7E,
0,00000175,false,Rx,0,8,00,00,00,2E,00,00,A0,14,
0,000001D7,false,Rx,0,8,00,00,00,00,00,00,A0,AB,
0,00000234,false,Rx,0,8,C6,84,01,4B,00,0E,01,63,
0,0000031B,false,Rx,0,8,3D,09,00,3D,09,00,00,00,
0,00000240,false,Rx,0,8,00,00,00,00,00,00,0F,FF,
0,00000115,false,Rx,0,8,00,00,00,00,42,42,02,31,
0,000000F4,false,Rx,0,8,80,00,00,46,45,00,61,36,
0,000000F5,false,Rx,0,8,00,05,40,00,10,00,60,5A,
0,000000F6,false,Rx,0,8,1C,F8,03,08,00,0B,60,F6,
0,000000F7,false,Rx,0,8,40,12,00,05,80,00,65,A2,
0,00000104,false,Rx,0,8,FF,FF,00,2C,00,00,30,24,
0,00000107,false,Rx,0,8,00,00,00,00,00,00,00,00,
0,00000164,false,Rx,0,8,10,00,1C,FA,03,05,30,4D,
0,00000095,false,Rx,0,8,3A,98,0A,8B,09,0B,20,30,
0,00000166,false,Rx,0,8,00,00,03,32,9B,57,30,49,
0,000000E0,false,Rx,0,8,00,00,00,00,00,00,00,00,
0,00000242,false,Rx,0,8,DD,00,00,00,00,00,00,00,
0,00000150,false,Rx,0,8,00,00,00,00,00,00,20,8D,
0,0000015A,false,Rx,0,4,00,00,0C,6D,00,00,00,00,
0,000001D0,false,Rx,0,8,FF,08,F0,F0,10,00,90,5B,
0,00000308,false,Rx,0,8,00,00,00,00,08,00,39,F4,
0,00000220,false,Rx,0,8,10,0E,10,11,10,0C,00,00,
0,00000309,false,Rx,0,8,00,00,00,00,00,00,00,20,
0,0000031C,false,Rx,0,8,01,90,01,90,00,00,00,00,
0,0000031D,false,Rx,0,8,86,00,00,00,00,00,02,00,
0,0000031E,false,Rx,0,8,00,00,00,00,00,00,00,00,
0,0000031F,false,Rx,0,8,01,F4,01,F4,01,F4,00,00,
0,00000324,false,Rx,0,8,00,00,00,00,05,14,01,9D,
0,000000B4,false,Rx,0,7,00,00,00,00,00,B0,9A,00,
0,000000F0,false,Rx,0,8,00,00,10,00,80,00,B0,48,
0,000000F2,false,Rx,0,8,00,00,00,00,00,00,B0,66,
0,00000108,false,Rx,0,8,38,71,38,3D,09,00,B0,B3,
0,00000160,false,Rx,0,8,00,00,00,46,0F,FF,E0,82,
0,00000175,false,Rx,0,8,00,00,00,2E,00,00,B0,D9,
0,000001D7,false,Rx,0,8,00,00,00,00,00,00,B0,66,
0,000001D8,false,Rx,0,8,00,00,00,00,E0,05,E3,6E,
0,00000212,false,Rx,0,8,00,00,00,00,00,00,E7,EB,
0,00000107,false,Rx,0,8,00,00,00,00,00,00,00,00,
0,000000F4,false,Rx,0,8,80,00,00,46,45,00,71,FB,
0,00000095,false,Rx,0,8,3A,98,0A,8B,09,0B,30,FD,
0,000000F5,false,Rx,0,8,00,05,40,00,10,00,70,97,
0,000000F6,false,Rx,0,8,1C,F8,03,08,00,0B,70,3B,
0,000000F7,false,Rx,0,8,40,12,00,05,80,00,75,6F,
0,00000150,false,Rx,0,8,00,00,00,00,00,00,30,40,
0,0000015A,false,Rx,0,4,00,00,0D,70,00,00,00,00,
0,00000106,false,Rx,0,8,00,4E,20,00,00,00,00,00,
0,000000B4,false,Rx,0,7,00,00,00,00,00,C0,C3,00,
0,000000F0,false,Rx,0,8,00,00,10,00,80,00,C0,11,
0,000000F2,false,Rx,0,8,00,00,00,00,00,00,C0,3F,
0,00000108,false,Rx,0,8,38,71,38,3D,09,00,C0,EA,
0,00000175,false,Rx,0,8,00,00,00,2E,00,00,C0,80,
0,000001D7,false,Rx,0,8,00,00,00,00,00,00,C0,3F,
0,00000166,false,Rx,0,8,00,00,04,32,9B,57,40,1B,
0,000000F4,false,Rx,0,8,80,00,00,46,45,00,81,84,
0,000000F5,false,Rx,0,8,00,05,40,00,10,00,80,E8,
0,000000F6,false,Rx,0,8,1C,F8,03,08,00,0E,80,25,
0,000000F7,false,Rx,0,8,40,12,00,05,80,00,85,10,
0,00000104,false,Rx,0,8,FF,FF,00,2B,00,00,40,89,
0,00000164,false,Rx,0,8,10,00,1C,F9,03,06,40,7A,
0,00000284,false,Rx,0,8,51,28,28,00,00,00,00,00,
0,000003EC,false,Rx,0,8,03,FF,03,FF,03,FF,20,B6,
0,00000095,false,Rx,0,8,3A,98,0A,8B,09,0B,40,A4,
0,000000E0,false,Rx,0,8,00,00,00,00,00,00,00,00,
0,00000107,false,Rx,0,8,00,00,00,00,00,00,00,00,
0,0000015A,false,Rx,0,4,00,00,0E,57,00,00,00,00,
0,00000150,false,Rx,0,8,00,00,00,00,00,00,40,19,
0,000001D0,false,Rx,0,8,FF,08,F0,F0,10,00,A0,11,
0,00000220,false,Rx,0,8,10,0E,10,11,10,0C,00,00,
0,00000281,false,Rx,0,8,1F,FF,1F,FF,1F,FF,00,00,
0,00000285,false,Rx,0,8,1F,FF,1F,FF,1F,FF,00,00,
0,00000306,false,Rx,0,8,00,00,E7,F7,EE,EC,8E,F5,
0,00000307,false,Rx,0,8,41,42,00,C0,27,00,27,00,
0,000003E8,false,Rx,0,8,00,00,00,00,00,00,00,00,
0,000003EA,false,Rx,0,8,4D,00,00,00,83,00,20,F9,
0,000003EB,false,Rx,0,8,02,00,00,07,FF,00,20,CD,
0,000003ED,false,Rx,0,8,FF,FF,78,FF,FF,3F,20,7C,
0,000000B4,false,Rx,0,7,00,00,00,00,00,D0,0E,00,
0,000000F0,false,Rx,0,8,00,00,10,00,80,00,D0,DC,
0,000000F2,false,Rx,0,8,00,00,00,00,00,00,D0,F2,
0,00000108,false,Rx,0,8,38,71,38,3D,09,00,D0,27,
0,00000160,false,Rx,0,8,00,00,00,46,0F,FF,F0,4F,
0,00000175,false,Rx,0,8,00,00,00,2E,00,00,D0,4D,
0,000001D7,false,Rx,0,8,00,00,00,00,00,00,D0,F2,
0,000001D8,false,Rx,0,8,00,00,00,00,E0,05,F3,A3,
0,00000212,false,Rx,0,8,00,00,00,00,00,00,F7,26,
0,000000F4,false,Rx,0,8,80,00,00,46,45,00,91,49,
0,000000F5,false,Rx,0,8,00,05,40,00,10,00,90,25,
0,000000F6,false,Rx,0,8,1C,F8,03,08,00,0E,90,E8,
0,000000F7,false,Rx,0,8,40,12,00,05,80,00,95,DD,
0,00000107,false,Rx,0,8,00,00,00,00,00,00,00,00,
0,00000095,false,Rx,0,8,3A,98,0A,8B,09,0B,50,69,
0,00000150,false,Rx,0,8,00,00,00,00,00,00,50,D4,
0,0000015A,false,Rx,0,4,00,00,0F,4A,00,00,00,00,
0,00000106,false,Rx,0,8,00,4E,20,00,00,00,00,00,
0,000000B4,false,Rx,0,7,00,00,00,00,00,E0,44,00,
0,000000F0,false,Rx,0,8,00,00,10,00,80,00,E0,96,
0,000000F2,false,Rx,0,8,00,00,00,00,00,00,E0,B8,
0,00000108,false,Rx,0,8,38,71,38,3D,09,00,E0,6D,
0,00000175,false,Rx,0,8,00,00,00,2E,00,00,E0,07,
0,000001D7,false,Rx,0,8,00,00,00,00,00,00,E0,B8,
0,00000166,false,Rx,0,8,00,00,05,32,9B,57,50,BC,
0,000000F4,false,Rx,0,8,80,00,00,46,45,00,A1,03,
0,000000F5,false,Rx,0,8,00,05,40,00,10,00,A0,6F,
0,000000F6,false,Rx,0,8,1C,F8,03,08,00,11,A0,B5,
0,000000F7,false,Rx,0,8,40,12,00,05,80,00,A5,97,
0,00000104,false,Rx,0,8,FF,FF,00,2D,00,00,50,2D,
0,00000107,false,Rx,0,8,00,00,00,00,00,00,00,00,
0,00000164,false,Rx,0,8,10,00,1C,B2,03,29,50,D3,
0,00000095,false,Rx,0,8,3A,98,0A,8B,09,0B,60,23,
0,000000E0,false,Rx,0,8,00,00,00,00,00,00,00,00,
0,00000150,false,Rx,0,8,00,00,00,00,00,00,60,9E,
0,000001D0,false,Rx,0,8,FF,08,F0,F0,10,00,B0,DC,
0,0000015A,false,Rx,0,4,00,00,00,F1,00,00,00,00,
0,00000220,false,Rx,0,8,10,0E,10,11,10,0C,00,00,
0,000000B4,false,Rx,0,7,00,00,00,00,00,F0,89,00,
0,000000F0,false,Rx,0,8,00,00,10,00,80,00,F0,5B,
0,000000F2,false,Rx,0,8,00,00,00,00,00,00,F0,75,
0,00000108,false,Rx,0,8,38,71,38,3D,09,00,F0,A0,
0,0000015A,false,Rx,0,4,00,00,01,EC,00,00,00,00,
0,00000160,false,Rx,0,8,00,00,00,46,0F,FF,00,30,
0,00000175,false,Rx,0,8,00,00,00,2E,00,00,F0,CA,
0,000001D7,false,Rx,0,8,00,00,00,00,00,00,F0,75,
0,000001D8,false,Rx,0,8,00,00,00,00,E0,05,03,DC,
0,00000212,false,Rx,0,8,00,00,00,00,00,00,07,59,
0,00000234,false,Rx,0,8,C8,84,01,4B,00,0E,01,63,
0,000000F4,false,Rx,0,8,80,00,00,46,45,00,B1,CE,
0,000000F5,false,Rx,0,8,00,05,40,00,10,00,B0,A2,
0,000000F6,false,Rx,0,8,1C,F8,03,08,00,11,B0,78,
0,000000F7,false,Rx,0,8,40,12,00,05,80,00,B5,5A,
0,00000107,false,Rx,0,8,00,00,00,00,00,00,00,00,
0,00000235,false,Rx,0,8,09,99,00,2E,07,CA,05,D3,
0,00000095,false,Rx,0,8,3A,98,0A,8B,09,0B,70,EE,
0,00000240,false,Rx,0,8,00,00,00,00,00,00,0F,FF,
0,00000150,false,Rx,0,8,00,00,00,00,00,00,70,53,
0,00000242,false,Rx,0,8,DD,00,00,00,00,00,00,00,
0,00000282,false,Rx,0,8,00,00,00,05,00,00,00,FF,
0,00000280,false,Rx,0,8,00,00,00,00,00,00,00,00,
0,000002A0,false,Rx,0,8,00,05,51,C6,00,00,00,00,
0,0000015A,false,Rx,0,4,00,00,02,CB,00,00,00,00,
0,000002A2,false,Rx,0,8,04,00,04,00,06,83,00,00,
0,000002A4,false,Rx,0,8,00,0A,00,00,F5,0A,00,00,
0,00000355,false,Rx,0,8,40,00,00,00,48,48,40,00,
0,000002A5,false,Rx,0,6,00,00,01,40,00,00,00,00,
0,000002D0,false,Rx,0,8,FF,FF,FF,7F,FF,FF,00,00,
0,000002D2,false,Rx,0,8,FF,FF,FF,FF,FF,FF,00,00,
0,00000301,false,Rx,0,8,00,00,00,00,00,00,40,19,
0,00000320,false,Rx,0,8,5E,9A,C0,3E,2D,9F,01,A0,
0,00000321,false,Rx,0,8,6A,CF,C0,03,1B,01,7F,00,
0,00000322,false,Rx,0,8,00,00,01,F5,01,00,00,00,
0,00000323,false,Rx,0,8,00,00,25,00,00,00,00,00,
0,000003E0,false,Rx,0,8,03,00,00,00,00,00,00,00,
0,000003E7,false,Rx,0,8,00,00,00,00,00,00,00,00,
0,000003EE,false,Rx,0,8,00,00,28,00,00,00,00,40,
0,000000B4,false,Rx,0,7,00,00,00,00,00,00,F6,00,
0,000000F0,false,Rx,0,8,00,00,10,00,80,00,00,24,
0,000000F2,false,Rx,0,8,00,00,00,00,00,00,00,0A,
0,00000108,false,Rx,0,8,38,71,38,3D,09,00,00,DF,
0,00000175,false,Rx,0,8,00,00,00,2E,00,00,00,B5,
0,000001D7,false,Rx,0,8,00,00,00,00,00,00,00,0A,
0,00000166,false,Rx,0,8,00,00,06,32,9B,57,60,48,
0,000000F4,false,Rx,0,8,80,00,00,46,45,00,C1,97,
0,000000F5,false,Rx,0,8,00,05,40,00,10,00,C0,FB,
0,000000F6,false,Rx,0,8,1C,F8,03,08,00,14,C0,40,
0,000000F7,false,Rx,0,8,40,12,00,05,80,00,C5,03,
0,00000104,false,Rx,0,8,FF,FF,00,2C,00,00,60,FA,
0,00000107,false,Rx,0,8,00,00,00,00,00,00,00,00,
0,00000164,false,Rx,0,8,10,00,1A,9F,04,16,60,15,
0,00000095,false,Rx,0,8,3A,98,0A,8B,09,0B,80,91,
0,000000E0,false,Rx,0,8,00,00,00,00,00,00,00,00,
0,00000150,false,Rx,0,8,00,00,00,00,00,00,80,2C,
0,000001D0,false,Rx,0,8,FF,08,F0,F0,10,00,C0,85,
0,0000015A,false,Rx,0,4,00,00,03,D6,00,00,00,00,
0,00000220,false,Rx,0,8,10,0E,10,11,10,0C,00,00,
0,00000106,false,Rx,0,8,00,4E,20,00,00,00,00,00,
0,000000B4,false,Rx,0,7,00,00,00,00,00,10,3B,00,
0,000000F0,false,Rx,0,8,00,00,10,00,80,00,10,E9,
0,000000F2,false,Rx,0,8,00,00,00,00,00,00,10,C7,
0,00000108,false,Rx,0,8,38,71,38,3D,09,00,10,12,
0,00000160,false,Rx,0,8,00,00,00,46,0F,FF,10,FD,
0,00000175,false,Rx,0,8,00,00,00,2E,00,00,10,78,
0,000001D7,false,Rx,0,8,00,00,00,00,00,00,10,C7,
0,000001D8,false,Rx,0,8,00,00,00,00,E0,05,13,11,
0,00000212,false,Rx,0,8,00,00,00,00,00,00,17,94,
0,000000F4,false,Rx,0,8,80,00,00,46,45,00,D1,5A,
0,000000F5,false,Rx,0,8,00,05,40,00,10,00,D0,36,
0,000000F6,false,Rx,0,8,1C,F8,03,08,00,14,D0,8D,
0,000000F7,false,Rx,0,8,40,12,00,05,80,00,D5,CE,
0,00000107,false,Rx,0,8,00,00,00,00,00,00,00,00,
0,00000095,false,Rx,0,8,3A,98,0A,8B,09,0B,90,5C,
0,00000150,false,Rx,0,8,00,00,00,00,00,00,90,E1,
0,00000354,false,Rx,0,8,00,00,5F,0A,10,68,08,FC,
0,00000356,false,Rx,0,8,00,00,00,00,00,00,0A,BE,
0,00000358,false,Rx,0,8,01,00,00,00,00,00,10,9A,
0,00000359,false,Rx,0,8,00,00,0C,A3,01,45,00,00,
0,0000015A,false,Rx,0,4,00,00,04,85,00,00,00,00,
0,000000B4,false,Rx,0,7,00,00,00,00,00,20,71,00,
0,000000F0,false,Rx,0,8,00,00,10,00,80,00,20,A3,
0,000000F2,false,Rx,0,8,00,00,00,00,00,00,20,8D,
0,00000108,false,Rx,0,8,38,71,38,3D,09,00,20,58,
0,00000175,false,Rx,0,8,00,00,00,2E,00,00,20,32,
0,000001D7,false,Rx,0,8,00,00,00,00,00,00,20,8D,
0,00000166,false,Rx,0,8,00,00,07,32,9B,57,70,EF,
0,000000F4,false,Rx,0,8,80,00,00,46,45,00,E1,10,
0,000000F5,false,Rx,0,8,00,05,40,00,10,00,E0,7C,
0,000000F6,false,Rx,0,8,1C,F8,03,08,00,16,E0,5F,
0,000000F7,false,Rx,0,8,40,12,00,05,80,00,E5,84,
0,00000104,false,Rx,0,8,FF,FF,00,2D,00,00,70,AA,
0,00000107,false,Rx,0,8,00,00,00,00,00,00,00,00,
0,00000164,false,Rx,0,8,10,00,18,CA,05,F6,70,B7,
0,00000095,false,Rx,0,8,3A,98,0A,8B,09,0B,A0,16,
0,000000E0,false,Rx,0,8,00,00,00,00,00,00,00,00,
0,00000150,false,Rx,0,8,00,00,00,00,00,00,A0,AB,
0,000001D0,false,Rx,0,8,FF,08,F0,F0,10,00,D0,48,
0,0000015A,false,Rx,0,4,00,00,05,98,00,00,00,00,
0,00000220,false,Rx,0,8,10,0E,10,11,10,0C,00,00,
0,000000B4,false,Rx,0,7,00,00,00,00,00,30,BC,00,
0,000000F0,false,Rx,0,8,00,00,10,00,80,00,30,6E,
0,000000F2,false,Rx,0,8,00,00,00,00,00,00,30,40,
0,00000108,false,Rx,0,8,38,71,38,3D,09,00,30,95,
0,00000160,false,Rx,0,8,00,00,00,46,0F,FF,20,B7,
0,00000175,false,Rx,0,8,00,00,00,2E,00,00,30,FF,
0,000001D7,false,Rx,0,8,00,00,00,00,00,00,30,40,
0,000001D8,false,Rx,0,8,00,00,00,00,E0,05,23,5B,
0,00000212,false,Rx,0,8,00,00,00,00,00,00,27,DE,
0,000000F4,false,Rx,0,8,80,00,00,46,45,00,F1,DD,
0,000000F5,false,Rx,0,8,00,05,40,00,10,00,F0,B1,
0,000000F6,false,Rx,0,8,1C,F8,03,08,00,16,F0,92,
0,000000F7,false,Rx,0,8,40,12,00,05,80,00,F5,49,
0,00000107,false,Rx,0,8,00,00,00,00,00,00,00,00,
0,00000095,false,Rx,0,8,3A,98,0A,8B,09,0B,B0,DB,
0,00000150,false,Rx,0,8,00,00,00,00,00,00,B0,66,
0,0000015A,false,Rx,0,4,00,00,06,BF,00,00,00,00,
0,00000235,false,Rx,0,8,09,99,00,2E,07,CA,05,D3,
0,00000106,false,Rx,0,8,00,4E,20,00,00,00,00,00,
0,000000B4,false,Rx,0,7,00,00,00,00,00,40,E5,00,
0,000000F0,false,Rx,0,8,00,00,10,00,80,00,40,37,
0,000000F2,false,Rx,0,8,00,00,00,00,00,00,40,19,
0,00000108,false,Rx,0,8,38,71,38,3D,09,00,40,CC,
0,00000175,false,Rx,0,8,00,00,00,2E,00,00,40,A6,
0,000001D7,false,Rx,0,8,00,00,00,00,00,00,40,19,
0,00000234,false,Rx,0,8,CA,84,01,4B,00,0E,01,63,
0,0000031A,false,Rx,0,8,3D,09,00,3D,09,00,00,00,
0,00000240,false,Rx,0,8,00,00,00,00,00,00,0F,FF,
0,00000115,false,Rx,0,8,00,00,00,00,43,43,03,38,
0,000000F4,false,Rx,0,8,80,00,00,46,45,00,01,A2,
0,000000F5,false,Rx,0,8,00,05,40,00,10,00,00,CE,
0,000000F6,false,Rx,0,8,1C,F8,03,08,00,19,00,4E,
0,000000F7,false,Rx,0,8,40,12,00,05,80,00,05,36,
0,00000104,false,Rx,0,8,FF,FF,00,2C,00,00,80,48,
0,00000107,false,Rx,0,8,00,00,00,00,00,00,00,00,
0,00000164,false,Rx,0,8,10,00,17,5A,07,8B,80,B7,
0,00000095,false,Rx,0,8,3A,98,0A,8B,09,0B,C0,82,
0,00000166,false,Rx,0,8,00,00,08,32,9B,57,80,EC,
0,000000E0,false,Rx,0,8,00,00,00,00,00,00,00,00,
0,00000242,false,Rx,0,8,DD,00,00,00,00,00,00,00,
0,00000150,false,Rx,0,8,00,00,00,00,00,00,C0,3F,
0,0000015A,false,Rx,0,4,00,00,07,A2,00,00,00,00,
0,000001D0,false,Rx,0,8,FF,08,F0,F0,10,00,E0,02,
0,00000308,false,Rx,0,8,00,00,00,00,08,00,39,F4,
0,00000220,false,Rx,0,8,10,0E,10,11,10,0C,00,00,
0,00000309,false,Rx,0,8,00,00,00,00,00,00,00,20,
0,0000031B,false,Rx,0,8,3D,09,00,3D,09,00,00,00,
0,0000031C,false,Rx,0,8,01,90,01,90,00,00,00,00,
0,0000031D,false,Rx,0,8,86,00,00,00,00,00,02,00,
0,0000031E,false,Rx,0,8,00,00,00,00,00,00,00,00,
0,0000031F,false,Rx,0,8,01,F4,01,F4,01,F4,00,00,
0,00000324,false,Rx,0,8,00,00,00,00,05,14,01,9D,
0,00000357,false,Rx,0,8,00,00,02,17,01,63,01,2C,
0,000000B4,false,Rx,0,7,00,00,00,00,00,50,28,00,
0,000000F0,false,Rx,0,8,00,00,10,00,80,00,50,FA,
0,000000F2,false,Rx,0,8,00,00,00,00,00,00,50,D4,
0,00000108,false,Rx,0,8,38,71,38,3D,09,00,50,01,
0,00000160,false,Rx,0,8,00,00,00,46,0F,FF,30,7A,
0,00000175,false,Rx,0,8,00,00,00,2E,00,00,50,6B,
0,000001D7,false,Rx,0,8,00,00,00,00,00,00,50,D4,
0,000001D8,false,Rx,0,8,00,00,00,00,E0,05,33,96,
0,00000212,false,Rx,0,8,00,00,00,00,00,00,37,13,
0,00000107,false,Rx,0,8,00,00,00,00,00,00,00,00,
0,000000F4,false,Rx,0,8,80,00,00,46,45,00,11,6F,
0,00000095,false,Rx,0,8,3A,98,0A,8B,09,0B,D0,4F,
0,000000F5,false,Rx,0,8,00,05,40,00,10,00,10,03,
0,000000F6,false,Rx,0,8,1C,F8,03,08,00,19,10,83,
0,000000F7,false,Rx,0,8,40,12,00,05,80,00,15,FB,
0,00000150,false,Rx,0,8,00,00,00,00,00,00,D0,F2,
0,0000015A,false,Rx,0,4,00,00,08,19,00,00,00,00,
0,000000B4,false,Rx,0,7,00,00,00,00,00,60,62,00,
0,000000F0,false,Rx,0,8,00,00,10,00,80,00,60,B0,
0,000000F2,false,Rx,0,8,00,00,00,00,00,00,60,9E,
0,00000108,false,Rx,0,8,38,71,38,3D,09,00,60,4B,
0,00000175,false,Rx,0,8,00,00,00,2E,00,00,60,21,
0,000001D7,false,Rx,0,8,00,00,00,00,00,00,60,9E,
0,00000166,false,Rx,0,8,00,00,09,32,9B,57,90,4B,
0,000000F4,false,Rx,0,8,80,00,00,46,45,00,21,25,
0,000000F5,false,Rx,0,8,00,05,40,00,10,00,20,49,
0,000000F6,false,Rx,0,8,1C,F8,03,08,00,1C,20,A8,
0,000000F7,false,Rx,0,8,42,12,00,05,80,00,25,0B,
0,00000104,false,Rx,0,8,FF,FF,00,2B,00,00,90,71,
0,00000164,false,Rx,0,8,10,00,16,49,08,B5,90,27,
0,00000284,false,Rx,0,8,51,28,28,00,00,00,00,00,
0,000003EC,false,Rx,0,8,00,00,00,00,00,04,30,6D,
0,00000095,false,Rx,0,8,3A,98,0A,8B,09,0B,E0,05,
0,000000E0,false,Rx,0,8,00,00,00,00,00,00,00,00,
0,00000107,false,Rx,0,8,00,00,00,00,00,00,00,00,
0,0000015A,false,Rx,0,4,00,00,09,04,00,00,00,00,
0,00000150,false,Rx,0,8,00,00,00,00,00,00,E0,B8,
0,000001D0,false,Rx,0,8,FF,08,F0,F0,10,00,F0,CF,
0,00000220,false,Rx,0,8,10,0E,10,11,10,0C,00,00,
0,00000281,false,Rx,0,8,1F,FF,1F,FF,1F,FF,00,00,
0,00000285,false,Rx,0,8,1F,FF,1F,FF,1F,FF,00,00,
0,00000306,false,Rx,0,8,00,00,E7,F7,EE,EC,8E,F5,
0,00000307,false,Rx,0,8,41,42,00,C0,27,00,27,00,
0,000003E8,false,Rx,0,8,00,00,00,00,00,00,00,00,
0,000003EA,false,Rx,0,8,4D,00,00,00,83,00,30,34,
0,000003EB,false,Rx,0,8,02,00,00,07,00,00,30,0E,
0,000003ED,false,Rx,0,8,FF,FF,00,00,00,00,30,BC,
0,00000106,false,Rx,0,8,00,4E,20,00,00,00,00,00,
0,000000B4,false,Rx,0,7,00,00,00,00,00,70,AF,00,
0,000000F0,false,Rx,0,8,00,00,10,00,80,00,70,7D,
0,000000F2,false,Rx,0,8,00,00,00,00,00,00,70,53,
0,00000108,false,Rx,0,8,38,71,38,3D,09,00,70,86,
0,00000160,false,Rx,0,8,00,00,00,46,0F,FF,40,23,
0,00000175,false,Rx,0,8,00,00,00,2E,00,00,70,EC,
0,000001D7,false,Rx,0,8,00,00,00,00,00,00,70,53,
0,000001D8,false,Rx,0,8,00,00,00,00,E0,05,43,CF,
0,00000212,false,Rx,0,8,00,00,00,00,00,00,47,4A,
0,000000F4,false,Rx,0,8,80,00,00,46,45,00,31,E8,
0,000000F5,false,Rx,0,8,00,05,40,00,10,00,30,84,
0,000000F6,false,Rx,0,8,1C,F8,03,08,00,1C,30,65,
0,000000F7,false,Rx,0,8,42,12,00,05,80,00,35,C6,
0,00000107,false,Rx,0,8,00,00,00,00,00,00,00,00,
0,00000095,false,Rx,0,8,3A,98,0A,8B,09,0B,F0,C8,
0,00000150,false,Rx,0,8,00,00,00,00,00,00,F0,75,
0,0000015A,false,Rx,0,4,00,00,0A,23,00,00,00,00,
0,000000B4,false,Rx,0,7,00,00,00,00,00,80,D0,00,
0,000000F0,false,Rx,0,8,00,00,10,00,80,00,80,02,
0,000000F2,false,Rx,0,8,00,00,00,00,00,00,80,2C,
0,00000108,false,Rx,0,8,38,71,38,3D,09,00,80,F9,
0,00000175,false,Rx,0,8,00,00,00,2E,00,00,80,93,
0,000001D7,false,Rx,0,8,00,00,00,00,00,00,80,2C,
0,00000166,false,Rx,0,8,00,00,0A,32,9B,57,A0,BF,
0,000000F4,false,Rx,0,8,80,00,00,46,45,00,41,B1,
0,000000F5,false,Rx,0,8,00,05,40,00,10,00,40,DD,
0,000000F6,false,Rx,0,8,1C,F8,03,08,00,1F,40,E8,
0,000000F7,false,Rx,0,8,42,12,00,05,80,00,45,9F,
0,00000104,false,Rx,0,8,FF,FF,00,2B,00,00,A0,3B,
0,00000107,false,Rx,0,8,00,00,00,00,00,00,00,00,
0,00000164,false,Rx,0,8,10,00,15,90,09,A9,A0,1A,
0,00000095,false,Rx,0,8,3A,98,0A,8B,09,0B,00,B7,
0,000000E0,false,Rx,0,8,00,00,00,00,00,00,00,00,
0,00000150,false,Rx,0,8,00,00,00,00,00,00,00,0A,
0,000001D0,false,Rx,0,8,FF,08,F0,F0,10,00,00,B0,
0,0000015A,false,Rx,0,4,00,00,0B,3E,00,00,00,00,
0,00000220,false,Rx,0,8,10,0E,10,11,10,0C,00,00,
0,00000235,false,Rx,0,8,09,99,00,2E,07,CA,05,D3,
0,000000B4,false,Rx,0,7,00,00,00,00,00,90,1D,00,
0,000000F0,false,Rx,0,8,00,00,10,00,80,00,90,CF,
0,000000F2,false,Rx,0,8,00,00,00,00,00,00,90,E1,
0,00000108,false,Rx,0,8,38,71,38,3D,09,00,90,34,
0,00000160,false,Rx,0,8,00,00,00,46,0F,FF,50,EE,
0,00000175,false,Rx,0,8,00,00,00,2E,00,00,90,5E,
0,000001D7,false,Rx,0,8,00,00,00,00,00,00,90,E1,
0,000001D8,false,Rx,0,8,00,00,00,00,E0,05,53,02,
0,00000212,false,Rx,0,8,00,00,00,00,00,00,57,87,
0,00000234,false,Rx,0,8,CB,84,01,4A,00,0E,01,63,
0,00000282,false,Rx,0,8,00,00,00,05,00,00,00,FF,
0,000000F4,false,Rx,0,8,80,00,00,46,45,00,51,7C,
0,000000F5,false,Rx,0,8,00,05,40,00,10,00,50,10,
0,000000F6,false,Rx,0,8,1C,F8,03,08,00,1F,50,25,
0,000000F7,false,Rx,0,8,42,12,00,05,80,00,55,52,
0,00000107,false,Rx,0,8,00,00,00,00,00,00,00,00,
0,00000240,false,Rx,0,8,00,00,00,00,00,00,0F,FF,
0,00000095,false,Rx,0,8,3A,98,0A,8B,09,0B,10,7A,
0,00000242,false,Rx,0,8,DD,00,00,00,00,00,00,00,
0,00000150,false,Rx,0,8,00,00,00,00,00,00,10,C7,
0,00000280,false,Rx,0,8,00,00,00,00,00,00,00,00,
0,0000015A,false,Rx,0,4,00,00,0C,6D,00,00,00,00,
0,000002A4,false,Rx,0,8,00,0A,00,00,F5,0A,00,00,
0,000002A5,false,Rx,0,6,00,00,01,40,00,00,00,00,
0,000002D0,false,Rx,0,8,FF,FF,FF,7F,FF,FF,00,00,
0,000002D2,false,Rx,0,8,FF,FF,FF,FF,FF,FF,00,00,
0,00000301,false,Rx,0,8,00,00,00,00,00,00,50,D4,
0,00000320,false,Rx,0,8,5E,9A,C0,3E,2D,9F,01,A0,
0,00000321,false,Rx,0,8,6A,CF,C0,03,1B,01,7F,00,
0,00000322,false,Rx,0,8,00,00,01,F5,01,00,00,00,
0,00000323,false,Rx,0,8,00,00,25,00,00,00,00,00,
0,000003E0,false,Rx,0,8,03,00,00,00,00,00,00,00,
0,000003E7,false,Rx,0,8,00,00,00,00,00,00,00,00,
0,000003EE,false,Rx,0,8,00,00,28,00,00,00,00,40,
0,000000B4,false,Rx,0,7,00,00,00,00,00,A0,57,00,
0,000000F0,false,Rx,0,8,00,00,10,00,80,00,A0,85,
0,000000F2,false,Rx,0,8,00,00,00,00,00,00,A0,AB,
0,00000108,false,Rx,0,8,38,71,38,3D,09,00,A0,7E,
0,00000175,false,Rx,0,8,00,00,00,2E,00,00,A0,14,
0,000001D7,false,Rx,0,8,00,00,00,00,00,00,A0,AB,
0,00000166,false,Rx,0,8,00,00,0B,32,9B,57,B0,18,
0,000000F4,false,Rx,0,8,80,00,00,46,45,00,61,36,
0,000000F5,false,Rx,0,8,00,05,40,00,10,00,60,5A,
0,000000F6,false,Rx,0,8,1C,F8,03,08,00,22,60,95,
0,000000F7,false,Rx,0,8,42,12,00,05,80,00,65,18,
0,00000104,false,Rx,0,8,FF,FF,00,2D,00,00,B0,9F,
0,00000107,false,Rx,0,8,00,00,00,00,00,00,00,00,
0,00000164,false,Rx,0,8,10,00,15,01,0A,4D,B0,AD,
0,00000095,false,Rx,0,8,3A,98,0A,8B,09,0B,20,30,
0,000000E0,false,Rx,0,8,00,00,00,00,00,00,00,00,
0,00000150,false,Rx,0,8,00,00,00,00,00,00,20,8D,
0,000001D0,false,Rx,0,8,FF,08,F0,F0,10,00,10,7D,
0,0000015A,false,Rx,0,4,00,00,0D,70,00,00,00,00,
0,00000220,false,Rx,0,8,10,0E,10,11,10,0C,00,00,
0,00000106,false,Rx,0,8,00,4E,20,00,00,00,00,00,
0,000000B4,false,Rx,0,7,00,00,00,00,00,B0,9A,00,
0,000000F0,false,Rx,0,8,00,00,10,00,80,00,B0,48,
0,000000F2,false,Rx,0,8,00,00,00,00,00,00,B0,66,
0,00000108,false,Rx,0,8,38,71,38,3D,09,00,B0,B3,
0,00000160,false,Rx,0,8,00,00,00,46,0F,FF,60,A4,
0,00000175,false,Rx,0,8,00,00,00,2E,00,00,B0,D9,
0,000001D7,false,Rx,0,8,00,00,00,00,00,00,B0,66,
0,000001D8,false,Rx,0,8,00,00,00,00,E0,05,63,48,
0,00000212,false,Rx,0,8,00,00,00,00,00,00,67,CD,
0,000000F4,false,Rx,0,8,80,00,00,46,45,00,71,FB,
0,000000F5,false,Rx,0,8,00,05,40,00,10,00,70,97,
0,000000F6,false,Rx,0,8,1C,F8,03,08,00,22,70,58,
0,000000F7,false,Rx,0,8,42,12,00,05,80,00,75,D5,
0,00000107,false,Rx,0,8,00,00,00,00,00,00,00,00,
0,00000095,false,Rx,0,8,3A,98,0A,8B,09,0B,30,FD,
0,00000150,false,Rx,0,8,00,00,00,00,00,00,30,40,
0,0000015A,false,Rx,0,4,00,00,0E,57,00,00,00,00,
0,000000B4,false,Rx,0,7,00,00,00,00,00,C0,C3,00,
0,000000F0,false,Rx,0,8,00,00,10,00,80,00,C0,11,
0,000000F2,false,Rx,0,8,00,00,00,00,00,00,C0,3F,
0,00000108,false,Rx,0,8,38,71,38,3D,09,00,C0,EA,
0,00000175,false,Rx,0,8,00,00,00,2E,00,00,C0,80,
0,000001D7,false,Rx,0,8,00,00,00,00,00,00,C0,3F,
0,00000166,false,Rx,0,8,00,00,0C,32,9B,57,C0,4A,
0,000000F4,false,Rx,0,8,80,00,00,46,45,00,81,84,
0,000000F5,false,Rx,0,8,00,05,40,00,10,00,80,E8,
0,000000F6,false,Rx,0,8,1C,F8,03,08,00,25,80,DE,
0,000000F7,false,Rx,0,8,42,12,00,05,80,00,85,AA,
0,00000104,false,Rx,0,8,FF,FF,00,2D,00,00,C0,C6,
0,00000107,false,Rx,0,8,00,00,00,00,00,00,00,00,
0,00000164,false,Rx,0,8,10,00,14,79,0A,CB,C0,85,
0,00000095,false,Rx,0,8,3A,98,0A,8B,09,0B,40,A4,
0,000000E0,false,Rx,0,8,00,00,00,00,00,00,00,00,
0,00000150,false,Rx,0,8,00,00,00,00,00,00,40,19,
0,000001D0,false,Rx,0,8,43,08,F0,28,10,00,20,E3,
0,0000015A,false,Rx,0,4,00,00,0F,4A,00,00,00,00,
0,00000220,false,Rx,0,8,10,0E,10,11,10,0C,00,00,
0,00000106,false,Rx,0,8,00,4E,20,00,00,00,00,00,
0,000000B4,false,Rx,0,7,00,00,00,00,00,D0,0E,00,
0,000000F0,false,Rx,0,8,00,00,10,00,80,00,D0,DC,
0,000000F2,false,Rx,0,8,00,00,00,00,00,00,D0,F2,
0,00000108,false,Rx,0,8,38,71,38,3D,09,00,D0,27,
0,00000160,false,Rx,0,8,00,00,00,46,0F,FF,70,69,
0,00000175,false,Rx,0,8,00,00,00,2E,00,00,D0,4D,
0,000001D7,false,Rx,0,8,00,00,00,00,00,00,D0,F2,
0,000001D8,false,Rx,0,8,00,00,00,00,E0,05,73,85,
0,00000212,false,Rx,0,8,00,00,00,00,00,00,77,00,
0,000000F4,false,Rx,0,8,80,00,00,46,45,00,91,49,
0,000000F5,false,Rx,0,8,00,05,40,00,10,00,90,25,
0,000000F6,false,Rx,0,8,1C,F8,03,08,00,25,90,13,
0,000000F7,false,Rx,0,8,42,12,00,05,80,00,95,67,
0,00000107,false,Rx,0,8,00,00,00,00,00,00,00,00,
0,00000095,false,Rx,0,8,3A,98,0A,8B,09,0B,50,69,
0,00000150,false,Rx,0,8,00,00,00,00,00,00,50,D4,
0,0000015A,false,Rx,0,4,00,00,00,F1,00,00,00,00,
0,00000235,false,Rx,0,8,09,B8,00,32,07,CA,05,D3,
0,0000031A,false,Rx,0,8,3D,09,00,3D,09,00,00,00,
0,0000031B,false,Rx,0,8,3D,09,00,3D,09,00,00,00,
0,00000115,false,Rx,0,8,00,00,00,00,44,44,04,35,
0,000000B4,false,Rx,0,7,00,00,00,00,00,E0,44,00,
0,000000F0,false,Rx,0,8,00,00,10,00,80,00,E0,96,
0,000000F2,false,Rx,0,8,00,00,00,00,00,00,E0,B8,
0,00000108,false,Rx,0,8,38,71,38,3D,09,00,E0,6D,
0,0000015A,false,Rx,0,4,00,00,01,EC,00,00,00,00,
0,000001D7,false,Rx,0,8,00,00,00,00,00,00,E0,B8,
0,00000175,false,Rx,0,8,00,00,00,2E,00,00,E0,07,
0,00000308,false,Rx,0,8,00,00,00,00,08,00,39,F4,
0,00000234,false,Rx,0,8,CD,84,01,4A,00,0E,01,63,
0,00000309,false,Rx,0,8,00,00,00,00,00,00,00,20,
0,000000F4,false,Rx,0,8,80,00,00,46,45,00,A1,03,
0,000000F5,false,Rx,0,8,00,06,40,00,10,00,A0,A5,
0,000000F6,false,Rx,0,8,1C,F8,03,08,00,28,A0,62,
0,000000F7,false,Rx,0,8,42,12,00,05,80,00,A5,2D,
0,00000104,false,Rx,0,8,FF,FF,00,2C,00,00,D0,96,
0,00000107,false,Rx,0,8,00,00,00,00,00,00,00,00,
0,00000164,false,Rx,0,8,10,00,14,16,0B,34,D0,30,
0,00000095,false,Rx,0,8,3A,98,0A,8B,09,0B,60,23,
0,00000166,false,Rx,0,8,00,00,0D,32,9B,57,D0,ED,
0,000000E0,false,Rx,0,8,00,00,00,00,00,00,00,00,
0,00000240,false,Rx,0,8,00,00,00,00,00,00,0F,FF,
0,00000150,false,Rx,0,8,00,00,00,00,00,00,60,9E,
0,0000015A,false,Rx,0,4,00,00,02,CB,00,00,00,00,
0,000001D0,false,Rx,0,8,43,08,F0,28,10,00,30,2E,
0,00000242,false,Rx,0,8,DD,00,00,00,00,00,00,00,
0,00000220,false,Rx,0,8,10,0E,10,11,10,0C,00,00,
0,0000031C,false,Rx,0,8,01,90,01,90,00,00,00,00,
0,0000031D,false,Rx,0,8,86,00,00,00,00,00,02,00,
0,0000031E,false,Rx,0,8,00,00,00,00,00,00,00,00,
0,0000031F,false,Rx,0,8,01,F4,01,F4,01,F4,00,00,
0,00000324,false,Rx,0,8,00,00,00,00,05,14,01,9C,
0,00000357,false,Rx,0,8,00,00,02,17,01,63,01,2C,
0,000000B4,false,Rx,0,7,00,00,00,00,00,F0,89,00,
0,000000F0,false,Rx,0,8,00,00,10,00,80,00,F0,5B,
0,000000F2,false,Rx,0,8,00,00,00,00,00,00,F0,75,
0,00000108,false,Rx,0,8,38,71,38,3D,09,00,F0,A0,
0,00000160,false,Rx,0,8,00,00,00,46,0F,FF,80,16,
0,00000175,false,Rx,0,8,00,00,00,2E,00,00,F0,CA,
0,000001D7,false,Rx,0,8,00,00,00,00,00,00,F0,75,
0,000001D8,false,Rx,0,8,00,00,00,00,E0,05,83,FA,
0,00000212,false,Rx,0,8,00,00,00,00,00,00,87,7F,
0,00000107,false,Rx,0,8,00,00,00,00,00,00,00,00,
0,000000F4,false,Rx,0,8,80,00,00,46,45,00,B1,CE,
0,00000095,false,Rx,0,8,3A,98,0A,8B,09,0B,70,EE,
0,000000F5,false,Rx,0,8,00,05,40,00,10,00,B0,A2,
0,000000F6,false,Rx,0,8,1C,F8,03,08,00,28,B0,AF,
0,000000F7,false,Rx,0,8,42,12,00,05,80,00,B5,E0,
0,00000150,false,Rx,0,8,00,00,00,00,00,00,70,53,
0,0000015A,false,Rx,0,4,00,00,03,D6,00,00,00,00,
0,00000106,false,Rx,0,8,00,4E,20,00,00,00,00,00,
0,000000B4,false,Rx,0,7,00,00,00,00,00,00,F6,00,
0,000000F0,false,Rx,0,8,00,00,10,00,80,00,00,24,
0,000000F2,false,Rx,0,8,00,00,00,00,00,00,00,0A,
0,00000108,false,Rx,0,8,38,71,38,3D,09,00,00,DF,
0,00000175,false,Rx,0,8,00,00,00,2E,00,00,00,B5,
0,000001D7,false,Rx,0,8,00,00,00,00,00,00,00,0A,
0,00000166,false,Rx,0,8,00,00,0E,32,9B,57,E0,19,
0,000000F4,false,Rx,0,8,80,00,00,46,45,00,C1,97,
0,000000F5,false,Rx,0,8,00,06,40,00,10,00,C0,31,
0,000000F6,false,Rx,0,8,1C,F8,03,08,00,2A,C0,6E,
0,000000F7,false,Rx,0,8,42,12,00,05,80,00,C5,B9,
0,00000104,false,Rx,0,8,FF,FF,00,2B,00,00,E0,28,
0,00000164,false,Rx,0,8,10,00,13,BC,0B,8B,E0,1E,
0,00000284,false,Rx,0,8,51,28,28,00,00,00,00,00,
0,000003EC,false,Rx,0,8,00,00,00,00,00,04,40,34,
0,00000095,false,Rx,0,8,3A,98,0A,8B,09,0B,80,91,
0,000000E0,false,Rx,0,8,00,00,00,00,00,00,00,00,
0,00000107,false,Rx,0,8,00,00,00,00,00,00,00,00,
0,0000015A,false,Rx,0,4,00,00,04,85,00,00,00,00,
0,00000150,false,Rx,0,8,00,00,00,00,00,00,80,2C,
0,000001D0,false,Rx,0,8,43,08,F0,28,10,00,40,77,
0,00000220,false,Rx,0,8,10,0E,10,11,10,0C,00,00,
0,00000281,false,Rx,0,8,1F,FF,1F,FF,1F,FF,00,00,
0,00000285,false,Rx,0,8,1F,FF,1F,FF,1F,FF,00,00,
0,00000306,false,Rx,0,8,00,00,E7,F7,EE,EC,8E,F5,
0,00000307,false,Rx,0,8,41,42,00,00,42,00,43,00,
0,000003E8,false,Rx,0,8,00,00,00,00,00,00,00,00,
0,000003EA,false,Rx,0,8,4B,00,00,00,83,00,40,BE,
0,000003EB,false,Rx,0,8,02,00,00,07,00,00,40,57,
0,000003ED,false,Rx,0,8,FF,FF,00,00,00,00,40,E5,
0,000000B4,false,Rx,0,7,00,00,00,00,00,10,3B,00,
0,000000F0,false,Rx,0,8,00,00,10,00,80,00,10,E9,
0,000000F2,false,Rx,0,8,00,00,00,00,00,00,10,C7,
0,00000108,false,Rx,0,8,38,71,38,3D,09,00,10,12,
0,00000160,false,Rx,0,8,00,00,00,46,0F,FF,90,DB,
0,00000175,false,Rx,0,8,00,00,00,2E,00,00,10,78,
0,000001D7,false,Rx,0,8,00,00,00,00,00,00,10,C7,
0,000001D8,false,Rx,0,8,00,00,00,00,E0,05,93,37,
0,00000212,false,Rx,0,8,00,00,00,00,00,00,97,B2,
0,00000107,false,Rx,0,8,00,00,00,00,00,00,00,00,
0,000000F4,false,Rx,0,8,80,00,00,46,45,00,D1,5A,
0,00000095,false,Rx,0,8,3A,98,0A,8B,09,0E,90,3D,
0,000000F5,false,Rx,0,8,00,06,40,00,10,00,D0,FC,
0,000000F6,false,Rx,0,8,1C,F8,03,08,00,2A,D0,A3,
0,000000F7,false,Rx,0,8,42,12,00,05,80,00,D5,74,
0,00000150,false,Rx,0,8,00,00,00,00,00,00,90,E1,
0,0000015A,false,Rx,0,4,00,00,05,98,00,00,00,00,
0,000000B4,false,Rx,0,7,00,00,00,00,00,20,71,00,
0,000000F0,false,Rx,0,8,00,00,10,00,80,00,20,A3,
0,000000F2,false,Rx,0,8,00,00,00,00,00,00,20,8D,
0,00000108,false,Rx,0,8,38,71,38,3D,09,00,20,58,
0,00000175,false,Rx,0,8,00,00,00,2E,00,00,20,32,
0,000001D7,false,Rx,0,8,00,00,00,00,00,00,20,8D,
0,00000166,false,Rx,0,8,00,00,0F,32,9B,57,F0,BE,
0,000000F4,false,Rx,0,8,80,00,00,46,45,00,E1,10,
0,000000F5,false,Rx,0,8,00,06,40,00,10,00,E0,B6,
0,000000F6,false,Rx,0,8,1C,F8,03,08,00,2D,E0,10,
0,000000F7,false,Rx,0,8,42,12,00,05,80,00,E5,3E,
0,00000104,false,Rx,0,8,FF,FF,00,2C,00,00,F0,11,
0,00000107,false,Rx,0,8,00,00,00,00,00,00,00,00,
0,00000164,false,Rx,0,8,10,00,13,6C,0B,E0,F0,46,
0,00000095,false,Rx,0,8,3A,98,0A,8B,09,0E,A0,77,
0,000000E0,false,Rx,0,8,00,00,00,00,00,00,00,00,
0,00000150,false,Rx,0,8,00,00,00,00,00,00,A0,AB,
0,000001D0,false,Rx,0,8,43,08,F0,28,10,00,50,BA,
0,0000015A,false,Rx,0,4,00,00,06,BF,00,00,00,00,
0,00000220,false,Rx,0,8,10,0E,10,11,10,0C,00,00,
0,00000235,false,Rx,0,8,09,B8,00,32,07,CA,05,D3,
0,00000106,false,Rx,0,8,00,4E,20,00,00,00,00,00,
0,000000B4,false,Rx,0,7,00,00,00,00,00,30,BC,00,
0,000000F0,false,Rx,0,8,00,00,10,00,80,00,30,6E,
0,000000F2,false,Rx,0,8,00,00,00,00,00,00,30,40,
0,00000108,false,Rx,0,8,38,71,38,3D,09,00,30,95,
0,00000160,false,Rx,0,8,00,00,00,46,0F,FF,A0,91,
0,00000175,false,Rx,0,8,00,00,00,2E,00,00,30,FF,
0,000001D7,false,Rx,0,8,00,00,00,00,00,00,30,40,
0,000001D8,false,Rx,0,8,00,00,00,00,E0,06,A3,A9,
0,00000212,false,Rx,0,8,00,00,00,00,00,00,A7,F8,
0,00000234,false,Rx,0,8,CE,84,01,4A,00,0E,01,63,
0,00000282,false,Rx,0,8,00,00,00,05,00,00,00,01,
0,000000F4,false,Rx,0,8,80,00,00,46,45,00,F1,DD,
0,000000F5,false,Rx,0,8,00,06,40,00,10,00,F0,7B,
0,000000F6,false,Rx,0,8,1C,F8,03,08,00,2D,F0,DD,
0,000000F7,false,Rx,0,8,42,12,00,05,80,00,F5,F3,
0,00000107,false,Rx,0,8,00,00,00,00,00,00,00,00,
0,00000240,false,Rx,0,8,00,00,00,00,00,00,0F,FF,
0,00000095,false,Rx,0,8,3A,98,0A,8B,09,0E,B0,BA,
0,00000242,false,Rx,0,8,DD,00,00,00,00,00,00,00,
0,00000150,false,Rx,0,8,00,00,00,00,00,00,B0,66,
0,00000280,false,Rx,0,8,00,00,00,00,00,00,00,00,
0,0000015A,false,Rx,0,4,00,00,07,A2,00,00,00,00,
0,000002A4,false,Rx,0,8,00,0A,00,00,F5,0A,00,00,
0,000002A5,false,Rx,0,6,00,00,01,40,00,00,00,00,
0,000002D0,false,Rx,0,8,FF,FF,FF,7F,FF,FF,00,00,
0,000002D2,false,Rx,0,8,FF,FF,FF,FF,FF,FF,00,00,
0,00000301,false,Rx,0,8,00,00,00,00,00,00,60,9E,
0,00000320,false,Rx,0,8,5E,9A,C0,3E,2D,9F,01,A0,
0,00000321,false,Rx,0,8,6A,CF,C0,03,1B,01,7F,00,
0,00000322,false,Rx,0,8,00,00,01,F5,01,00,00,00,
0,00000323,false,Rx,0,8,00,00,25,00,00,00,00,00,
0,000003D1,false,Rx,0,8,00,00,00,36,00,00,00,00,
0,000003E0,false,Rx,0,8,03,00,00,00,00,00,00,00,
0,000003E7,false,Rx,0,8,00,00,00,00,00,00,00,00,
0,000003EE,false,Rx,0,8,00,00,28,00,00,00,00,40,
0,000003FD,false,Rx,0,8,47,18,71,23,00,00,00,00,
0,000000B4,false,Rx,0,7,00,00,00,00,00,40,E5,00,
0,000000F0,false,Rx,0,8,00,00,10,00,80,00,40,37,
0,000000F2,false,Rx,0,8,00,00,00,00,00,00,40,19,
0,00000108,false,Rx,0,8,38,71,38,3D,09,00,40,CC,
0,00000175,false,Rx,0,8,00,00,00,2E,00,00,40,A6,
0,000001D7,false,Rx,0,8,00,00,00,00,00,00,40,19,
0,00000166,false,Rx,0,8,00,00,10,32,9B,57,00,53,
0,000000F4,false,Rx,0,8,80,00,00,46,45,00,01,A2,
0,000000F5,false,Rx,0,8,00,06,40,00,10,00,00,04,
0,000000F6,false,Rx,0,8,1C,F8,03,08,00,02,00,74,
0,000000F7,false,Rx,0,8,42,12,00,05,80,00,05,8C,
0,00000104,false,Rx,0,8,FF,FF,00,2C,00,00,00,6E,
0,00000107,false,Rx,0,8,00,00,00,00,00,00,00,00,
0,00000164,false,Rx,0,8,10,00,13,30,0C,1C,00,45,
0,00000095,false,Rx,0,8,3A,98,0A,8B,09,0E,C0,E3,
0,000000E0,false,Rx,0,8,00,00,00,00,00,00,00,00,
0,00000150,false,Rx,0,8,00,00,00,00,00,00,C0,3F,
0,000001D0,false,Rx,0,8,43,08,F0,28,10,00,60,F0,
0,0000015A,false,Rx,0,4,00,00,08,19,00,00,00,00,
0,00000220,false,Rx,0,8,10,0E,10,11,10,0C,00,00,
0,000000B4,false,Rx,0,7,00,00,00,00,00,50,28,00,
0,000000F0,false,Rx,0,8,00,00,10,00,80,00,50,FA,
0,000000F2,false,Rx,0,8,00,00,00,00,00,00,50,D4,
0,00000108,false,Rx,0,8,38,71,38,3D,09,00,50,01,
0,00000160,false,Rx,0,8,00,00,00,46,0F,FF,B0,5C,
0,00000175,false,Rx,0,8,00,00,00,2E,00,00,50,6B,
0,000001D7,false,Rx,0,8,00,00,00,00,00,00,50,D4,
0,000001D8,false,Rx,0,8,00,00,00,00,E0,06,B3,64,
0,00000212,false,Rx,0,8,00,00,00,00,00,00,B7,35,
0,000000F4,false,Rx,0,8,80,00,00,46,44,00,11,E0,
0,000000F5,false,Rx,0,8,00,05,40,00,10,00,10,03,
0,000000F6,false,Rx,0,8,1C,F8,03,08,00,02,10,B9,
0,000000F7,false,Rx,0,8,42,12,00,05,80,00,15,41,
0,00000107,false,Rx,0,8,00,00,00,00,00,00,00,00,
0,00000095,false,Rx,0,8,3A,98,0A,8B,09,0E,D0,2E,
0,00000150,false,Rx,0,8,00,00,00,00,00,00,D0,F2,
0,0000015A,false,Rx,0,4,00,00,09,04,00,00,00,00,
0,00000106,false,Rx,0,8,00,4E,20,00,00,00,00,00,
0,000000B4,false,Rx,0,7,00,00,00,00,00,60,62,00,
0,000000F0,false,Rx,0,8,00,00,10,00,80,00,60,B0,
0,000000F2,false,Rx,0,8,00,00,00,00,00,00,60,9E,
0,00000108,false,Rx,0,8,38,71,38,3D,09,00,60,4B,
0,00000175,false,Rx,0,8,00,00,00,2E,00,00,60,21,
0,000001D7,false,Rx,0,8,00,00,00,00,00,00,60,9E,
0,00000166,false,Rx,0,8,00,00,01,32,9B,57,10,1A,
0,000000F4,false,Rx,0,8,80,00,00,46,45,00,21,25,
0,000000F5,false,Rx,0,8,00,06,40,00,10,00,20,83,
0,000000F6,false,Rx,0,8,1C,F8,03,08,00,05,20,0A,
0,000000F7,false,Rx,0,8,42,12,00,05,80,00,25,0B,
0,00000104,false,Rx,0,8,FF,FF,00,2D,00,00,10,3E,
0,00000107,false,Rx,0,8,00,00,00,00,00,00,00,00,
0,00000164,false,Rx,0,8,10,00,1C,FC,03,03,10,16,
0,00000095,false,Rx,0,8,3A,98,0A,8B,09,0E,E0,64,
0,000000E0,false,Rx,0,8,00,00,00,00,00,00,00,00,
0,00000150,false,Rx,0,8,00,00,00,00,00,00,E0,B8,
0,000001D0,false,Rx,0,8,43,08,F0,28,10,00,70,3D,
0,0000015A,false,Rx,0,4,00,00,0A,23,00,00,00,00,
0,00000220,false,Rx,0,8,10,0E,10,11,10,0C,00,00,
0,000000B4,false,Rx,0,7,00,00,00,00,00,70,AF,00,
0,000000F0,false,Rx,0,8,00,00,10,00,80,00,70,7D,
0,000000F2,false,Rx,0,8,00,00,00,00,00,00,70,53,
0,00000108,false,Rx,0,8,38,71,38,3D,09,00,70,86,
0,00000160,false,Rx,0,8,00,00,00,46,0F,FF,C0,05,
0,00000175,false,Rx,0,8,00,00,00,2E,00,00,70,EC,
0,000001D7,false,Rx,0,8,00,00,00,00,00,00,70,53,
0,000001D8,false,Rx,0,8,00,00,00,00,E0,06,C3,3D,
0,00000212,false,Rx,0,8,00,00,00,00,00,00,C7,6C,
0,000000F4,false,Rx,0,8,80,00,00,46,45,00,31,E8,
0,000000F5,false,Rx,0,8,00,06,40,00,10,00,30,4E,
0,000000F6,false,Rx,0,8,1C,F8,03,08,00,05,30,C7,
0,000000F7,false,Rx,0,8,42,12,00,05,80,00,35,C6,
0,00000107,false,Rx,0,8,00,00,00,00,00,00,00,00,
0,00000095,false,Rx,0,8,3A,98,0A,8B,09,0E,F0,A9,
0,00000150,false,Rx,0,8,00,00,00,00,00,00,F0,75,
0,0000015A,false,Rx,0,4,00,00,0B,3E,00,00,00,00,
0,00000235,false,Rx,0,8,09,C4,00,34,07,CA,05,D3,
0,000002A0,false,Rx,0,8,00,05,50,CD,00,00,00,00,
0,000002A2,false,Rx,0,8,04,00,04,00,06,83,00,00,
0,00000115,false,Rx,0,8,00,00,00,00,45,45,05,30,
0,000002BA,false,Rx,0,7,00,00,00,00,00,00,04,00,
0,000000B4,false,Rx,0,7,00,00,00,00,00,80,D0,00,
0,000000F0,false,Rx,0,8,00,00,10,00,80,00,80,02,
0,000000F2,false,Rx,0,8,00,00,00,00,00,00,80,2C,
0,00000108,false,Rx,0,8,38,71,38,3D,09,00,80,F9,
0,00000175,false,Rx,0,8,00,00,00,2E,00,00,80,93,
0,000001D7,false,Rx,0,8,00,00,00,00,00,00,80,2C,
0,00000234,false,Rx,0,8,D0,84,01,4A,00,0E,01,63,
0,00000308,false,Rx,0,8,00,00,00,00,08,00,39,F4,
0,00000240,false,Rx,0,8,00,00,00,00,00,00,0F,FF,
0,00000309,false,Rx,0,8,00,00,00,00,00,00,00,20,
0,000000F4,false,Rx,0,8,80,00,00,46,45,00,41,B1,
0,000000F5,false,Rx,0,8,00,06,40,00,10,00,40,17,
0,000000F6,false,Rx,0,8,1C,F8,03,08,00,08,40,A5,
0,000000F7,false,Rx,0,8,42,12,00,05,80,00,45,9F,
0,00000104,false,Rx,0,8,FF,FF,00,2C,00,00,20,E9,
0,00000107,false,Rx,0,8,00,00,00,00,00,00,00,00,
0,00000164,false,Rx,0,8,10,00,1C,FB,03,04,20,51,
0,00000095,false,Rx,0,8,3A,98,0A,8B,09,0E,00,D6,
0,00000166,false,Rx,0,8,00,00,02,32,9B,57,20,EE,
0,000000E0,false,Rx,0,8,00,00,00,00,00,00,00,00,
0,00000242,false,Rx,0,8,DD,00,00,00,00,00,00,00,
0,00000150,false,Rx,0,8,00,00,00,00,00,00,00,0A,
0,0000015A,false,Rx,0,4,00,00,0C,6D,00,00,00,00,
0,000001D0,false,Rx,0,8,43,08,F0,28,10,00,80,42,
0,0000031A,false,Rx,0,8,3D,09,00,3D,09,00,00,00,
0,00000220,false,Rx,0,8,10,0E,10,11,10,0C,00,00,
0,0000031B,false,Rx,0,8,3D,09,00,3D,09,00,00,00,
0,0000031C,false,Rx,0,8,01,90,01,90,00,00,00,00,
0,0000031D,false,Rx,0,8,86,00,00,00,00,00,02,00,
0,0000031E,false,Rx,0,8,00,00,00,00,00,00,00,00,
0,0000031F,false,Rx,0,8,01,F4,01,F4,01,F4,00,00,
0,00000324,false,Rx,0,8,00,00,00,00,05,14,01,9C,
0,00000355,false,Rx,0,8,40,00,00,00,48,48,40,00,
0,00000357,false,Rx,0,8,00,00,02,17,01,63,01,2C,
0,000003D0,false,Rx,0,8,00,FF,FE,FF,FE,0D,00,00,
0,000000B4,false,Rx,0,7,00,00,00,00,00,90,1D,00,
0,000000F0,false,Rx,0,8,00,00,10,00,80,00,90,CF,
0,000000F2,false,Rx,0,8,00,00,00,00,00,00,90,E1,
0,00000108,false,Rx,0,8,38,71,38,3D,09,00,90,34,
0,00000160,false,Rx,0,8,00,00,00,46,0F,FF,D0,C8,
0,00000175,false,Rx,0,8,00,00,00,2E,00,00,90,5E,
0,000001D7,false,Rx,0,8,00,00,00,00,00,00,90,E1,
0,000001D8,false,Rx,0,8,00,00,00,00,E0,06,D3,F0,
0,00000212,false,Rx,0,8,00,00,00,00,00,00,D7,A1,
0,00000107,false,Rx,0,8,00,00,00,00,00,00,00,00,
0,000000F4,false,Rx,0,8,80,00,00,46,45,00,51,7C,
0,00000095,false,Rx,0,8,3A,98,0A,8B,09,0E,10,1B,
0,000000F5,false,Rx,0,8,00,06,40,00,10,00,50,DA,
0,000000F6,false,Rx,0,8,1C,F8,03,08,00,08,50,68,
0,000000F7,false,Rx,0,8,42,12,00,05,80,00,55,52,
0,00000150,false,Rx,0,8,00,00,00,00,00,00,10,C7,
0,00000106,false,Rx,0,8,00,4E,20,00,00,00,00,00,
0,0000015A,false,Rx,0,4,00,00,0D,70,00,00,00,00,
0,000000B4,false,Rx,0,7,00,00,00,00,00,A0,57,00,
0,000000F0,false,Rx,0,8,00,00,10,00,80,00,A0,85,
0,000000F2,false,Rx,0,8,00,00,00,00,00,00,A0,AB,
0,00000108,false,Rx,0,8,38,71,38,3D,09,00,A0,7E,
0,00000175,false,Rx,0,8,00,00,00,2E,00,00,A0,14,
0,000001D7,false,Rx,0,8,00,00,00,00,00,00,A0,AB,
0,00000166,false,Rx,0,8,00,00,03,32,9B,57,30,49,
0,000000F4,false,Rx,0,8,80,00,00,46,45,00,61,36,
0,000000F5,false,Rx,0,8,00,06,40,00,10,00,60,90,
0,000000F6,false,Rx,0,8,1C,F8,03,08,00,0B,60,F6,
0,000000F7,false,Rx,0,8,42,12,00,05,80,00,65,18,
0,00000104,false,Rx,0,8,FF,FF,00,2C,00,00,30,24,
0,00000164,false,Rx,0,8,10,00,1C,FA,03,05,30,4D,
0,00000284,false,Rx,0,8,51,28,28,00,00,00,00,00,
0,000003EC,false,Rx,0,8,00,00,00,00,00,05,50,B5,
0,00000095,false,Rx,0,8,3A,98,0A,8B,09,0E,20,51,
0,000000E0,false,Rx,0,8,00,00,00,00,00,00,00,00,
0,00000107,false,Rx,0,8,00,00,00,00,00,00,00,00,
0,0000015A,false,Rx,0,4,00,00,0E,57,00,00,00,00,
0,00000150,false,Rx,0,8,00,00,00,00,00,00,20,8D,
0,000001D0,false,Rx,0,8,43,08,F0,28,10,00,90,8F,
0,00000220,false,Rx,0,8,10,0E,10,11,10,0C,00,00,
0,00000281,false,Rx,0,8,1F,FF,1F,FF,1F,FF,00,00,
0,00000285,false,Rx,0,8,1F,FF,1F,FF,1F,FF,00,00,
0,00000306,false,Rx,0,8,00,00,E7,F7,EE,EC,8E,F5,
0,00000307,false,Rx,0,8,41,42,00,00,42,00,43,00,
0,00000354,false,Rx,0,8,00,00,5F,0A,10,68,08,FC,
0,00000356,false,Rx,0,8,00,00,00,00,00,00,0A,BE,
0,00000358,false,Rx,0,8,01,00,00,00,00,00,20,D0,
0,00000359,false,Rx,0,8,00,00,0C,A3,01,45,00,00,
0,000003E8,false,Rx,0,8,00,00,00,00,00,00,00,00,
0,000003EA,false,Rx,0,8,4B,00,00,00,83,00,50,73,
0,000003EB,false,Rx,0,8,02,00,00,07,00,00,50,9A,
0,000003ED,false,Rx,0,8,FF,43,00,00,00,00,50,BB,
0,000000B4,false,Rx,0,7,00,00,00,00,00,B0,9A,00,
0,000000F0,false,Rx,0,8,00,00,10,00,80,00,B0,48,
0,000000F2,false,Rx,0,8,00,00,00,00,00,00,B0,66,
0,00000108,false,Rx,0,8,38,71,38,3D,09,00,B0,B3,
0,00000160,false,Rx,0,8,00,00,00,46,0F,FF,E0,82,
0,00000175,false,Rx,0,8,00,00,00,2E,00,00,B0,D9,
0,000001D7,false,Rx,0,8,00,00,00,00,00,00,B0,66,
0,000001D8,false,Rx,0,8,00,00,00,00,E0,06,E3,BA,
0,00000212,false,Rx,0,8,00,00,00,00,00,00,E7,EB,
0,00000107,false,Rx,0,8,00,00,00,00,00,00,00,00,
0,000000F4,false,Rx,0,8,80,00,00,46,45,00,71,FB,
0,00000095,false,Rx,0,8,3A,98,0A,8B,09,0B,30,FD,
0,000000F5,false,Rx,0,8,00,06,40,00,10,00,70,5D,
0,000000F6,false,Rx,0,8,1C,F8,03,08,00,0B,70,3B,
0,000000F7,false,Rx,0,8,42,12,00,05,80,00,75,D5,
0,00000150,false,Rx,0,8,00,00,00,00,00,00,30,40,
0,0000015A,false,Rx,0,4,00,00,0F,4A,00,00,00,00,
0,000000B4,false,Rx,0,7,00,00,00,00,00,C0,C3,00,
0,000000F0,false,Rx,0,8,00,00,10,00,80,00,C0,11,
0,000000F2,false,Rx,0,8,00,00,00,00,00,00,C0,3F,
0,00000108,false,Rx,0,8,38,71,38,3D,09,00,C0,EA,
0,00000175,false,Rx,0,8,00,00,00,2E,00,00,C0,80,
0,000001D7,false,Rx,0,8,00,00,00,00,00,00,C0,3F,
0,00000166,false,Rx,0,8,00,00,04,32,9B,57,40,1B,
0,000000F4,false,Rx,0,8,80,00,00,46,45,00,81,84,
0,000000F5,false,Rx,0,8,00,06,40,00,10,00,80,22,
0,000000F6,false,Rx,0,8,1C,F8,03,08,00,0E,80,25,
0,000000F7,false,Rx,0,8,42,12,00,05,80,00,85,AA,
0,00000104,false,Rx,0,8,FF,FF,00,2C,00,00,40,7D,
0,00000107,false,Rx,0,8,00,00,00,00,00,00,00,00,
0,00000164,false,Rx,0,8,10,00,1C,F9,03,06,40,7A,
0,00000095,false,Rx,0,8,3A,98,0A,8B,09,0B,40,A4,
0,00000106,false,Rx,0,8,00,4E,20,00,00,00,00,00,
0,000000E0,false,Rx,0,8,00,00,00,00,00,00,00,00,
0,00000150,false,Rx,0,8,00,00,00,00,00,00,40,19,
0,0000015A,false,Rx,0,4,00,00,00,F1,00,00,00,00,
0,000001D0,false,Rx,0,8,43,08,F0,28,10,00,A0,C5,
0,00000220,false,Rx,0,8,10,0E,10,11,10,0C,00,00,
0,000000B4,false,Rx,0,7,00,00,00,00,00,D0,0E,00,
0,000000F0,false,Rx,0,8,00,00,10,00,80,00,D0,DC,
0,000000F2,false,Rx,0,8,00,00,00,00,00,00,D0,F2,
0,00000108,false,Rx,0,8,38,71,38,3D,09,00,D0,27,
0,0000015A,false,Rx,0,4,00,00,01,EC,00,00,00,00,
0,00000160,false,Rx,0,8,00,00,00,46,0F,FF,F0,4F,
0,00000175,false,Rx,0,8,00,00,00,2E,00,00,D0,4D,
0,000001D7,false,Rx,0,8,00,00,00,00,00,00,D0,F2,
0,000001D8,false,Rx,0,8,00,00,00,00,E0,06,F3,77,
0,00000212,false,Rx,0,8,00,00,00,00,00,00,F7,26,
0,00000234,false,Rx,0,8,D2,84,01,4A,00,0E,01,63,
0,000000F4,false,Rx,0,8,80,00,00,46,45,00,91,49,
0,000000F5,false,Rx,0,8,00,06,40,00,10,00,90,EF,
0,000000F6,false,Rx,0,8,1C,F8,03,08,00,0E,90,E8,
0,000000F7,false,Rx,0,8,42,12,00,05,80,00,95,67,
0,00000107,false,Rx,0,8,00,00,00,00,00,00,00,00,
0,00000235,false,Rx,0,8,09,C6,00,36,07,CA,05,D3,
0,00000095,false,Rx,0,8,3A,98,0A,8B,09,0B,50,69,
0,00000240,false,Rx,0,8,00,00,00,00,00,00,0F,FF,
0,00000150,false,Rx,0,8,00,00,00,00,00,00,50,D4,
0,00000242,false,Rx,0,8,DD,00,00,00,00,00,00,00,
0,00000282,false,Rx,0,8,00,00,00,05,00,00,00,01,
0,00000280,false,Rx,0,8,00,00,00,00,00,00,00,00,
0,0000015A,false,Rx,0,4,00,00,02,CB,00,00,00,00,
0,000002A4,false,Rx,0,8,00,0A,00,00,F5,0A,00,00,
0,000002A5,false,Rx,0,6,00,00,01,40,00,00,00,00,
0,000002D0,false,Rx,0,8,FF,FF,FF,7F,FF,FF,00,00,
0,000002D2,false,Rx,0,8,FF,FF,FF,FF,FF,FF,00,00,
0,00000301,false,Rx,0,8,00,00,00,00,00,00,70,53,
0,00000320,false,Rx,0,8,5E,9A,C0,3E,2D,9F,01,A0,
0,00000321,false,Rx,0,8,6A,CF,C0,03,1B,01,7F,00,
0,00000322,false,Rx,0,8,00,00,01,F5,01,00,00,00,
0,00000323,false,Rx,0,8,00,00,25,00,00,00,00,00,
0,000003E0,false,Rx,0,8,03,00,00,00,00,00,00,00,
0,000003E7,false,Rx,0,8,00,00,00,00,00,00,00,00,
0,000003EE,false,Rx,0,8,00,00,28,00,00,00,00,40,
0,000000B4,false,Rx,0,7,00,00,00,00,00,E0,44,00,
0,000000F0,false,Rx,0,8,00,00,10,00,80,00,E0,96,
0,000000F2,false,Rx,0,8,00,00,00,00,00,00,E0,B8,
0,00000108,false,Rx,0,8,38,71,38,3D,09,00,E0,6D,
0,00000175,false,Rx,0,8,00,00,00,2E,00,00,E0,07,
0,000001D7,false,Rx,0,8,00,00,00,00,00,00,E0,B8,
0,00000166,false,Rx,0,8,00,00,05,32,9B,57,50,BC,
0,000000F4,false,Rx,0,8,80,00,00,46,45,00,A1,03,
0,000000F5,false,Rx,0,8,00,06,40,00,10,00,A0,A5,
0,000000F6,false,Rx,0,8,1C,F8,03,08,00,11,A0,B5,
0,000000F7,false,Rx,0,8,42,12,00,05,80,00,A5,2D,
0,00000104,false,Rx,0,8,FF,FF,00,2C,00,00,50,B0,
0,00000107,false,Rx,0,8,00,00,00,00,00,00,00,00,
0,00000164,false,Rx,0,8,10,00,1C,B2,03,29,50,D3,
0,00000095,false,Rx,0,8,3A,98,0A,8B,09,0B,60,23,
0,000000E0,false,Rx,0,8,00,00,00,00,00,00,00,00,
0,00000150,false,Rx,0,8,00,00,00,00,00,00,60,9E,
0,000001D0,false,Rx,0,8,43,08,F0,28,10,00,B0,08,
0,0000015A,false,Rx,0,4,00,00,03,D6,00,00,00,00,
0,00000220,false,Rx,0,8,10,0E,10,11,10,0C,00,00,
0,00000106,false,Rx,0,8,00,4E,20,00,00,00,00,00,
0,000000B4,false,Rx,0,7,00,00,00,00,00,F0,89,00,
0,000000F0,false,Rx,0,8,00,00,10,00,80,00,F0,5B,
0,000000F2,false,Rx,0,8,00,00,00,00,00,00,F0,75,
0,00000108,false,Rx,0,8,38,71,38,3D,09,00,F0,A0,
0,00000160,false,Rx,0,8,00,00,00,46,0F,FF,00,30,
0,00000175,false,Rx,0,8,00,00,00,2E,00,00,F0,CA,
0,000001D7,false,Rx,0,8,00,00,00,00,00,00,F0,75,
0,000001D8,false,Rx,0,8,00,00,00,00,E0,06,03,08,
0,00000212,false,Rx,0,8,00,00,00,00,00,00,07,59,
0,000000F4,false,Rx,0,8,80,00,00,46,45,00,B1,CE,
0,000000F5,false,Rx,0,8,00,06,40,00,10,00,B0,68,
0,000000F6,false,Rx,0,8,1C,F8,03,08,00,11,B0,78,
0,000000F7,false,Rx,0,8,42,12,00,05,80,00,B5,E0,
0,00000107,false,Rx,0,8,00,00,00,00,00,00,00,00,
0,00000095,false,Rx,0,8,3A,98,0A,8B,09,0B,70,EE,
0,00000150,false,Rx,0,8,00,00,00,00,00,20,70,26,
0,0000015A,false,Rx,0,4,00,00,04,85,00,00,00,00,
0,000000B4,false,Rx,0,7,00,00,00,00,00,00,F6,00,
0,000000F0,false,Rx,0,8,00,00,10,00,80,00,00,24,
0,000000F2,false,Rx,0,8,00,00,00,00,00,00,00,0A,
0,00000108,false,Rx,0,8,38,71,38,3D,09,00,00,DF,
0,00000175,false,Rx,0,8,00,00,00,2E,00,00,00,B5,
0,000001D7,false,Rx,0,8,00,00,00,00,00,00,00,0A,
0,00000166,false,Rx,0,8,00,00,06,32,9B,57,60,48,
0,000000F4,false,Rx,0,8,80,00,00,46,45,00,C1,97,
0,000000F5,false,Rx,0,8,00,06,40,00,10,00,C0,31,
0,000000F6,false,Rx,0,8,1C,F8,03,08,00,14,C0,40,
0,000000F7,false,Rx,0,8,42,12,00,05,80,00,C5,B9,
0,00000104,false,Rx,0,8,FF,FF,00,2D,00,00,60,67,
0,00000107,false,Rx,0,8,00,00,00,00,00,00,00,00,
0,00000164,false,Rx,0,8,10,00,1A,9F,04,16,60,15,
0,00000095,false,Rx,0,8,3A,98,0A,8B,09,0B,80,91,
0,000000E0,false,Rx,0,8,00,00,00,00,00,00,00,00,
0,00000150,false,Rx,0,8,00,00,00,00,00,20,80,59,
0,000001D0,false,Rx,0,8,43,08,F0,28,10,00,C0,51,
0,0000015A,false,Rx,0,4,00,00,05,98,00,00,00,00,
0,00000220,false,Rx,0,8,10,0E,10,11,10,0C,00,00,
0,000000B4,false,Rx,0,7,00,00,00,00,00,10,3B,00,
0,000000F0,false,Rx,0,8,00,00,10,00,80,00,10,E9,
0,000000F2,false,Rx,0,8,00,00,00,00,00,00,10,C7,
0,00000108,false,Rx,0,8,38,71,38,3D,09,00,10,12,
0,00000160,false,Rx,0,8,00,00,00,46,0F,FF,10,FD,
0,00000175,false,Rx,0,8,00,00,00,2E,00,00,10,78,
0,000001D7,false,Rx,0,8,00,00,00,00,00,00,10,C7,
0,000001D8,false,Rx,0,8,00,00,00,00,E0,06,13,C5,
0,00000212,false,Rx,0,8,00,00,00,00,00,00,17,94,
0,000000F4,false,Rx,0,8,80,00,00,46,45,00,D1,5A,
0,000000F5,false,Rx,0,8,00,06,40,00,10,00,D0,FC,
0,000000F6,false,Rx,0,8,1C,F8,03,08,00,14,D0,8D,
0,000000F7,false,Rx,0,8,42,12,00,05,80,00,D5,74,
0,00000107,false,Rx,0,8,00,00,00,00,00,00,00,00,
0,00000095,false,Rx,0,8,3A,98,0A,8B,09,0B,90,5C,
0,00000150,false,Rx,0,8,00,00,00,00,00,20,90,94,
0,0000015A,false,Rx,0,4,00,00,06,BF,00,00,00,00,
0,00000235,false,Rx,0,8,09,C6,00,36,07,CA,05,D3,
0,00000106,false,Rx,0,8,00,4E,20,00,00,00,00,00,
0,0000031A,false,Rx,0,8,3D,09,00,3D,09,00,00,00,
0,00000115,false,Rx,0,8,00,00,00,00,46,46,06,39,
0,000000B4,false,Rx,0,7,00,00,00,00,00,20,71,00,
0,000000F0,false,Rx,0,8,00,00,10,00,80,00,20,A3,
0,000000F2,false,Rx,0,8,00,00,00,00,00,00,20,8D,
0,00000108,false,Rx,0,8,38,71,38,3D,09,00,20,58,
0,00000175,false,Rx,0,8,00,00,00,2E,00,00,20,32,
0,000001D7,false,Rx,0,8,00,00,00,00,00,00,20,8D,
0,00000234,false,Rx,0,8,D3,84,01,48,00,0E,01,63,
0,00000308,false,Rx,0,8,00,00,00,00,08,00,39,F4,
0,00000240,false,Rx,0,8,00,00,00,00,00,00,0F,FF,
0,00000166,false,Rx,0,8,00,00,07,32,9B,57,70,EF,
0,000000F4,false,Rx,0,8,80,00,00,46,45,00,E1,10,
0,000000F5,false,Rx,0,8,00,06,40,00,10,00,E0,B6,
0,000000F6,false,Rx,0,8,1C,F8,03,08,00,16,E0,5F,
0,000000F7,false,Rx,0,8,42,12,00,05,80,00,E5,3E,
0,00000104,false,Rx,0,8,FF,FF,00,2C,00,00,70,37,
0,00000107,false,Rx,0,8,00,00,00,00,00,00,00,00,
0,00000164,false,Rx,0,8,10,00,18,CA,05,F6,70,B7,
0,00000095,false,Rx,0,8,3A,98,0A,8B,09,0B,A0,16,
0,00000242,false,Rx,0,8,DD,00,00,00,00,00,00,00,
0,000000E0,false,Rx,0,8,00,00,00,00,00,00,00,00,
0,00000309,false,Rx,0,8,00,00,00,00,00,00,00,20,
0,00000150,false,Rx,0,8,00,00,00,00,00,20,A0,DE,
0,0000015A,false,Rx,0,4,00,00,07,A2,00,00,00,00,
0,000001D0,false,Rx,0,8,43,08,F0,28,10,00,D0,9C,
0,0000031B,false,Rx,0,8,3D,09,00,3D,09,00,00,00,
0,00000220,false,Rx,0,8,10,0E,10,11,10,0C,00,00,
0,0000031C,false,Rx,0,8,01,90,01,90,00,00,00,00,
0,0000031D,false,Rx,0,8,86,00,00,00,00,00,02,00,
0,0000031E,false,Rx,0,8,00,00,00,00,00,00,00,00,
0,0000031F,false,Rx,0,8,01,F4,01,F4,01,F4,00,00,
0,00000324,false,Rx,0,8,00,00,00,00,06,EE,01,9D,
0,00000357,false,Rx,0,8,00,00,02,17,01,63,01,2C,
0,000000B4,false,Rx,0,7,00,00,00,00,00,30,BC,00,
0,000000F0,false,Rx,0,8,00,00,10,00,80,00,30,6E,
0,000000F2,false,Rx,0,8,00,00,00,00,00,00,30,40,
0,00000108,false,Rx,0,8,38,71,38,3D,09,00,30,95,
0,00000160,false,Rx,0,8,00,00,00,46,0F,FF,20,B7,
0,00000175,false,Rx,0,8,00,00,00,2E,00,00,30,FF,
0,000001D7,false,Rx,0,8,00,00,00,00,00,00,30,40,
0,000001D8,false,Rx,0,8,00,00,00,00,E0,06,23,8F,
0,00000212,false,Rx,0,8,00,00,00,00,00,00,27,DE,
0,00000107,false,Rx,0,8,00,00,00,00,00,00,00,00,
0,000000F4,false,Rx,0,8,80,00,00,46,45,00,F1,DD,
0,00000095,false,Rx,0,8,3A,98,0A,8B,09,0B,B0,DB,
0,000000F5,false,Rx,0,8,00,06,40,00,10,00,F0,7B,
0,000000F6,false,Rx,0,8,1C,F8,03,08,00,16,F0,92,
0,000000F7,false,Rx,0,8,42,12,00,05,80,00,F5,F3,
0,00000150,false,Rx,0,8,00,00,00,00,00,20,B0,13,
0,0000015A,false,Rx,0,4,00,00,08,19,00,00,00,00,
0,000000B4,false,Rx,0,7,00,00,00,00,00,40,E5,00,
0,000000F0,false,Rx,0,8,00,00,10,00,80,00,40,37,
0,000000F2,false,Rx,0,8,00,00,00,00,00,00,40,19,
0,00000108,false,Rx,0,8,38,71,38,3D,09,00,40,CC,
0,00000175,false,Rx,0,8,00,00,00,2E,00,00,40,A6,
0,000001D7,false,Rx,0,8,00,00,00,00,00,00,40,19,
0,00000166,false,Rx,0,8,00,00,08,32,9B,57,80,EC,
0,000000F4,false,Rx,0,8,80,00,00,46,45,00,01,A2,
0,000000F5,false,Rx,0,8,00,06,40,00,10,00,00,04,
0,000000F6,false,Rx,0,8,1C,F8,03,08,00,19,00,4E,
0,000000F7,false,Rx,0,8,42,12,00,05,80,00,05,8C,
0,00000104,false,Rx,0,8,FF,FF,00,2B,00,00,80,BC,
0,00000164,false,Rx,0,8,10,00,17,5A,07,8B,80,B7,
0,00000284,false,Rx,0,8,51,28,28,00,00,00,00,00,
0,000003EC,false,Rx,0,8,00,00,00,00,00,05,60,FF,
0,00000095,false,Rx,0,8,3A,98,0A,8B,09,0B,C0,82,
0,000000E0,false,Rx,0,8,00,00,00,00,00,00,00,00,
0,00000107,false,Rx,0,8,00,00,00,00,00,00,00,00,
0,0000015A,false,Rx,0,4,00,00,09,04,00,00,00,00,
0,00000150,false,Rx,0,8,00,00,00,00,00,20,C0,4A,
0,000001D0,false,Rx,0,8,43,08,F0,28,10,00,E0,D6,
0,00000220,false,Rx,0,8,10,0E,10,11,10,0C,00,00,
0,00000281,false,Rx,0,8,1F,FF,1F,FF,1F,FF,00,00,
0,00000285,false,Rx,0,8,1F,FF,1F,FF,1F,FF,00,00,
0,00000306,false,Rx,0,8,00,00,E7,F7,EE,EC,8E,F5,
0,00000307,false,Rx,0,8,41,42,00,00,42,00,43,00,
0,000003E8,false,Rx,0,8,00,00,00,00,00,00,00,00,
0,000003EA,false,Rx,0,8,4D,00,00,00,83,00,60,EA,
0,000003EB,false,Rx,0,8,02,00,00,07,00,00,60,D0,
0,000003ED,false,Rx,0,8,FF,43,00,00,00,00,60,F1,
0,00000106,false,Rx,0,8,00,4E,20,00,00,00,00,00,
0,000000B4,false,Rx,0,7,00,00,00,00,00,50,28,00,
0,000000F0,false,Rx,0,8,00,00,10,00,80,00,50,FA,
0,000000F2,false,Rx,0,8,00,00,00,00,00,00,50,D4,
0,00000108,false,Rx,0,8,38,71,38,3D,09,00,50,01,
0,00000160,false,Rx,0,8,00,00,00,46,0F,FF,30,7A,
0,00000175,false,Rx,0,8,00,00,00,2E,00,00,50,6B,
0,000001D7,false,Rx,0,8,00,00,00,00,00,00,50,D4,
0,000001D8,false,Rx,0,8,00,00,00,00,E0,06,33,42,
0,00000212,false,Rx,0,8,00,00,00,00,00,00,37,13,
0,00000107,false,Rx,0,8,00,00,00,00,00,00,00,00,
0,000000F4,false,Rx,0,8,80,00,00,46,45,00,11,6F,
0,00000095,false,Rx,0,8,3A,98,0A,8B,09,0E,D0,2E,
0,000000F5,false,Rx,0,8,00,06,40,00,10,00,10,C9,
0,000000F6,false,Rx,0,8,1C,F8,03,08,00,19,10,83,
0,000000F7,false,Rx,0,8,42,12,00,05,80,00,15,41,
0,00000150,false,Rx,0,8,00,00,00,00,00,20,D0,87,
0,0000015A,false,Rx,0,4,00,00,0A,23,00,00,00,00,
0,000000B4,false,Rx,0,7,00,00,00,00,00,60,62,00,
0,000000F0,false,Rx,0,8,00,00,10,00,80,00,60,B0,
0,000000F2,false,Rx,0,8,00,00,00,00,00,00,60,9E,
0,00000108,false,Rx,0,8,38,71,38,3D,09,00,60,4B,
0,00000175,false,Rx,0,8,00,00,00,2E,00,00,60,21,
0,000001D7,false,Rx,0,8,00,00,00,00,00,00,60,9E,
0,00000166,false,Rx,0,8,00,00,09,32,9B,57,90,4B,
0,000000F4,false,Rx,0,8,80,00,00,46,45,00,21,25,
0,000000F5,false,Rx,0,8,00,06,40,00,10,00,20,83,
0,000000F6,false,Rx,0,8,1C,F8,03,08,00,1C,20,A8,
0,000000F7,false,Rx,0,8,42,12,00,05,80,00,25,0B,
0,00000104,false,Rx,0,8,FF,FF,00,2C,00,00,90,85,
0,00000107,false,Rx,0,8,00,00,00,00,00,00,00,00,
0,00000164,false,Rx,0,8,10,00,16,49,08,B5,90,27,
0,00000095,false,Rx,0,8,3A,98,0A,8B,09,0E,E0,64,
0,000000E0,false,Rx,0,8,00,00,00,00,00,00,00,00,
0,00000150,false,Rx,0,8,00,00,00,00,00,20,E0,CD,
0,000001D0,false,Rx,0,8,43,08,F0,28,10,00,F0,1B,
0,0000015A,false,Rx,0,4,00,00,0B,3E,00,00,00,00,
0,00000220,false,Rx,0,8,10,0E,10,11,10,0C,00,00,
0,00000235,false,Rx,0,8,09,C6,00,36,07,CA,05,D3,
0,000000B4,false,Rx,0,7,00,00,00,00,00,70,AF,00,
0,000000F0,false,Rx,0,8,00,00,10,00,80,00,70,7D,
0,000000F2,false,Rx,0,8,00,00,00,00,00,00,70,53,
0,00000108,false,Rx,0,8,38,71,38,3D,09,00,70,86,
0,00000160,false,Rx,0,8,00,00,00,46,0F,FF,40,23,
0,00000175,false,Rx,0,8,00,00,00,2E,00,00,70,EC,
0,000001D7,false,Rx,0,8,00,00,00,00,00,00,70,53,
0,000001D8,false,Rx,0,8,00,00,00,00,E0,06,43,1B,
0,00000212,false,Rx,0,8,00,00,00,00,00,00,47,4A,
0,00000234,false,Rx,0,8,D5,84,01,49,00,0E,01,63,
0,00000282,false,Rx,0,8,00,00,00,05,00,00,00,01,
0,000000F4,false,Rx,0,8,80,00,00,46,45,00,31,E8,
0,000000F5,false,Rx,0,8,00,06,40,00,10,00,30,4E,
0,000000F6,false,Rx,0,8,1C,F8,03,08,00,1C,30,65,
0,000000F7,false,Rx,0,8,42,12,00,05,80,00,35,C6,
0,00000107,false,Rx,0,8,00,00,00,00,00,00,00,00,
0,00000240,false,Rx,0,8,00,00,00,00,00,00,0F,FF,
0,00000095,false,Rx,0,8,3A,98,0A,8B,09,0E,F0,A9,
0,00000242,false,Rx,0,8,DD,00,00,00,00,00,00,00,
0,00000150,false,Rx,0,8,00,00,00,00,00,20,F0,00,
0,00000280,false,Rx,0,8,00,00,00,00,00,00,00,00,
0,0000015A,false,Rx,0,4,00,00,0C,6D,00,00,00,00,
0,000002A4,false,Rx,0,8,00,0A,00,00,F5,0A,00,00,
0,000002A5,false,Rx,0,6,00,00,01,40,00,00,00,00,
0,000002D0,false,Rx,0,8,FF,FF,FF,7F,FF,FF,00,00,
0,000002D2,false,Rx,0,8,FF,FF,FF,FF,FF,FF,00,00,
0,00000301,false,Rx,0,8,00,00,00,00,00,00,80,2C,
0,00000320,false,Rx,0,8,5E,9A,C0,3E,2D,9F,01,A0,
0,00000321,false,Rx,0,8,6A,CF,C0,03,1B,01,7F,00,
0,00000322,false,Rx,0,8,00,00,01,F5,01,00,00,00,
0,00000323,false,Rx,0,8,00,00,25,00,00,00,00,00,
0,000003E0,false,Rx,0,8,03,00,00,00,00,00,00,00,
0,000003E7,false,Rx,0,8,00,00,00,00,00,00,00,00,
0,000003EE,false,Rx,0,8,00,00,28,00,00,00,00,40,
0,000000B4,false,Rx,0,7,00,00,00,00,00,80,D0,00,
0,000000F0,false,Rx,0,8,00,00,10,00,80,00,80,02,
0,000000F2,false,Rx,0,8,00,00,00,00,00,00,80,2C,
0,00000108,false,Rx,0,8,38,71,38,3D,09,00,80,F9,
0,00000175,false,Rx,0,8,00,00,00,2E,00,00,80,93,
0,000001D7,false,Rx,0,8,00,00,00,00,00,00,80,2C,
0,00000107,false,Rx,0,8,00,00,00,00,00,00,00,00,
0,000000F4,false,Rx,0,8,80,00,00,46,45,00,41,B1,
0,00000095,false,Rx,0,8,3A,98,0A,8B,09,0E,00,D6,
0,000000F5,false,Rx,0,8,00,06,40,00,10,00,40,17,
0,000000E0,false,Rx,0,8,00,00,00,00,00,00,00,00,
0,000000F6,false,Rx,0,8,1C,F8,03,08,00,1F,40,E8,
0,000000F7,false,Rx,0,8,42,12,00,05,80,00,45,9F,
0,00000104,false,Rx,0,8,FF,FF,00,2C,00,00,A0,CF,
0,00000150,false,Rx,0,8,00,00,00,00,00,20,00,7F,
0,00000164,false,Rx,0,8,10,00,15,90,09,A9,A0,1A,
0,00000166,false,Rx,0,8,00,00,0A,32,9B,57,A0,BF,
0,000001D0,false,Rx,0,8,43,08,F0,28,10,00,00,64,
0,0000015A,false,Rx,0,4,00,00,0D,70,00,00,00,00,
0,00000220,false,Rx,0,8,10,0E,10,11,10,0C,00,00,
0,00000106,false,Rx,0,8,00,4E,20,00,00,00,00,00,
0,000000B4,false,Rx,0,7,00,00,00,00,00,90,1D,00,
0,000000F0,false,Rx,0,8,00,00,10,00,80,00,90,CF,
0,000000F2,false,Rx,0,8,00,00,00,00,00,00,90,E1,
0,00000108,false,Rx,0,8,38,71,38,3D,09,00,90,34,
0,00000160,false,Rx,0,8,00,00,00,46,0F,FF,50,EE,
0,00000175,false,Rx,0,8,00,00,00,2E,00,00,90,5E,
0,000001D7,false,Rx,0,8,00,00,00,00,00,00,90,E1,
0,000001D8,false,Rx,0,8,00,00,00,00,E0,06,53,D6,
0,00000212,false,Rx,0,8,00,00,00,00,00,00,57,87,
0,000000F4,false,Rx,0,8,80,00,00,46,45,00,51,7C,
0,000000F5,false,Rx,0,8,00,06,40,00,10,00,50,DA,
0,000000F6,false,Rx,0,8,1C,F8,03,08,00,1F,50,25,
0,000000F7,false,Rx,0,8,42,12,00,05,80,00,55,52,
0,00000107,false,Rx,0,8,00,00,00,00,00,00,00,00,
0,00000095,false,Rx,0,8,3A,98,0A,8B,09,0E,10,1B,
0,00000150,false,Rx,0,8,00,00,00,00,00,20,10,B2,
0,0000015A,false,Rx,0,4,00,00,0E,57,00,00,00,00,
0,000000B4,false,Rx,0,7,00,00,00,00,00,A0,57,00,
0,000000F0,false,Rx,0,8,00,00,10,00,80,00,A0,85,
0,000000F2,false,Rx,0,8,00,00,00,00,00,00,A0,AB,
0,00000108,false,Rx,0,8,38,71,38,3D,09,00,A0,7E,
0,00000175,false,Rx,0,8,00,00,00,2E,00,00,A0,14,
0,000001D7,false,Rx,0,8,00,00,00,00,00,00,A0,AB,
0,00000166,false,Rx,0,8,00,00,0B,32,9B,57,B0,18,
0,000000F4,false,Rx,0,8,80,00,00,46,45,00,61,36,
0,000000F5,false,Rx,0,8,00,06,40,00,10,00,60,90,
0,000000F6,false,Rx,0,8,1C,F8,03,08,00,22,60,95,
0,000000F7,false,Rx,0,8,42,12,00,05,80,00,65,18,
0,00000104,false,Rx,0,8,FF,FF,00,2E,00,00,B0,25,
0,00000107,false,Rx,0,8,00,00,00,00,00,00,00,00,
0,00000164,false,Rx,0,8,10,00,15,01,0A,4D,B0,AD,
0,00000095,false,Rx,0,8,3A,98,0A,8B,09,0E,20,51,
0,000000E0,false,Rx,0,8,00,00,00,00,00,00,00,00,
0,00000150,false,Rx,0,8,00,00,00,00,00,20,20,F8,
0,000001D0,false,Rx,0,8,43,08,F0,28,10,00,10,A9,
0,0000015A,false,Rx,0,4,00,00,0F,4A,00,00,00,00,
0,00000220,false,Rx,0,8,10,0E,10,11,10,0C,00,00,
0,00000106,false,Rx,0,8,00,4E,20,00,00,00,00,00,
0,000000B4,false,Rx,0,7,00,00,00,00,00,B0,9A,00,
0,000000F0,false,Rx,0,8,00,00,10,00,80,00,B0,48,
0,000000F2,false,Rx,0,8,00,00,00,00,00,00,B0,66,
0,00000108,false,Rx,0,8,38,71,38,3D,09,00,B0,B3,
0,00000160,false,Rx,0,8,00,00,00,46,0F,FF,60,A4,
0,00000175,false,Rx,0,8,00,00,00,2E,00,00,B0,D9,
0,000001D7,false,Rx,0,8,00,00,00,00,00,00,B0,66,
0,000001D8,false,Rx,0,8,00,00,00,00,E0,06,63,9C,
0,00000212,false,Rx,0,8,00,00,00,00,00,00,67,CD,
0,000000F4,false,Rx,0,8,80,00,00,46,45,00,71,FB,
0,000000F5,false,Rx,0,8,00,06,40,00,10,00,70,5D,
0,000000F6,false,Rx,0,8,1C,F8,03,08,00,22,70,58,
0,000000F7,false,Rx,0,8,42,12,00,05,80,00,75,D5,
0,00000107,false,Rx,0,8,00,00,00,00,00,00,00,00,
0,00000095,false,Rx,0,8,3A,98,0A,8B,09,0E,30,9C,
0,00000150,false,Rx,0,8,00,00,00,00,00,20,30,35,
0,0000015A,false,Rx,0,4,00,00,00,F1,00,00,00,00,
0,00000235,false,Rx,0,8,09,C0,00,3A,07,CA,05,D3,
0,0000031A,false,Rx,0,8,3D,09,00,3D,09,00,00,00,
0,000000B4,false,Rx,0,7,00,00,00,00,00,C0,C3,00,
0,000000F0,false,Rx,0,8,00,00,10,00,80,00,C0,11,
0,000000F2,false,Rx,0,8,00,00,00,00,00,00,C0,3F,
0,00000108,false,Rx,0,8,38,71,38,3D,09,00,C0,EA,
0,0000015A,false,Rx,0,4,00,00,01,EC,00,00,00,00,
0,000001D7,false,Rx,0,8,00,00,00,00,00,00,C0,3F,
0,00000175,false,Rx,0,8,00,00,00,2E,00,00,C0,80,
0,00000309,false,Rx,0,8,00,00,00,00,00,00,00,20,
0,00000234,false,Rx,0,8,D6,84,01,4A,00,0E,01,63,
0,00000115,false,Rx,0,8,00,00,00,00,47,47,07,39,
0,000000F4,false,Rx,0,8,80,00,00,46,45,00,81,84,
0,000000F5,false,Rx,0,8,00,06,40,00,10,00,80,22,
0,000000F6,false,Rx,0,8,1C,F8,03,08,00,25,80,DE,
0,000000F7,false,Rx,0,8,42,12,00,05,80,00,85,AA,
0,00000104,false,Rx,0,8,FF,FF,00,2C,00,00,C0,5B,
0,00000107,false,Rx,0,8,00,00,00,00,00,00,00,00,
0,00000164,false,Rx,0,8,10,00,14,79,0A,CB,C0,85,
0,00000095,false,Rx,0,8,3A,98,0A,8B,09,0E,40,C5,
0,00000166,false,Rx,0,8,00,00,0C,32,9B,57,C0,4A,
0,000000E0,false,Rx,0,8,00,00,00,00,00,00,00,00,
0,00000240,false,Rx,0,8,00,00,00,00,00,00,0F,FF,
0,00000150,false,Rx,0,8,00,00,00,00,00,20,40,6C,
0,0000015A,false,Rx,0,4,00,00,02,CB,00,00,00,00,
0,000001D0,false,Rx,0,8,43,08,F0,28,10,00,20,E3,
0,00000242,false,Rx,0,8,DD,00,00,00,00,00,00,00,
0,00000220,false,Rx,0,8,10,0E,10,11,10,0C,00,00,
0,00000308,false,Rx,0,8,00,00,00,00,08,00,39,F4,
0,0000031B,false,Rx,0,8,3D,09,00,3D,09,00,00,00,
0,0000031C,false,Rx,0,8,01,90,01,90,00,00,00,00,
0,0000031D,false,Rx,0,8,86,00,00,00,00,00,02,00,
0,0000031E,false,Rx,0,8,00,00,00,00,00,00,00,00,
0,0000031F,false,Rx,0,8,01,F4,01,F4,01,F4,00,00,
0,00000324,false,Rx,0,8,00,00,00,00,08,74,01,9D,
0,00000357,false,Rx,0,8,00,00,02,17,01,63,01,2C,
0,000000B4,false,Rx,0,7,00,00,00,00,00,D0,0E,00,
0,000000F0,false,Rx,0,8,00,00,10,00,80,00,D0,DC,
0,000000F2,false,Rx,0,8,00,00,00,00,00,00,D0,F2,
0,00000108,false,Rx,0,8,38,71,38,3D,09,00,D0,27,
0,00000160,false,Rx,0,8,00,00,00,46,0F,FF,70,69,
0,00000175,false,Rx,0,8,00,00,00,2E,00,00,D0,4D,
0,000001D7,false,Rx,0,8,00,00,00,00,00,00,D0,F2,
0,000001D8,false,Rx,0,8,00,00,00,00,E0,06,73,51,
0,00000212,false,Rx,0,8,00,00,00,00,00,00,70,53,
0,00000107,false,Rx,0,8,00,00,00,00,00,00,00,00,
0,000000F4,false,Rx,0,8,80,00,00,46,45,00,91,49,
0,00000095,false,Rx,0,8,3A,98,0A,8B,09,0E,50,08,
0,000000F5,false,Rx,0,8,00,06,40,00,10,00,90,EF,
0,000000F6,false,Rx,0,8,1C,F8,03,08,00,25,90,13,
0,000000F7,false,Rx,0,8,42,12,00,05,80,00,95,67,
0,00000150,false,Rx,0,8,00,00,00,00,00,20,50,A1,
0,0000015A,false,Rx,0,4,00,00,03,D6,00,00,00,00,
0,00000106,false,Rx,0,8,00,4E,20,00,00,00,00,00,
0,000000B4,false,Rx,0,7,00,00,00,00,00,E0,44,00,
0,000000F0,false,Rx,0,8,00,00,10,00,80,00,E0,96,
0,000000F2,false,Rx,0,8,00,00,00,00,00,00,E0,B8,
0,00000108,false,Rx,0,8,38,71,38,3D,09,00,E0,6D,
0,00000175,false,Rx,0,8,00,00,00,2E,00,00,E0,07,
0,000001D7,false,Rx,0,8,00,00,00,00,00,00,E0,B8,
0,00000166,false,Rx,0,8,00,00,0D,32,9B,57,D0,ED,
0,000000F4,false,Rx,0,8,80,00,00,46,45,00,A1,03,
0,000000F5,false,Rx,0,8,00,06,40,00,10,00,A0,A5,
0,000000F6,false,Rx,0,8,1C,F8,03,08,00,28,A0,62,
0,000000F7,false,Rx,0,8,42,12,00,05,80,00,A5,2D,
0,00000104,false,Rx,0,8,FF,FF,00,2B,00,00,D0,62,
0,00000164,false,Rx,0,8,10,00,14,16,0B,34,D0,30,
0,00000284,false,Rx,0,8,51,28,28,00,00,00,00,00,
0,000003EC,false,Rx,0,8,00,00,00,00,00,05,70,32,
0,00000095,false,Rx,0,8,3A,98,0A,8B,09,0E,60,42,
0,000000E0,false,Rx,0,8,00,00,00,00,00,00,00,00,
0,00000107,false,Rx,0,8,00,00,00,00,00,00,00,00,
0,0000015A,false,Rx,0,4,00,00,04,85,00,00,00,00,
0,00000150,false,Rx,0,8,00,00,00,00,00,20,60,EB,
0,000001D0,false,Rx,0,8,43,08,F0,28,10,00,30,2E,
0,00000220,false,Rx,0,8,10,0E,10,11,10,0C,00,00,
0,00000281,false,Rx,0,8,1F,FF,1F,FF,1F,FF,00,00,
0,00000285,false,Rx,0,8,1F,FF,1F,FF,1F,FF,00,00,
0,00000306,false,Rx,0,8,00,00,E7,F7,EE,EC,8E,F5,
0,00000307,false,Rx,0,8,41,42,00,00,42,00,43,00,
0,000003E8,false,Rx,0,8,00,00,00,00,00,00,00,00,
0,000003EA,false,Rx,0,8,4D,00,00,00,83,00,70,27,
0,000003EB,false,Rx,0,8,02,00,00,07,00,00,70,1D,
0,000003ED,false,Rx,0,8,FF,43,00,00,00,00,70,3C,
0,000000B4,false,Rx,0,7,00,00,00,00,00,F0,89,00,
0,000000F0,false,Rx,0,8,00,00,10,00,80,00,F0,5B,
0,000000F2,false,Rx,0,8,00,00,00,00,00,00,F0,75,
0,00000108,false,Rx,0,8,38,71,38,3D,09,00,F0,A0,
0,00000160,false,Rx,0,8,00,00,00,46,0F,FF,80,16,
0,00000175,false,Rx,0,8,00,00,00,2E,00,00,F0,CA,
0,000001D7,false,Rx,0,8,00,00,00,00,00,00,F0,75,
0,000001D8,false,Rx,0,8,00,00,00,00,E0,06,83,2E,
0,00000212,false,Rx,0,8,00,00,00,00,00,00,80,2C,
0,00000107,false,Rx,0,8,00,00,00,00,00,00,00,00,
0,000000F4,false,Rx,0,8,80,00,00,46,45,00,B1,CE,
0,00000095,false,Rx,0,8,3A,98,0A,8B,09,0E,70,8F,
0,000000F5,false,Rx,0,8,00,06,40,00,10,00,B0,68,
0,000000F6,false,Rx,0,8,1C,F8,03,08,00,28,B0,AF,
0,000000F7,false,Rx,0,8,42,12,00,05,80,00,B5,E0,
0,00000150,false,Rx,0,8,00,00,00,00,00,20,70,26,
0,0000015A,false,Rx,0,4,00,00,05,98,00,00,00,00,
0,000000B4,false,Rx,0,7,00,00,00,00,00,00,F6,00,
0,000000F0,false,Rx,0,8,00,00,10,00,80,00,00,24,
0,000000F2,false,Rx,0,8,00,00,00,00,00,00,00,0A,
0,00000108,false,Rx,0,8,38,71,38,3D,09,00,00,DF,
0,00000175,false,Rx,0,8,00,00,00,2E,00,00,00,B5,
0,000001D7,false,Rx,0,8,00,00,00,00,00,00,00,0A,
0,00000166,false,Rx,0,8,00,00,0E,32,9B,57,E0,19,
0,000000F4,false,Rx,0,8,80,00,00,46,45,00,C1,97,
0,000000F5,false,Rx,0,8,00,06,40,00,10,00,C0,31,
0,000000F6,false,Rx,0,8,1C,F8,03,08,00,2A,C0,6E,
0,000000F7,false,Rx,0,8,42,12,00,05,80,00,C5,B9,
0,00000104,false,Rx,0,8,FF,FF,00,2C,00,00,E0,DC,
0,00000107,false,Rx,0,8,00,00,00,00,00,00,00,00,
0,00000164,false,Rx,0,8,10,00,13,BC,0B,8B,E0,1E,
0,00000095,false,Rx,0,8,3A,98,0A,8B,09,0E,80,F0,
0,000000E0,false,Rx,0,8,00,00,00,00,00,00,00,00,
0,00000150,false,Rx,0,8,00,00,00,00,00,20,80,59,
0,000001D0,false,Rx,0,8,43,08,F0,28,10,00,40,77,
0,0000015A,false,Rx,0,4,00,00,06,BF,00,00,00,00,
0,00000220,false,Rx,0,8,10,0E,10,11,10,0C,00,00,
0,00000235,false,Rx,0,8,09,C0,00,3A,07,CA,05,D3,
0,000002A0,false,Rx,0,8,00,05,47,D3,00,00,00,00,
0,00000106,false,Rx,0,8,00,4E,20,00,00,00,00,00,
0,000002A2,false,Rx,0,8,04,00,04,00,06,83,00,01,
0,00000355,false,Rx,0,8,40,00,00,00,48,48,40,00,
0,000000B4,false,Rx,0,7,00,00,00,00,00,10,3B,00,
0,000000F0,false,Rx,0,8,00,00,10,00,80,00,10,E9,
0,000000F2,false,Rx,0,8,00,00,00,00,00,00,10,C7,
0,00000108,false,Rx,0,8,38,71,38,3D,09,00,10,12,
0,00000160,false,Rx,0,8,00,00,00,46,0F,FF,90,DB,
0,00000175,false,Rx,0,8,00,00,00,2E,00,00,10,78,
0,000001D7,false,Rx,0,8,00,00,00,00,00,00,10,C7,
0,000001D8,false,Rx,0,8,00,00,00,00,E0,06,93,E3,
0,00000212,false,Rx,0,8,00,00,00,00,00,00,90,E1,
0,00000234,false,Rx,0,8,D8,84,01,4A,00,0E,01,63,
0,00000282,false,Rx,0,8,00,00,00,05,00,00,00,01,
0,000000F4,false,Rx,0,8,80,00,00,46,45,00,D1,5A,
0,000000F5,false,Rx,0,8,00,06,40,00,10,00,D0,FC,
0,000000F6,false,Rx,0,8,1C,F8,03,08,00,2A,D0,A3,
0,000000F7,false,Rx,0,8,42,12,00,05,80,00,D5,74,
0,00000107,false,Rx,0,8,00,00,00,00,00,00,00,00,
0,00000240,false,Rx,0,8,00,00,00,00,00,00,0F,FF,
0,00000095,false,Rx,0,8,3A,98,0A,8B,09,0E,90,3D,
0,00000242,false,Rx,0,8,DD,00,00,00,00,00,00,00,
0,00000150,false,Rx,0,8,00,00,00,00,00,20,90,94,
0,00000280,false,Rx,0,8,00,00,00,00,00,00,00,00,
0,0000015A,false,Rx,0,4,00,00,07,A2,00,00,00,00,
0,000002A4,false,Rx,0,8,00,0A,00,00,F5,0A,00,00,
0,000002A5,false,Rx,0,6,00,00,01,40,00,00,00,00,
0,000002D0,false,Rx,0,8,FF,40,42,7F,C1,8C,00,00,
0,000002D2,false,Rx,0,8,FF,FF,FF,FF,FF,FF,00,00,
0,00000301,false,Rx,0,8,00,00,00,00,00,00,90,E1,
0,00000320,false,Rx,0,8,5E,9A,C0,3E,2D,9F,01,A0,
0,00000321,false,Rx,0,8,6A,CF,C0,03,1B,01,7F,00,
0,00000322,false,Rx,0,8,00,00,01,F5,01,00,00,00,
0,00000323,false,Rx,0,8,00,00,25,00,00,00,00,00,
0,000003E0,false,Rx,0,8,03,00,00,00,00,00,00,00,
0,000003E7,false,Rx,0,8,00,00,00,00,00,00,00,00,
0,000003EE,false,Rx,0,8,00,00,28,00,00,00,00,40,
0,000000B4,false,Rx,0,7,00,00,00,00,00,20,71,00,
0,000000F0,false,Rx,0,8,00,00,10,00,80,00,20,A3,
0,000000F2,false,Rx,0,8,00,00,00,00,00,00,20,8D,
0,00000108,false,Rx,0,8,38,71,38,3D,09,00,20,58,
0,00000175,false,Rx,0,8,00,00,00,2E,00,00,20,32,
0,000001D7,false,Rx,0,8,00,00,00,00,00,00,20,8D,
0,00000107,false,Rx,0,8,00,00,00,00,00,00,00,00,
0,000000F4,false,Rx,0,8,80,00,00,46,45,00,E1,10,
0,00000095,false,Rx,0,8,3A,98,0A,8B,09,0E,A0,77,
0,000000F5,false,Rx,0,8,00,06,40,00,10,00,E0,B6,
0,000000E0,false,Rx,0,8,00,00,00,00,00,00,00,00,
0,000000F6,false,Rx,0,8,1C,F8,03,08,00,2D,E0,10,
0,000000F7,false,Rx,0,8,42,12,00,05,80,00,E5,3E,
0,00000104,false,Rx,0,8,FF,FF,00,2C,00,00,F0,11,
0,00000150,false,Rx,0,8,00,00,00,00,00,20,A0,DE,
0,00000164,false,Rx,0,8,10,00,13,6C,0B,E0,F0,46,
0,00000166,false,Rx,0,8,00,00,0F,32,9B,57,F0,BE,
0,000001D0,false,Rx,0,8,43,08,F0,28,10,00,50,BA,
0,0000015A,false,Rx,0,4,00,00,08,19,00,00,00,00,
0,00000220,false,Rx,0,8,10,0E,10,11,10,0C,00,00,
0,000000B4,false,Rx,0,7,00,00,00,00,00,30,BC,00,
0,000000F0,false,Rx,0,8,00,00,10,00,80,00,30,6E,
0,000000F2,false,Rx,0,8,00,00,00,00,00,00,30,40,
0,00000108,false,Rx,0,8,38,71,38,3D,09,00,30,95,
0,00000160,false,Rx,0,8,00,00,00,46,0F,FF,A0,91,
0,00000175,false,Rx,0,8,00,00,00,2E,00,00,30,FF,
0,000001D7,false,Rx,0,8,00,00,00,00,00,00,30,40,
0,000001D8,false,Rx,0,8,00,00,00,00,E0,06,A3,A9,
0,00000212,false,Rx,0,8,00,00,00,00,00,00,A0,AB,
0,000000F4,false,Rx,0,8,80,00,00,46,45,00,F1,DD,
0,000000F5,false,Rx,0,8,00,06,40,00,10,00,F0,7B,
0,000000F6,false,Rx,0,8,1C,F8,03,08,00,2D,F0,DD,
0,000000F7,false,Rx,0,8,42,12,00,05,80,00,F5,F3,
0,00000107,false,Rx,0,8,00,00,00,00,00,00,00,00,
0,00000095,false,Rx,0,8,3A,98,0A,8B,09,0E,B0,BA,
0,00000150,false,Rx,0,8,00,00,00,00,00,20,B0,13,
0,00000354,false,Rx,0,8,00,00,5F,0A,10,68,08,FC,
0,00000356,false,Rx,0,8,00,00,00,00,00,00,0A,BE,
0,00000358,false,Rx,0,8,01,00,00,00,00,00,30,1D,
0,00000359,false,Rx,0,8,00,00,0C,A3,01,45,00,00,
0,0000015A,false,Rx,0,4,00,00,09,04,00,00,00,00,
0,000000B4,false,Rx,0,7,00,00,00,00,00,40,E5,00,
0,000000F0,false,Rx,0,8,00,00,10,00,80,00,40,37,
0,000000F2,false,Rx,0,8,00,00,00,00,00,00,40,19,
0,00000108,false,Rx,0,8,38,71,38,3D,09,00,40,CC,
0,00000175,false,Rx,0,8,00,00,00,2E,00,00,40,A6,
0,000001D7,false,Rx,0,8,00,00,00,00,00,00,40,19,
0,00000166,false,Rx,0,8,00,00,10,32,9B,57,00,53,
0,000000F4,false,Rx,0,8,80,00,00,46,45,00,01,A2,
0,000000F5,false,Rx,0,8,00,06,40,00,10,00,00,04,
0,000000F6,false,Rx,0,8,1C,F8,03,08,00,02,00,74,
0,000000F7,false,Rx,0,8,42,12,00,05,80,00,05,8C,
0,00000104,false,Rx,0,8,FF,FF,00,2D,00,00,00,F3,
0,00000107,false,Rx,0,8,00,00,00,00,00,00,00,00,
0,00000164,false,Rx,0,8,10,00,13,30,0C,1C,00,45,
0,00000095,false,Rx,0,8,3A,98,0A,8B,09,0E,C0,E3,
0,000000E0,false,Rx,0,8,00,00,00,00,00,00,00,00,
0,00000150,false,Rx,0,8,00,00,00,00,00,20,C0,4A,
0,000001D0,false,Rx,0,8,43,10,F0,28,10,00,60,EE,
0,00000106,false,Rx,0,8,00,4E,20,00,00,00,00,00,
0,0000015A,false,Rx,0,4,00,00,0A,23,00,00,00,00,
0,00000220,false,Rx,0,8,10,0E,10,11,10,0C,00,00,
0,000000B4,false,Rx,0,7,00,00,00,00,00,50,28,00,
0,000000F0,false,Rx,0,8,00,00,10,00,80,00,50,FA,
0,000000F2,false,Rx,0,8,00,00,00,00,00,00,50,D4,
0,00000108,false,Rx,0,8,38,71,38,3D,09,00,50,01,
0,00000160,false,Rx,0,8,00,00,00,46,0F,FF,B0,5C,
0,00000175,false,Rx,0,8,00,00,00,2E,00,00,50,6B,
0,000001D7,false,Rx,0,8,00,00,00,00,00,00,50,D4,
0,000001D8,false,Rx,0,8,00,00,00,00,E0,06,B3,64,
0,00000212,false,Rx,0,8,00,00,00,00,00,00,B0,66,
0,000000F4,false,Rx,0,8,80,00,00,46,45,00,11,6F,
0,000000F5,false,Rx,0,8,00,06,40,00,10,00,10,C9,
0,000000F6,false,Rx,0,8,1C,F8,03,08,00,02,10,B9,
0,000000F7,false,Rx,0,8,42,12,00,05,80,00,15,41,
0,00000107,false,Rx,0,8,00,00,00,00,00,00,00,00,
0,00000095,false,Rx,0,8,3A,98,0A,8B,09,0E,D0,2E,
0,00000150,false,Rx,0,8,00,00,00,00,00,20,D0,87,
0,0000015A,false,Rx,0,4,00,00,0B,3E,00,00,00,00,
0,00000235,false,Rx,0,8,09,C2,00,3A,07,CA,05,D3,
0,0000031A,false,Rx,0,8,3D,09,00,3D,09,00,00,00,
0,0000031B,false,Rx,0,8,3D,09,00,3D,09,00,00,00,
0,000000B4,false,Rx,0,7,00,00,00,00,00,60,62,00,
0,000000F0,false,Rx,0,8,00,00,10,00,80,00,60,B0,
0,000000F2,false,Rx,0,8,00,00,00,00,00,00,60,9E,
0,00000108,false,Rx,0,8,38,71,38,3D,09,00,60,4B,
0,00000115,false,Rx,0,8,00,00,00,00,48,48,08,41,
0,00000175,false,Rx,0,8,00,00,00,2E,00,00,60,21,
0,000001D7,false,Rx,0,8,00,00,00,00,00,00,60,9E,
0,00000234,false,Rx,0,8,DA,84,01,4A,00,0E,01,63,
0,00000308,false,Rx,0,8,00,00,00,00,08,00,39,F4,
0,00000240,false,Rx,0,8,00,00,00,00,00,00,0F,FF,
0,000000F4,false,Rx,0,8,80,00,00,46,45,00,21,25,
0,000000F5,false,Rx,0,8,00,06,40,00,10,00,20,83,
0,000000F6,false,Rx,0,8,1C,F8,03,08,00,05,20,0A,
0,000000F7,false,Rx,0,8,42,12,00,05,80,00,25,0B,
0,00000104,false,Rx,0,8,FF,FF,00,2C,00,00,10,A3,
0,00000107,false,Rx,0,8,00,00,00,00,00,00,00,00,
0,00000164,false,Rx,0,8,10,00,1C,FC,03,03,10,16,
0,00000095,false,Rx,0,8,3A,98,0A,8B,09,0E,E0,64,
0,00000166,false,Rx,0,8,00,00,01,32,9B,57,10,1A,
0,000000E0,false,Rx,0,8,00,00,00,00,00,00,00,00,
0,00000242,false,Rx,0,8,DD,00,00,00,00,00,00,00,
0,00000150,false,Rx,0,8,00,00,00,00,00,20,E0,CD,
0,0000015A,false,Rx,0,4,00,00,0C,6D,00,00,00,00,
0,000001D0,false,Rx,0,8,43,10,F0,28,10,00,70,23,
0,00000309,false,Rx,0,8,00,00,00,00,00,00,00,20,
