Time Stamp,ID,Extended,Dir,Bus,LEN,D1,D2,D3,D4,D5,D6,D7,D8
-1767062175875212,000005C0,false,Rx,0,8,63,00,00,FF,FF,10,2E,D9,
-1767062175874870,000005C1,false,Rx,0,8,00,00,00,00,7F,FF,FC,52,
-1767062175874615,000005D0,false,Rx,0,8,00,00,5F,8E,5E,2B,13,7F,
-1767062175874359,000005D1,false,Rx,0,8,5E,D3,60,B2,00,30,00,43,
-1767062277460228,00000182,false,Rx,0,8,00,02,FF,7F,F9,00,00,00,
-1767062277459972,00000141,false,Rx,0,8,0C,81,6E,5D,4F,64,00,05,
-1767062277459716,00000143,false,Rx,0,8,BF,FC,18,00,18,00,00,10,
-1767062277459460,000005C0,false,Rx,0,8,63,00,00,FF,FF,10,2E,E7,
-1767062277459204,000005C1,false,Rx,0,8,00,00,00,00,80,00,03,AA,
-1767062277458949,000005D0,false,Rx,0,8,00,00,5F,8E,5E,2B,13,80,
-1767062277458693,000005D1,false,Rx,0,8,5E,D3,60,B2,00,30,00,43,
-1767062277450288,00000142,false,Rx,0,8,23,71,21,73,89,01,00,05,
-1767062277450032,0000017B,false,Rx,0,8,01,65,A0,00,10,2F,00,00,
-1767062277449776,000005C0,false,Rx,0,8,63,00,00,FF,FF,10,2E,CC,
-1767062277449520,000005C1,false,Rx,0,8,00,00,00,00,7F,FF,FF,FE,
-1767062277449264,000005D0,false,Rx,0,8,00,00,5F,8E,5E,2B,13,81,
-1767062277449008,000005D1,false,Rx,0,8,5E,D3,60,B2,00,30,00,43,
-1767062277440219,00000141,false,Rx,0,8,0D,CD,6E,5C,4F,64,00,05,
-1767062277439963,00000143,false,Rx,0,8,BF,FC,18,00,18,00,00,10,
-1767062277439707,000005C0,false,Rx,0,8,63,00,00,FF,FF,10,2E,CC,
-1767062277439451,000005C1,false,Rx,0,8,00,00,00,00,80,00,03,AA,
-1767062277439195,000005D0,false,Rx,0,8,00,00,5F,8E,5E,2B,13,83,
-1767062277438982,000005D1,false,Rx,0,8,5E,D3,60,B2,00,30,00,43,
-1767062277430321,00000178,false,Rx,0,8,60,00,01,F2,38,75,58,00,
-1767062277430065,000005C0,false,Rx,0,8,63,00,00,FF,FF,10,2E,D9,
-1767062277429809,000005C1,false,Rx,0,8,00,00,00,00,80,00,07,56,
-1767062277429553,000005D0,false,Rx,0,8,00,00,5F,8E,5E,2B,13,7D,
-1767062277429297,000005D1,false,Rx,0,8,5E,D3,60,B2,00,30,00,43,
-1767062277420039,00000142,false,Rx,0,8,24,71,22,73,91,01,00,05,
-1767062277419826,00000141,false,Rx,0,8,0E,19,6E,5C,4F,64,00,05,
-1767062277419527,00000143,false,Rx,0,8,BF,FC,18,00,18,00,00,10,
-1767062277419271,000005C0,false,Rx,0,8,63,00,00,FF,FF,10,2E,E7,
-1767062277419015,000005C1,false,Rx,0,8,00,00,00,00,7F,FF,FF,FE,
-1767062277418759,000005D0,false,Rx,0,8,00,00,5F,8E,5E,2B,13,83,
-1767062277418503,000005D1,false,Rx,0,8,5E,D3,60,B2,00,30,00,43,
-1767062277411933,00000536,false,Rx,0,8,00,41,40,21,00,00,00,00,
-1767062277409032,000005C0,false,Rx,0,8,63,00,00,FF,FF,10,2E,CC,
-1767062277408776,000005C1,false,Rx,0,8,00,00,00,00,80,00,03,AA,
-1767062277408520,000005D0,false,Rx,0,8,00,00,5F,8E,5E,2B,13,81,
-1767062277408264,000005D1,false,Rx,0,8,5E,D3,60,B2,00,30,00,43,
-1767062277400072,00000145,false,Rx,0,8,73,A7,50,87,F3,73,69,1C,
-1767062277399816,00000053,false,Rx,0,8,00,00,80,01,78,7F,F9,00,
-1767062277399475,00000141,false,Rx,0,8,00,F6,6E,5D,4F,64,00,05,
-1767062277399219,00000143,false,Rx,0,8,BF,FC,18,00,18,00,00,10,
-1767062277398963,00000175,false,Rx,0,8,07,FF,00,0B,9C,80,00,0E,
-1767062277398707,0000017B,false,Rx,0,8,01,65,A0,00,10,2F,00,00,
-1767062277398451,0000018A,false,Rx,0,8,00,00,00,01,00,00,00,01,
-1767062277398195,00000288,false,Rx,0,8,23,37,9F,FF,00,02,0A,00,
-1767062277397939,00000290,false,Rx,0,8,23,24,23,0B,01,03,CA,7F,
-1767062277397683,00000493,false,Rx,0,8,00,00,00,00,00,00,00,06,
-1767062277397427,00000494,false,Rx,0,8,00,00,00,00,00,00,00,01,
-1767062277397171,000005C0,false,Rx,0,8,63,00,00,FF,FF,10,2E,E7,
-1767062277396872,000005C1,false,Rx,0,8,00,00,00,00,7F,FF,FF,FE,
-1767062277396659,000005D0,false,Rx,0,8,00,00,5F,8E,5E,2B,13,83,
-1767062277396403,000005D1,false,Rx,0,8,5E,D3,60,B2,00,30,00,43,
-1767062277390302,00000142,false,Rx,0,8,25,71,23,73,91,01,00,05,
-1767062277390046,00000182,false,Rx,0,8,00,02,FF,7F,F9,00,00,00,
-1767062277389748,000005C0,false,Rx,0,8,63,00,00,FF,FF,10,2E,E7,
-1767062277389534,000005C1,false,Rx,0,8,00,00,00,00,7F,FF,FC,52,
-1767062277389278,000005D0,false,Rx,0,8,00,00,5F,8E,5E,2B,13,81,
-1767062277389022,000005D1,false,Rx,0,8,5E,D3,60,B2,00,30,00,43,
-1767062277380233,00000141,false,Rx,0,8,01,BA,6E,5C,4F,64,00,05,
-1767062277379977,00000143,false,Rx,0,8,BF,FC,18,00,18,00,00,10,
-1767062277379721,000005C0,false,Rx,0,8,63,00,00,FF,FF,10,2E,D9,
-1767062277379465,000005C1,false,Rx,0,8,00,00,00,00,7F,FF,FF,FE,
-1767062277379209,000005D0,false,Rx,0,8,00,00,5F,8E,5E,2B,13,84,
-1767062277378954,000005D1,false,Rx,0,8,5E,D3,60,B2,00,30,00,43,
-1767062277370250,000005C0,false,Rx,0,8,63,00,00,FF,FF,10,2E,E7,
-1767062277369909,000005C1,false,Rx,0,8,00,00,00,00,7F,FF,F8,A7,
-1767062277369610,000005D0,false,Rx,0,8,00,00,5F,8E,5E,2B,13,80,
-1767062277369397,000005D1,false,Rx,0,8,5E,D3,60,B2,00,30,00,43,
-1767062277360224,00000142,false,Rx,0,8,26,71,24,73,89,01,00,05,
-1767062277359968,00000141,false,Rx,0,8,02,6E,6E,5C,4F,64,00,05,
-1767062277359669,00000143,false,Rx,0,8,BF,FC,18,00,18,00,00,10,
-1767062277359456,00000178,false,Rx,0,8,60,00,05,E4,38,75,58,00,
-1767062277359200,00000286,false,Rx,0,8,A8,4A,FF,F0,00,50,01,01,
-1767062277358944,00000479,false,Rx,0,8,23,23,23,05,1C,54,00,01,
-1767062277358688,000005C0,false,Rx,0,8,63,00,00,FF,FF,10,2E,F4,
-1767062277358432,000005C1,false,Rx,0,8,00,00,00,00,7F,FF,FF,FE,
-1767062277358176,000005D0,false,Rx,0,8,00,00,5F,8E,5E,2B,13,83,
-1767062277357920,000005D1,false,Rx,0,8,5E,D3,60,B2,00,30,00,43,
-1767062277350283,0000017B,false,Rx,0,8,01,65,A0,00,10,2F,00,00,
-1767062277350027,00000316,false,Rx,0,8,00,00,00,00,00,00,00,00,
-1767062277349771,000005C0,false,Rx,0,8,63,00,00,FF,FF,10,2E,CC,
-1767062277349473,000005C1,false,Rx,0,8,00,00,00,00,7F,FF,FF,FE,
-1767062277349259,000005D0,false,Rx,0,8,00,00,5F,8E,5E,2B,13,84,
-1767062277349003,000005D1,false,Rx,0,8,5E,D3,60,B2,00,30,00,43,
-1767062277340257,00000141,false,Rx,0,8,03,22,6E,5C,4F,64,00,05,
-1767062277339959,00000143,false,Rx,0,8,BF,FC,18,00,18,00,00,10,
-1767062277339703,000005C0,false,Rx,0,8,63,00,00,FF,FF,10,2E,E7,
-1767062277339447,000005C1,false,Rx,0,8,00,00,00,00,80,00,0B,01,
-1767062277339191,000005D0,false,Rx,0,8,00,00,5F,8E,5E,2B,13,83,
-1767062277338935,000005D1,false,Rx,0,8,5E,D3,60,B2,00,30,00,43,
-1767062277330317,00000142,false,Rx,0,8,27,71,25,73,89,01,00,05,
-1767062277330018,000005C0,false,Rx,0,8,63,00,00,FF,FF,10,2E,BF,
-1767062277329762,000005C1,false,Rx,0,8,00,00,00,00,80,00,03,AA,
-1767062277329506,000005D0,false,Rx,0,8,00,00,5F,8E,5E,2B,13,88,
-1767062277329250,000005D1,false,Rx,0,8,5E,D3,60,B2,00,30,00,43,
-1767062277320120,00000182,false,Rx,0,8,00,02,FF,7F,F9,00,00,00,
-1767062277319864,00000141,false,Rx,0,8,04,DB,6E,5C,4F,64,00,05,
-1767062277319608,00000143,false,Rx,0,8,BF,FC,18,00,18,00,00,10,
-1767062277319352,000005C0,false,Rx,0,8,63,00,00,FF,FF,10,2E,BF,
-1767062277319096,000005C1,false,Rx,0,8,00,00,00,00,80,00,03,AA,
-1767062277318840,000005D0,false,Rx,0,8,00,00,5F,8E,5E,2B,13,80,
-1767062277318584,000005D1,false,Rx,0,8,5E,D3,60,B2,00,30,00,43,
-1767062277311928,00000536,false,Rx,0,8,00,41,40,21,00,00,00,00,
-1767062277309027,000005C0,false,Rx,0,8,63,00,00,FF,FF,10,2E,BF,
-1767062277308771,000005C1,false,Rx,0,8,00,00,00,00,80,00,03,AA,
-1767062277308515,000005D0,false,Rx,0,8,00,00,5F,8E,5E,2B,13,81,
-1767062277308259,000005D1,false,Rx,0,8,5E,D3,60,B2,00,30,00,43,
-1767062277300068,00000145,false,Rx,0,8,73,A7,50,87,F3,73,69,1C,
-1767062277299812,00000053,false,Rx,0,8,00,00,80,01,77,7F,F9,00,
-1767062277299513,00000141,false,Rx,0,8,05,97,6E,5C,4F,64,00,05,
-1767062277299257,00000142,false,Rx,0,8,28,71,26,73,89,01,00,05,
-1767062277299001,00000143,false,Rx,0,8,BF,FC,18,00,18,00,00,10,
-1767062277298788,00000175,false,Rx,0,8,07,FF,00,0B,9C,80,00,0E,
-1767062277298532,0000017B,false,Rx,0,8,01,65,A0,00,10,30,00,00,
-1767062277298233,0000018A,false,Rx,0,8,00,00,00,01,00,00,00,01,
-1767062277297977,00000288,false,Rx,0,8,23,37,9F,FF,00,02,0A,00,
-1767062277297764,00000290,false,Rx,0,8,23,24,23,0C,01,03,CA,7F,
-1767062277297508,00000489,false,Rx,0,8,65,2E,0F,00,00,00,00,28,
-1767062277297209,00000493,false,Rx,0,8,00,00,00,00,00,00,00,06,
-1767062277296953,00000494,false,Rx,0,8,00,00,00,00,00,00,00,01,
-1767062277296697,000005C0,false,Rx,0,8,63,00,00,FF,FF,10,2E,E7,
-1767062277296399,000005C1,false,Rx,0,8,00,00,00,00,7F,FF,FF,FE,
-1767062277296185,000005D0,false,Rx,0,8,00,00,5F,8E,5E,2B,13,83,
-1767062277295929,000005D1,false,Rx,0,8,5E,D3,60,B2,00,30,00,43,
-1767062277290340,00000178,false,Rx,0,8,60,00,06,01,38,75,58,00,
-1767062277290042,000005C0,false,Rx,0,8,63,00,00,FF,FF,10,2E,E7,
-1767062277289786,000005C1,false,Rx,0,8,00,00,00,00,80,00,0B,01,
-1767062277289530,000005D0,false,Rx,0,8,00,00,5F,8E,5E,2B,13,83,
-1767062277289316,000005D1,false,Rx,0,8,5E,D3,60,B2,00,30,00,43,
-1767062277280186,00000141,false,Rx,0,8,06,43,6E,5C,4F,64,00,05,
-1767062277279973,00000143,false,Rx,0,8,BF,FC,18,00,18,00,00,10,
-1767062277279717,000005C0,false,Rx,0,8,63,00,00,FF,FF,10,2E,CC,
-1767062277279418,000005C1,false,Rx,0,8,00,00,00,00,7F,FF,FC,52,
-1767062277279162,000005D0,false,Rx,0,8,00,00,5F,8E,5E,2B,13,81,
-1767062277278949,000005D1,false,Rx,0,8,5E,D3,60,B2,00,30,00,43,
-1767062277270203,00000142,false,Rx,0,8,29,71,27,73,81,01,00,05,
-1767062277269947,000005C0,false,Rx,0,8,63,00,00,FF,FF,10,2E,E7,
-1767062277269648,000005C1,false,Rx,0,8,00,00,00,00,7F,FF,FC,52,
-1767062277269435,000005D0,false,Rx,0,8,00,00,5F,8E,5E,2B,13,80,
-1767062277269179,000005D1,false,Rx,0,8,5E,D3,60,B2,00,30,00,43,
-1767062277260220,00000141,false,Rx,0,8,07,0F,6E,5C,4F,64,00,05,
-1767062277259964,00000143,false,Rx,0,8,BF,FC,18,00,18,00,00,10,
-1767062277259708,000005C0,false,Rx,0,8,63,00,00,FF,FF,10,2F,1D,
-1767062277259452,000005C1,false,Rx,0,8,00,00,00,00,7F,FF,FF,FE,
-1767062277259196,000005D0,false,Rx,0,8,00,00,5F,8E,5E,2B,13,81,
-1767062277258940,000005D1,false,Rx,0,8,5E,D3,60,B2,00,30,00,43,
-1767062277250279,00000182,false,Rx,0,8,00,02,FF,7F,F9,00,00,00,
-1767062277250023,0000017B,false,Rx,0,8,01,65,A0,00,10,2F,00,00,
-1767062277249767,000005C0,false,Rx,0,8,63,00,00,FF,FF,10,2E,CC,
-1767062277249511,000005C1,false,Rx,0,8,00,00,00,00,7F,FF,F4,FA,
-1767062277249255,000005D0,false,Rx,0,8,00,00,5F,8E,5E,2B,13,80,
-1767062277248999,000005D1,false,Rx,0,8,5E,D3,60,B2,00,30,00,43,
-1767062277240040,00000142,false,Rx,0,8,2A,71,28,73,81,01,00,05,
-1767062277239784,00000141,false,Rx,0,8,08,AC,6E,5C,4F,64,00,05,
-1767062277239528,00000143,false,Rx,0,8,BF,FC,18,00,18,00,00,10,
-1767062277239272,000005C0,false,Rx,0,8,63,00,00,FF,FF,10,2E,BF,
-1767062277238973,000005C1,false,Rx,0,8,00,00,00,00,80,00,07,56,
-1767062277238760,000005D0,false,Rx,0,8,00,00,5F,8E,5E,2B,13,7F,
-1767062277238504,000005D1,false,Rx,0,8,5E,D3,60,B2,00,30,00,43,
-1767062277230056,000005C0,false,Rx,0,8,63,00,00,FF,FF,10,2E,CC,
-1767062277229715,000005C1,false,Rx,0,8,00,00,00,00,7F,FF,F8,A7,
-1767062277229459,000005D0,false,Rx,0,8,00,00,5F,8E,5E,2B,13,86,
-1767062277229203,000005D1,false,Rx,0,8,5E,D3,60,B2,00,30,00,43,
-1767062277219987,00000141,false,Rx,0,8,09,E0,6E,5C,4F,64,00,05,
-1767062277219731,00000143,false,Rx,0,8,BF,FC,18,00,18,00,00,10,
-1767062277219518,00000178,false,Rx,0,8,60,00,01,4A,38,75,58,00,
-1767062277219262,00000286,false,Rx,0,8,A8,4A,FF,F0,00,50,01,01,
-1767062277219006,000005C0,false,Rx,0,8,63,00,00,FF,FF,10,2E,CC,
-1767062277218750,000005C1,false,Rx,0,8,00,00,00,00,80,00,03,AA,
-1767062277218494,000005D0,false,Rx,0,8,00,00,5F,8E,5E,2B,13,84,
-1767062277218238,000005D1,false,Rx,0,8,5E,D3,60,B2,00,30,00,43,
-1767062277211967,00000536,false,Rx,0,8,00,41,40,21,00,00,00,00,
-1767062277209321,00000142,false,Rx,0,8,2B,71,29,73,89,01,00,05,
-1767062277209065,000005C0,false,Rx,0,8,63,00,00,FF,FF,10,2E,CC,
-1767062277208809,000005C1,false,Rx,0,8,00,00,00,00,80,00,03,AA,
-1767062277208553,000005D0,false,Rx,0,8,00,00,5F,8E,5E,2B,13,81,
-1767062277208298,000005D1,false,Rx,0,8,5E,D3,60,B2,00,30,00,43,
-1767062277200021,00000145,false,Rx,0,8,73,A7,50,87,F3,73,69,1C,
-1767062277199765,00000053,false,Rx,0,8,00,00,80,01,77,7F,F9,00,
-1767062277199466,00000141,false,Rx,0,8,0A,34,6E,5C,4F,64,00,05,
-1767062277199210,00000143,false,Rx,0,8,BF,FC,18,00,18,00,00,10,
-1767062277198997,00000175,false,Rx,0,8,07,FF,00,0B,9C,80,00,0E,
-1767062277198741,0000017B,false,Rx,0,8,01,65,A0,00,10,2F,00,00,
-1767062277198442,0000018A,false,Rx,0,8,00,00,00,01,00,00,00,01,
-1767062277198186,00000288,false,Rx,0,8,23,37,9F,FF,00,02,0A,00,
-1767062277197973,00000290,false,Rx,0,8,24,24,23,0D,01,03,CA,7F,
-1767062277197717,00000293,false,Rx,0,8,20,00,9F,94,19,1F,08,C8,
-1767062277197461,00000315,false,Rx,0,8,FF,4F,FB,1F,CE,00,01,07,
-1767062277197205,00000493,false,Rx,0,8,00,00,00,00,00,00,00,06,
-1767062277196906,00000494,false,Rx,0,8,00,00,00,00,00,00,00,01,
-1767062277196650,000005C0,false,Rx,0,8,63,00,00,FF,FF,10,2E,89,
-1767062277196394,000005C1,false,Rx,0,8,00,00,00,00,80,00,03,AA,
-1767062277196138,000005D0,false,Rx,0,8,00,00,5F,8E,5E,2B,13,84,
-1767062277195925,000005D1,false,Rx,0,8,5E,D3,60,B2,00,30,00,43,
-1767062277190123,00000479,false,Rx,0,8,23,23,23,06,1C,54,00,01,
-1767062277189824,000005C0,false,Rx,0,8,63,00,00,FF,FF,10,2E,D9,
-1767062277189568,000005C1,false,Rx,0,8,00,00,00,00,7F,FF,F8,A7,
-1767062277189355,000005D0,false,Rx,0,8,00,00,5F,8E,5E,2B,13,83,
-1767062277189099,000005D1,false,Rx,0,8,5E,D3,60,B2,00,30,00,43,
-1767062277180054,00000142,false,Rx,0,8,2C,71,2A,73,89,01,00,05,
-1767062277179798,00000141,false,Rx,0,8,0B,78,6E,5C,4F,64,00,05,
-1767062277179542,00000143,false,Rx,0,8,BF,FC,18,00,18,00,00,10,
-1767062277179286,00000182,false,Rx,0,8,00,02,FF,7F,F9,00,00,00,
-1767062277179030,000005C0,false,Rx,0,8,63,00,00,FF,FF,10,2E,CC,
-1767062277178774,000005C1,false,Rx,0,8,00,00,00,00,80,00,07,56,
-1767062277178518,000005D0,false,Rx,0,8,00,00,5F,8E,5E,2B,13,83,
-1767062277178262,000005D1,false,Rx,0,8,5E,D3,60,B2,00,30,00,43,
-1767062277170028,000005C0,false,Rx,0,8,63,00,00,FF,FF,10,2E,F4,
-1767062277169687,000005C1,false,Rx,0,8,00,00,00,00,7F,FF,FC,52,
-1767062277169431,000005D0,false,Rx,0,8,00,00,5F,8E,5E,2B,13,84,
-1767062277169175,000005D1,false,Rx,0,8,5E,D3,60,B2,00,30,00,43,
-1767062277160045,00000141,false,Rx,0,8,0C,81,6E,5C,4F,64,00,05,
-1767062277159789,00000143,false,Rx,0,8,BF,FC,18,00,18,00,00,10,
-1767062277159575,000005C0,false,Rx,0,8,63,00,00,FF,FF,10,2E,D9,
-1767062277159277,000005C1,false,Rx,0,8,00,00,00,00,7F,FF,FF,FE,
-1767062277159021,000005D0,false,Rx,0,8,00,00,5F,8E,5E,2B,13,84,
-1767062277158765,000005D1,false,Rx,0,8,5E,D3,60,B2,00,30,00,43,
-1767062277150104,00000142,false,Rx,0,8,2D,71,2B,73,89,01,00,05,
-1767062277149848,00000178,false,Rx,0,8,60,00,01,4C,38,75,58,00,
-1767062277149592,0000017B,false,Rx,0,8,01,65,A0,00,10,2F,00,00,
-1767062277149336,000005C0,false,Rx,0,8,63,00,00,FF,FF,10,2E,D9,
-1767062277149080,000005C1,false,Rx,0,8,00,00,00,00,80,00,03,AA,
-1767062277148824,000005D0,false,Rx,0,8,00,00,5F,8E,5E,2B,13,81,
-1767062277148568,000005D1,false,Rx,0,8,5E,D3,60,B2,00,30,00,43,
-1767062277140078,00000141,false,Rx,0,8,0D,CD,6E,5C,4F,64,00,05,
-1767062277139822,00000143,false,Rx,0,8,BF,FC,18,00,18,00,00,10,
-1767062277139566,000005C0,false,Rx,0,8,63,00,00,FF,FF,10,2E,D9,
-1767062277139310,000005C1,false,Rx,0,8,00,00,00,00,80,00,03,AA,
-1767062277139054,000005D0,false,Rx,0,8,00,00,5F,8E,5E,2B,13,83,
-1767062277138798,000005D1,false,Rx,0,8,5E,D3,60,B2,00,30,00,43,
-1767062277130180,000005C0,false,Rx,0,8,63,00,00,FF,FF,10,2E,B1,
-1767062277129881,000005C1,false,Rx,0,8,00,00,00,00,80,00,07,56,
-1767062277129668,000005D0,false,Rx,0,8,00,00,5F,8E,5E,2B,13,80,
-1767062277129412,000005D1,false,Rx,0,8,5E,D3,60,B2,00,30,00,43,
-1767062277120068,00000142,false,Rx,0,8,2E,71,2C,73,89,01,00,05,
-1767062277119770,00000141,false,Rx,0,8,0E,19,6E,5C,4F,64,00,05,
-1767062277119556,00000143,false,Rx,0,8,BF,FC,18,00,18,00,00,10,
-1767062277119300,000005C0,false,Rx,0,8,63,00,00,FF,FF,10,2E,CC,
-1767062277119002,000005C1,false,Rx,0,8,00,00,00,00,7F,FF,FC,52,
-1767062277118788,000005D0,false,Rx,0,8,00,00,5F,8E,5E,2B,13,81,
-1767062277118532,000005D1,false,Rx,0,8,5E,D3,60,B2,00,30,00,43,
-1767062277111962,00000536,false,Rx,0,8,00,41,40,21,00,00,00,00,
-1767062277109317,00000182,false,Rx,0,8,00,02,FF,7F,F9,00,00,00,
-1767062277109018,000005C0,false,Rx,0,8,63,00,00,FF,FF,10,2E,CC,
-1767062277108762,000005C1,false,Rx,0,8,00,00,00,00,80,00,03,AA,
-1767062277108549,000005D0,false,Rx,0,8,00,00,5F,8E,5E,2B,13,83,
-1767062277108293,000005D1,false,Rx,0,8,5E,D3,60,B2,00,30,00,43,
-1767062277100144,00000145,false,Rx,0,8,73,A7,50,87,F3,73,69,1C,
-1767062277099888,00000053,false,Rx,0,8,00,00,80,01,77,7F,F9,00,
-1767062277099590,00000141,false,Rx,0,8,00,F6,6E,5C,4F,64,00,05,
-1767062277099334,00000143,false,Rx,0,8,BF,FC,18,00,18,00,00,10,
-1767062277099120,00000175,false,Rx,0,8,07,FF,00,0B,9C,80,00,0E,
-1767062277098864,0000017B,false,Rx,0,8,01,65,A0,00,10,2F,00,00,
-1767062277098566,0000018A,false,Rx,0,8,00,00,00,01,00,00,00,01,
-1767062277098310,00000288,false,Rx,0,8,23,37,9F,FF,00,02,0A,00,
-1767062277098096,00000290,false,Rx,0,8,23,24,23,0E,01,03,CA,7F,
-1767062277097840,00000316,false,Rx,0,8,00,00,00,00,00,00,00,00,
-1767062277097542,00000493,false,Rx,0,8,00,00,00,00,00,00,00,06,
-1767062277097286,00000494,false,Rx,0,8,00,00,00,00,00,00,00,01,
-1767062277097030,000005C0,false,Rx,0,8,63,00,00,FF,FF,10,2E,D9,
-1767062277096774,000005C1,false,Rx,0,8,00,00,00,00,7F,FF,F8,A7,
-1767062277096518,000005D0,false,Rx,0,8,00,00,5F,8E,5E,2B,13,84,
-1767062277096262,000005D1,false,Rx,0,8,5E,D3,60,B2,00,30,00,43,
-1767062277090204,00000142,false,Rx,0,8,2F,71,2D,73,89,01,00,05,
-1767062277089948,000005C0,false,Rx,0,8,63,00,00,FF,FF,10,2E,D9,
-1767062277089649,000005C1,false,Rx,0,8,00,00,00,00,80,00,03,AA,
-1767062277089436,000005D0,false,Rx,0,8,00,00,5F,8E,5E,2B,13,80,
-1767062277089180,000005D1,false,Rx,0,8,5E,D3,60,B2,00,30,00,43,
-1767062277080135,00000141,false,Rx,0,8,01,BA,6E,5C,4F,64,00,05,
-1767062277079879,00000143,false,Rx,0,8,BF,FC,18,00,18,00,00,10,
-1767062277079623,00000178,false,Rx,0,8,60,00,01,F2,38,75,58,00,
-1767062277079367,00000286,false,Rx,0,8,A8,4A,FF,F0,00,50,01,01,
-1767062277079111,000005C0,false,Rx,0,8,63,00,00,FF,FF,10,2E,E7,
-1767062277078855,000005C1,false,Rx,0,8,00,00,00,00,7F,FF,F8,A7,
-1767062277078599,000005D0,false,Rx,0,8,00,00,5F,8E,5E,2B,13,83,
-1767062277078343,000005D1,false,Rx,0,8,5E,D3,60,B2,00,30,00,43,
-1767062277070109,000005C0,false,Rx,0,8,63,00,00,FF,FF,10,2E,D9,
-1767062277069810,000005C1,false,Rx,0,8,00,00,00,00,7F,FF,FC,52,
-1767062277069512,000005D0,false,Rx,0,8,00,00,5F,8E,5E,2B,13,81,
-1767062277069298,000005D1,false,Rx,0,8,5E,D3,60,B2,00,30,00,43,
-1767062277060125,00000142,false,Rx,0,8,30,71,2E,73,89,01,00,05,
-1767062277059869,00000141,false,Rx,0,8,02,6E,6E,5C,4F,64,00,05,
-1767062277059613,00000143,false,Rx,0,8,BF,FC,18,00,18,00,00,10,
-1767062277059357,000005C0,false,Rx,0,8,63,00,00,FF,FF,10,2E,D9,
-1767062277059102,000005C1,false,Rx,0,8,00,00,00,00,7F,FF,FF,FE,
-1767062277058846,000005D0,false,Rx,0,8,00,00,5F,8E,5E,2B,13,81,
-1767062277058590,000005D1,false,Rx,0,8,5E,D3,60,B2,00,30,00,43,
-1767062277050185,0000017B,false,Rx,0,8,01,65,A0,00,10,2F,00,00,
-1767062277049929,000005C0,false,Rx,0,8,63,00,00,FF,FF,10,2E,E7,
-1767062277049673,000005C1,false,Rx,0,8,00,00,00,00,7F,FF,FC,52,
-1767062277049417,000005D0,false,Rx,0,8,00,00,5F,8E,5E,2B,13,81,
-1767062277049161,000005D1,false,Rx,0,8,5E,D3,60,B2,00,30,00,43,
-1767062277040116,00000182,false,Rx,0,8,00,02,FF,7F,F9,00,00,00,
-1767062277039860,00000141,false,Rx,0,8,03,22,6E,5D,4F,64,00,05,
-1767062277039604,00000143,false,Rx,0,8,BF,FC,18,00,18,00,00,10,
-1767062277039348,000005C0,false,Rx,0,8,63,00,00,FF,FF,10,2E,BF,
-1767062277039092,000005C1,false,Rx,0,8,00,00,00,00,80,00,03,AA,
-1767062277038836,000005D0,false,Rx,0,8,00,00,5F,8E,5E,2B,13,81,
-1767062277038623,000005D1,false,Rx,0,8,5E,D3,60,B2,00,30,00,43,
-1767062277030218,00000142,false,Rx,0,8,31,71,2F,73,89,01,00,05,
-1767062277029919,000005C0,false,Rx,0,8,63,00,00,FF,FF,10,2E,D9,
-1767062277029663,000005C1,false,Rx,0,8,00,00,00,00,80,00,07,56,
-1767062277029407,000005D0,false,Rx,0,8,00,00,5F,8E,5E,2B,13,7F,
-1767062277029151,000005D1,false,Rx,0,8,5E,D3,60,B2,00,30,00,43,
-1767062277020107,00000479,false,Rx,0,8,23,23,23,07,1C,54,00,01,
-1767062277019851,00000141,false,Rx,0,8,04,DB,6E,5C,4F,64,00,05,
-1767062277019595,00000143,false,Rx,0,8,BF,FC,18,00,18,00,00,10,
-1767062277019339,000005C0,false,Rx,0,8,63,00,00,FF,FF,10,2E,A4,
-1767062277019083,000005C1,false,Rx,0,8,00,00,00,00,7F,FF,FF,FE,
-1767062277018827,000005D0,false,Rx,0,8,00,00,5F,8E,5E,2B,13,83,
-1767062277018571,000005D1,false,Rx,0,8,5E,D3,60,B2,00,30,00,43,
-1767062277011958,00000536,false,Rx,0,8,00,41,40,21,00,00,00,00,
-1767062277009313,00000178,false,Rx,0,8,60,00,05,E4,38,75,58,00,
-1767062277009057,000005C0,false,Rx,0,8,63,00,00,FF,FF,10,2E,CC,
-1767062277008758,000005C1,false,Rx,0,8,00,00,00,00,7F,FF,FF,FE,
-1767062277008545,000005D0,false,Rx,0,8,00,00,5F,8E,5E,2B,13,81,
-1767062277008289,000005D1,false,Rx,0,8,5E,D3,60,B2,00,30,00,43,
-1767062276999927,00000145,false,Rx,0,8,73,A7,50,87,F3,73,69,1C,
-1767062276999671,00000053,false,Rx,0,8,00,00,80,01,77,7F,F9,00,
-1767062276999372,00000141,false,Rx,0,8,05,97,6E,5C,4F,64,00,05,
-1767062276999116,00000142,false,Rx,0,8,32,71,30,73,99,01,00,05,
-1767062276998860,00000143,false,Rx,0,8,BF,FC,18,00,18,00,00,10,
-1767062276998604,00000175,false,Rx,0,8,07,FF,00,0B,9C,80,00,0E,
-1767062276998348,0000017B,false,Rx,0,8,01,65,A0,00,10,2F,00,00,
-1767062276998092,0000018A,false,Rx,0,8,00,00,00,01,00,00,00,01,
-1767062276997836,00000288,false,Rx,0,8,23,37,9F,FF,00,02,0A,00,
-1767062276997580,00000290,false,Rx,0,8,23,24,23,0F,01,03,CA,7F,
-1767062276997367,00000295,false,Rx,0,8,3F,25,09,7B,7F,24,DC,00,
-1767062276997111,00000296,false,Rx,0,8,32,B7,9F,3C,67,8D,80,00,
-1767062276996855,00000298,false,Rx,0,8,00,18,00,00,10,00,29,C6,
-1767062276996556,00000301,false,Rx,0,8,00,94,60,00,00,00,00,03,
-1767062276996300,00000493,false,Rx,0,8,00,00,00,00,00,00,00,06,
-1767062276996044,00000494,false,Rx,0,8,00,00,00,00,00,00,00,01,
-1767062276995745,000005C0,false,Rx,0,8,63,00,00,FF,FF,10,2E,D9,
-1767062276995447,000005C1,false,Rx,0,8,00,00,00,00,7F,FF,FC,52,
-1767062276995106,000005D0,false,Rx,0,8,00,00,5F,8E,5E,2B,13,83,
-1767062276994850,000005D1,false,Rx,0,8,5E,D3,60,B2,00,30,00,43,
-1767062276990156,000005C0,false,Rx,0,8,63,00,00,FF,FF,10,2E,E7,
-1767062276989858,000005C1,false,Rx,0,8,00,00,00,00,80,00,03,AA,
-1767062276989602,000005D0,false,Rx,0,8,00,00,5F,8E,5E,2B,13,83,
-1767062276989346,000005D1,false,Rx,0,8,5E,D3,60,B2,00,30,00,43,
-1767062276980130,00000141,false,Rx,0,8,06,43,6E,5C,4F,64,00,05,
-1767062276979874,00000143,false,Rx,0,8,BF,FC,18,00,18,00,00,10,
-1767062276979618,000005C0,false,Rx,0,8,63,00,00,FF,FF,10,2E,CC,
-1767062276979362,000005C1,false,Rx,0,8,00,00,00,00,7F,FF,FF,FE,
-1767062276979107,000005D0,false,Rx,0,8,00,00,5F,8E,5E,2B,13,83,
-1767062276978851,000005D1,false,Rx,0,8,5E,D3,60,B2,00,30,00,43,
-1767062276970147,00000142,false,Rx,0,8,33,71,31,73,91,01,00,05,
-1767062276969891,00000182,false,Rx,0,8,00,02,FF,7F,F9,00,00,00,
-1767062276969635,000005C0,false,Rx,0,8,63,00,00,FF,FF,10,2E,E7,
-1767062276969379,000005C1,false,Rx,0,8,00,00,00,00,7F,FF,FF,FE,
-1767062276969123,000005D0,false,Rx,0,8,00,00,5F,8E,5E,2B,13,81,
-1767062276968867,000005D1,false,Rx,0,8,5E,D3,60,B2,00,30,00,43,
-1767062276960164,00000141,false,Rx,0,8,07,0F,6E,5C,4F,64,00,05,
-1767062276959908,00000143,false,Rx,0,8,BF,FC,18,00,18,00,00,10,
-1767062276959652,000005C0,false,Rx,0,8,63,00,00,FF,FF,10,2E,CC,
-1767062276959353,000005C1,false,Rx,0,8,00,00,00,00,7F,FF,F8,A7,
-1767062276959097,000005D0,false,Rx,0,8,00,00,5F,8E,5E,2B,13,81,
-1767062276958884,000005D1,false,Rx,0,8,5E,D3,60,B2,00,30,00,43,
-1767062276950223,0000017B,false,Rx,0,8,01,65,A0,00,10,30,00,00,
-1767062276949839,000005C0,false,Rx,0,8,63,00,00,FF,FF,10,2E,D9,
-1767062276949583,000005C1,false,Rx,0,8,00,00,00,00,7F,FF,F8,A7,
-1767062276949327,000005D0,false,Rx,0,8,00,00,5F,8E,5E,2B,13,81,
-1767062276949071,000005D1,false,Rx,0,8,5E,D3,60,B2,00,30,00,43,
-1767062276940112,00000142,false,Rx,0,8,34,71,32,73,99,01,00,05,
-1767062276939856,00000141,false,Rx,0,8,08,AC,6E,5C,4F,64,00,05,
-1767062276939642,00000143,false,Rx,0,8,BF,FC,18,00,18,00,00,10,
-1767062276939386,00000178,false,Rx,0,8,60,00,06,01,38,75,58,00,
-1767062276939130,00000286,false,Rx,0,8,A8,4A,FF,F0,00,50,01,01,
-1767062276938874,000005C0,false,Rx,0,8,63,00,00,FF,FF,10,2E,E7,
-1767062276938618,000005C1,false,Rx,0,8,00,00,00,00,7F,FF,FF,FE,
-1767062276938362,000005D0,false,Rx,0,8,00,00,5F,8E,5E,2B,13,81,
-1767062276938106,000005D1,false,Rx,0,8,5E,D3,60,B2,00,30,00,43,
-1767062276930171,000005C0,false,Rx,0,8,63,00,00,FF,FF,10,2E,CC,
-1767062276929830,000005C1,false,Rx,0,8,00,00,00,00,7F,FF,F8,A7,
-1767062276929574,000005D0,false,Rx,0,8,00,00,5F,8E,5E,2B,13,83,
-1767062276929360,000005D1,false,Rx,0,8,5E,D3,60,B2,00,30,00,43,
-1767062276920102,00000141,false,Rx,0,8,09,E0,6E,5C,4F,64,00,05,
-1767062276919846,00000143,false,Rx,0,8,BF,FC,18,00,18,00,00,10,
-1767062276919590,000005C0,false,Rx,0,8,63,00,00,FF,FF,10,2E,D9,
-1767062276919334,000005C1,false,Rx,0,8,00,00,00,00,7F,FF,FC,52,
-1767062276919078,000005D0,false,Rx,0,8,00,00,5F,8E,5E,2B,13,83,
-1767062276918865,000005D1,false,Rx,0,8,5E,D3,60,B2,00,30,00,43,
-1767062276911953,00000536,false,Rx,0,8,00,41,40,21,00,00,00,00,
-1767062276909692,00000519,false,Rx,0,8,19,40,00,00,00,00,00,00,
-1767062276909223,00000142,false,Rx,0,8,35,71,33,73,99,01,00,05,
-1767062276908967,000005C0,false,Rx,0,8,63,00,00,FF,FF,10,2E,E7,
-1767062276908668,000005C1,false,Rx,0,8,00,00,00,00,7F,FF,F8,A7,
-1767062276908455,000005D0,false,Rx,0,8,00,00,5F,8E,5E,2B,13,7F,
-1767062276908199,000005D1,false,Rx,0,8,5E,D3,60,B2,00,30,00,43,
-1767062276900135,00000145,false,Rx,0,8,73,A7,50,87,F3,73,69,1C,
-1767062276899879,00000053,false,Rx,0,8,00,00,80,01,77,7F,F9,00,
-1767062276899581,00000141,false,Rx,0,8,0A,34,6E,5C,4F,64,00,05,
-1767062276899367,00000143,false,Rx,0,8,BF,FC,18,00,18,00,00,10,
-1767062276899112,00000175,false,Rx,0,8,07,FF,00,0B,9C,80,00,0E,
-1767062276898856,0000017B,false,Rx,0,8,01,65,A0,00,10,2F,00,00,
-1767062276898600,00000182,false,Rx,0,8,00,02,FF,7F,F9,00,00,00,
-1767062276898301,0000018A,false,Rx,0,8,00,00,00,01,00,00,00,01,
-1767062276898088,00000288,false,Rx,0,8,23,37,9F,FF,00,02,0A,00,
-1767062276897832,00000290,false,Rx,0,8,23,24,23,10,01,03,CA,7F,
-1767062276897533,00000493,false,Rx,0,8,00,00,00,00,00,00,00,06,
-1767062276897277,00000494,false,Rx,0,8,00,00,00,00,00,00,00,01,
-1767062276897021,000005C0,false,Rx,0,8,63,00,00,FF,FF,10,2F,0F,
-1767062276896765,000005C1,false,Rx,0,8,00,00,00,00,80,00,07,56,
-1767062276896509,000005D0,false,Rx,0,8,00,00,5F,8E,5E,2B,13,80,
-1767062276896253,000005D1,false,Rx,0,8,5E,D3,60,B2,00,30,00,43,
-1767062276890195,000005C0,false,Rx,0,8,63,00,00,FF,FF,10,2E,BF,
-1767062276889853,000005C1,false,Rx,0,8,00,00,00,00,80,00,03,AA,
-1767062276889597,000005D0,false,Rx,0,8,00,00,5F,8E,5E,2B,13,81,
-1767062276889341,000005D1,false,Rx,0,8,5E,D3,60,B2,00,30,00,43,
-1767062276880126,00000142,false,Rx,0,8,36,71,34,73,89,01,00,05,
-1767062276879870,00000141,false,Rx,0,8,0B,78,6E,5C,4F,64,00,05,
-1767062276879614,00000143,false,Rx,0,8,BF,FC,18,00,18,00,00,10,
-1767062276879358,000005C0,false,Rx,0,8,63,00,00,FF,FF,10,2E,CC,
-1767062276879102,000005C1,false,Rx,0,8,00,00,00,00,7F,FF,FF,FE,
-1767062276878846,000005D0,false,Rx,0,8,00,00,5F,8E,5E,2B,13,84,
-1767062276878590,000005D1,false,Rx,0,8,5E,D3,60,B2,00,30,00,43,
-1767062276870185,00000178,false,Rx,0,8,60,00,01,4A,38,75,58,00,
-1767062276869801,000005C0,false,Rx,0,8,63,00,00,FF,FF,10,2E,D9,
-1767062276869545,000005C1,false,Rx,0,8,00,00,00,00,7F,FF,FF,FE,
-1767062276869289,000005D0,false,Rx,0,8,00,00,5F,8E,5E,2B,13,81,
-1767062276869033,000005D1,false,Rx,0,8,5E,D3,60,B2,00,30,00,43,
-1767062276860159,00000141,false,Rx,0,8,0C,81,6E,5C,4F,64,00,05,
-1767062276859861,00000143,false,Rx,0,8,BF,FC,18,00,18,00,00,10,
-1767062276859647,000005C0,false,Rx,0,8,63,00,00,FF,FF,10,2E,D9,
-1767062276859391,000005C1,false,Rx,0,8,00,00,00,00,80,00,03,AA,
-1767062276859135,000005D0,false,Rx,0,8,00,00,5F,8E,5E,2B,13,7F,
-1767062276858879,000005D1,false,Rx,0,8,5E,D3,60,B2,00,30,00,43,
-1767062276850219,00000142,false,Rx,0,8,37,71,35,73,91,01,00,05,
-1767062276849920,0000017B,false,Rx,0,8,01,65,A0,00,10,30,00,00,
-1767062276849707,00000316,false,Rx,0,8,00,00,00,00,00,00,00,00,
-1767062276849451,00000479,false,Rx,0,8,23,23,23,08,1C,54,00,01,
-1767062276849195,000005C0,false,Rx,0,8,63,00,00,FF,FF,10,2E,F4,
-1767062276848896,000005C1,false,Rx,0,8,00,00,00,00,7F,FF,FF,FE,
-1767062276848683,000005D0,false,Rx,0,8,00,00,5F,8E,5E,2B,13,83,
-1767062276848427,000005D1,false,Rx,0,8,5E,D3,60,B2,00,30,00,43,
-1767062276840193,00000141,false,Rx,0,8,0D,CD,6E,5C,4F,64,00,05,
-1767062276839937,00000143,false,Rx,0,8,BF,FC,18,00,18,00,00,10,
-1767062276839681,000005C0,false,Rx,0,8,63,00,00,FF,FF,10,2E,D9,
-1767062276839382,000005C1,false,Rx,0,8,00,00,00,00,80,00,07,56,
-1767062276839126,000005D0,false,Rx,0,8,00,00,5F,8E,5E,2B,13,81,
-1767062276838913,000005D1,false,Rx,0,8,5E,D3,60,B2,00,30,00,43,
-1767062276830209,00000182,false,Rx,0,8,00,02,FF,7F,F9,00,00,00,
-1767062276829868,000005C0,false,Rx,0,8,63,00,00,FF,FF,10,2E,D9,
-1767062276829569,000005C1,false,Rx,0,8,00,00,00,00,80,00,07,56,
-1767062276829313,000005D0,false,Rx,0,8,00,00,5F,8E,5E,2B,13,7F,
-1767062276829100,000005D1,false,Rx,0,8,5E,D3,60,B2,00,30,00,43,
-1767062276820098,00000142,false,Rx,0,8,38,71,36,73,91,01,00,05,
-1767062276819884,00000141,false,Rx,0,8,0E,19,6E,5C,4F,64,00,05,
-1767062276819586,00000143,false,Rx,0,8,BF,FC,18,00,18,00,00,10,
-1767062276819372,000005C0,false,Rx,0,8,63,00,00,FF,FF,10,2E,E7,
-1767062276819074,000005C1,false,Rx,0,8,00,00,00,00,80,00,0B,01,
-1767062276818861,000005D0,false,Rx,0,8,00,00,5F,8E,5E,2B,13,80,
-1767062276818605,000005D1,false,Rx,0,8,5E,D3,60,B2,00,30,00,43,
-1767062276811949,00000536,false,Rx,0,8,00,41,40,21,00,00,00,00,
-1767062276809304,000005C0,false,Rx,0,8,63,00,00,FF,FF,10,2E,E7,
-1767062276808920,000005C1,false,Rx,0,8,00,00,00,00,80,00,03,AA,
-1767062276808664,000005D0,false,Rx,0,8,00,00,5F,8E,5E,2B,13,81,
-1767062276808408,000005D1,false,Rx,0,8,5E,D3,60,B2,00,30,00,43,
-1767062276800131,00000145,false,Rx,0,8,73,A7,50,87,F3,73,69,1C,
-1767062276799875,00000053,false,Rx,0,8,00,00,80,01,78,7F,F9,00,
-1767062276799576,00000141,false,Rx,0,8,00,F6,6E,5D,4F,64,00,05,
-1767062276799320,00000143,false,Rx,0,8,BF,FC,18,00,18,00,00,10,
-1767062276799064,00000175,false,Rx,0,8,07,FF,00,0B,9C,80,00,0E,
-1767062276798808,00000178,false,Rx,0,8,60,00,01,4C,38,75,58,00,
-1767062276798552,0000017B,false,Rx,0,8,01,65,A0,00,10,2F,00,00,
-1767062276798296,0000018A,false,Rx,0,8,00,00,00,01,00,00,00,01,
-1767062276798040,00000286,false,Rx,0,8,A8,4A,FF,F0,00,50,01,01,
-1767062276797785,00000288,false,Rx,0,8,23,37,9F,FF,00,02,0A,00,
-1767062276797529,00000290,false,Rx,0,8,23,24,23,11,01,03,CA,7F,
-1767062276797273,00000293,false,Rx,0,8,20,00,9F,94,19,1F,08,C8,
-1767062276797017,00000493,false,Rx,0,8,00,00,00,00,00,00,00,06,
-1767062276796761,00000494,false,Rx,0,8,00,00,00,00,00,00,00,01,
-1767062276796505,000005C0,false,Rx,0,8,63,00,00,FF,FF,10,2E,E7,
-1767062276796249,000005C1,false,Rx,0,8,00,00,00,00,7F,FF,F8,A7,
-1767062276795993,000005D0,false,Rx,0,8,00,00,5F,8E,5E,2B,13,85,
-1767062276795694,000005D1,false,Rx,0,8,5E,D3,60,B2,00,30,00,43,
-1767062276790233,00000142,false,Rx,0,8,39,71,37,73,91,01,00,05,
-1767062276789977,000005C0,false,Rx,0,8,63,00,00,FF,FF,10,2E,D9,
-1767062276789678,000005C1,false,Rx,0,8,00,00,00,00,80,00,03,AA,
-1767062276789465,000005D0,false,Rx,0,8,00,00,5F,8E,5E,2B,13,85,
-1767062276789209,000005D1,false,Rx,0,8,5E,D3,60,B2,00,30,00,43,
-1767062276780164,00000141,false,Rx,0,8,01,BA,6E,5C,4F,64,00,05,
-1767062276779908,00000143,false,Rx,0,8,BF,FC,18,00,18,00,00,10,
-1767062276779652,000005C0,false,Rx,0,8,63,00,00,FF,FF,10,2E,E7,
-1767062276779396,000005C1,false,Rx,0,8,00,00,00,00,7F,FF,F8,A7,
-1767062276779140,000005D0,false,Rx,0,8,00,00,5F,8E,5E,2B,13,86,
-1767062276778884,000005D1,false,Rx,0,8,5E,D3,60,B2,00,30,00,43,
-1767062276770138,000005C0,false,Rx,0,8,63,00,00,FF,FF,10,2E,D9,
-1767062276769797,000005C1,false,Rx,0,8,00,00,00,00,7F,FF,FC,52,
-1767062276769541,000005D0,false,Rx,0,8,00,00,5F,8E,5E,2B,13,81,
-1767062276769285,000005D1,false,Rx,0,8,5E,D3,60,B2,00,30,00,43,
-1767062276760155,00000142,false,Rx,0,8,3A,71,38,73,91,01,00,05,
-1767062276759942,00000141,false,Rx,0,8,02,6E,6E,5C,4F,64,00,05,
-1767062276759686,00000143,false,Rx,0,8,BF,FC,18,00,18,00,00,10,
-1767062276759387,00000182,false,Rx,0,8,00,02,FF,7F,F9,00,00,00,
-1767062276759131,000005C0,false,Rx,0,8,63,00,00,FF,FF,10,2E,CC,
-1767062276758875,000005C1,false,Rx,0,8,00,00,00,00,80,00,07,56,
-1767062276758619,000005D0,false,Rx,0,8,00,00,5F,8E,5E,2B,13,80,
-1767062276758406,000005D1,false,Rx,0,8,5E,D3,60,B2,00,30,00,43,
-1767062276750214,0000017B,false,Rx,0,8,01,65,A0,00,10,2F,00,00,
-1767062276749873,000005C0,false,Rx,0,8,63,00,00,FF,FF,10,2E,D9,
-1767062276749574,000005C1,false,Rx,0,8,00,00,00,00,7F,FF,FF,FE,
-1767062276749318,000005D0,false,Rx,0,8,00,00,5F,8E,5E,2B,13,81,
-1767062276749105,000005D1,false,Rx,0,8,5E,D3,60,B2,00,30,00,43,
-1767062276740149,00000141,false,Rx,0,8,03,22,6E,5C,4F,64,00,05,
-1767062276739893,00000143,false,Rx,0,8,BF,FC,18,00,18,00,00,10,
-1767062276739637,000005C0,false,Rx,0,8,63,00,00,FF,FF,10,2E,E7,
-1767062276739381,000005C1,false,Rx,0,8,00,00,00,00,7F,FF,FF,FE,
-1767062276739126,000005D0,false,Rx,0,8,00,00,5F,8E,5E,2B,13,81,
-1767062276738870,000005D1,false,Rx,0,8,5E,D3,60,B2,00,30,00,43,
-1767062276730209,00000142,false,Rx,0,8,3B,71,39,73,91,01,00,05,
-1767062276729953,00000178,false,Rx,0,8,60,00,01,F2,38,75,58,00,
-1767062276729697,000005C0,false,Rx,0,8,63,00,00,FF,FF,10,2E,CC,
-1767062276729441,000005C1,false,Rx,0,8,00,00,00,00,80,00,15,49,
-1767062276729185,000005D0,false,Rx,0,8,00,00,5F,8E,5E,2B,13,83,
-1767062276728971,000005D1,false,Rx,0,8,5E,D3,60,B2,00,30,00,43,
-1767062276720183,00000141,false,Rx,0,8,04,DB,6E,5C,4F,64,00,05,
-1767062276719884,00000143,false,Rx,0,8,BF,FC,18,00,18,00,00,10,
-1767062276719671,000005C0,false,Rx,0,8,63,00,00,FF,FF,10,2E,E7,
-1767062276719415,000005C1,false,Rx,0,8,00,00,00,00,7F,FF,F8,A7,
-1767062276719159,000005D0,false,Rx,0,8,00,00,5F,8E,5E,2B,13,81,
-1767062276718903,000005D1,false,Rx,0,8,5E,D3,60,B2,00,30,00,43,
-1767062276711949,00000536,false,Rx,0,8,00,41,40,21,00,00,00,00,
-1767062276709303,000005C0,false,Rx,0,8,63,00,00,FF,FF,10,2E,E7,
-1767062276708962,000005C1,false,Rx,0,8,00,00,00,00,80,00,07,56,
-1767062276708663,000005D0,false,Rx,0,8,00,00,5F,8E,5E,2B,13,83,
-1767062276708450,000005D1,false,Rx,0,8,5E,D3,60,B2,00,30,00,43,
-1767062276700088,00000145,false,Rx,0,8,73,A7,50,87,F3,73,69,1C,
-1767062276699832,00000053,false,Rx,0,8,00,00,80,01,78,7F,F9,00,
-1767062276699533,00000141,false,Rx,0,8,05,97,6E,5D,4F,64,00,05,
-1767062276699320,00000142,false,Rx,0,8,3C,71,3A,73,91,01,00,05,
-1767062276699064,00000143,false,Rx,0,8,BF,FC,18,00,18,00,00,10,
-1767062276698808,00000175,false,Rx,0,8,07,FF,00,0B,9C,80,00,0E,
-1767062276698552,0000017B,false,Rx,0,8,01,65,A0,00,10,2F,00,00,
-1767062276698296,0000018A,false,Rx,0,8,00,00,00,01,00,00,00,01,
-1767062276698040,00000288,false,Rx,0,8,23,37,9F,FF,00,02,0A,00,
-1767062276697784,00000290,false,Rx,0,8,23,24,23,12,01,03,CA,7F,
-1767062276697528,00000493,false,Rx,0,8,00,00,00,00,00,00,00,06,
-1767062276697272,00000494,false,Rx,0,8,00,00,00,00,00,00,00,01,
-1767062276697016,000005C0,false,Rx,0,8,63,00,00,FF,FF,10,2E,D9,
-1767062276696717,000005C1,false,Rx,0,8,00,00,00,00,7F,FF,FC,52,
-1767062276696462,000005D0,false,Rx,0,8,00,00,5F,8E,5E,2B,13,83,
-1767062276696248,000005D1,false,Rx,0,8,5E,D3,60,B2,00,30,00,43,
-1767062276690233,00000182,false,Rx,0,8,00,02,FF,7F,F9,00,00,00,
-1767062276689891,000005C0,false,Rx,0,8,63,00,00,FF,FF,10,2E,D9,
-1767062276689593,000005C1,false,Rx,0,8,00,00,00,00,7F,FF,F4,FA,
-1767062276689379,000005D0,false,Rx,0,8,00,00,5F,8E,5E,2B,13,84,
-1767062276689123,000005D1,false,Rx,0,8,5E,D3,60,B2,00,30,00,43,
-1767062276680164,00000479,false,Rx,0,8,23,23,23,09,1C,54,00,01,
-1767062276679908,00000141,false,Rx,0,8,06,43,6E,5C,4F,64,00,05,
-1767062276679652,00000143,false,Rx,0,8,BF,FC,18,00,18,00,00,10,
-1767062276679396,000005C0,false,Rx,0,8,63,00,00,FF,FF,10,2E,CC,
-1767062276679140,000005C1,false,Rx,0,8,00,00,00,00,80,00,07,56,
-1767062276678884,000005D0,false,Rx,0,8,00,00,5F,8E,5E,2B,13,83,
-1767062276678628,000005D1,false,Rx,0,8,5E,D3,60,B2,00,30,00,43,
-1767062276670180,00000142,false,Rx,0,8,3D,71,3B,73,91,01,00,05,
-1767062276669924,000005C0,false,Rx,0,8,63,00,00,FF,FF,10,2E,E7,
-1767062276669626,000005C1,false,Rx,0,8,00,00,00,00,7F,FF,FC,52,
-1767062276669413,000005D0,false,Rx,0,8,00,00,5F,8E,5E,2B,13,83,
-1767062276669157,000005D1,false,Rx,0,8,5E,D3,60,B2,00,30,00,43,
-1767062276660154,00000141,false,Rx,0,8,07,0F,6E,5C,4F,64,00,05,
-1767062276659898,00000143,false,Rx,0,8,BF,FC,18,00,18,00,00,10,
-1767062276659642,00000178,false,Rx,0,8,60,00,05,E4,38,75,58,00,
-1767062276659386,00000286,false,Rx,0,8,A8,4A,FF,F0,00,50,01,01,
-1767062276659131,000005C0,false,Rx,0,8,63,00,00,FF,FF,10,2E,CC,
-1767062276658875,000005C1,false,Rx,0,8,00,00,00,00,7F,FF,FC,52,
-1767062276658619,000005D0,false,Rx,0,8,00,00,5F,8E,5E,2B,13,88,
-1767062276658405,000005D1,false,Rx,0,8,5E,D3,60,B2,00,30,00,43,
-1767062276650214,0000017B,false,Rx,0,8,01,65,A0,00,10,30,00,00,
-1767062276649830,000005C0,false,Rx,0,8,63,00,00,FF,FF,10,2E,E7,
-1767062276649574,000005C1,false,Rx,0,8,00,00,00,00,80,00,0E,AE,
-1767062276649360,000005D0,false,Rx,0,8,00,00,5F,8E,5E,2B,13,7E,
-1767062276649104,000005D1,false,Rx,0,8,5E,D3,60,B2,00,30,00,43,
-1767062276640145,00000142,false,Rx,0,8,3E,71,3C,73,91,01,00,05,
-1767062276639889,00000141,false,Rx,0,8,08,AC,6E,5C,4F,64,00,05,
-1767062276639676,00000143,false,Rx,0,8,BF,FC,18,00,18,00,00,10,
-1767062276639420,000005C0,false,Rx,0,8,63,00,00,FF,FF,10,2E,CC,
-1767062276639164,000005C1,false,Rx,0,8,00,00,00,00,7F,FF,F8,A7,
-1767062276638908,000005D0,false,Rx,0,8,00,00,5F,8E,5E,2B,13,83,
-1767062276638652,000005D1,false,Rx,0,8,5E,D3,60,B2,00,30,00,43,
-1767062276630204,000005C0,false,Rx,0,8,63,00,00,FF,FF,10,2E,BF,
-1767062276629863,000005C1,false,Rx,0,8,00,00,00,00,7F,FF,FF,FE,
-1767062276629607,000005D0,false,Rx,0,8,00,00,5F,8E,5E,2B,13,83,
-1767062276629351,000005D1,false,Rx,0,8,5E,D3,60,B2,00,30,00,43,
-1767062276620093,00000182,false,Rx,0,8,00,02,FF,7F,F9,00,00,00,
-1767062276619837,00000141,false,Rx,0,8,09,E0,6E,5C,4F,64,00,05,
-1767062276619581,00000143,false,Rx,0,8,BF,FC,18,00,18,00,00,10,
-1767062276619325,000005C0,false,Rx,0,8,63,00,00,FF,FF,10,2E,CC,
-1767062276619069,000005C1,false,Rx,0,8,00,00,00,00,7F,FF,F8,A7,
-1767062276618813,000005D0,false,Rx,0,8,00,00,5F,8E,5E,2B,13,84,
-1767062276618557,000005D1,false,Rx,0,8,5E,D3,60,B2,00,30,00,43,
-1767062276611987,00000536,false,Rx,0,8,00,41,40,21,00,00,00,00,
-1767062276610152,00000142,false,Rx,0,8,3F,71,3D,73,89,01,00,05,
-1767062276609854,000005C0,false,Rx,0,8,63,00,00,FF,FF,10,2E,D9,
-1767062276609640,000005C1,false,Rx,0,8,00,00,00,00,80,00,07,56,
-1767062276609384,000005D0,false,Rx,0,8,00,00,5F,8E,5E,2B,13,81,
-1767062276609128,000005D1,false,Rx,0,8,5E,D3,60,B2,00,30,00,43,
-1767062276599913,00000341,false,Rx,0,8,88,00,18,00,00,37,7D,C7,
-1767062276599657,00000053,false,Rx,0,8,00,00,80,01,77,7F,F9,00,
-1767062276599316,00000141,false,Rx,0,8,0A,34,6E,5C,4F,64,00,05,
-1767062276599060,00000143,false,Rx,0,8,BF,FC,18,00,18,00,00,10,
-1767062276598804,00000145,false,Rx,0,8,73,A7,50,87,F3,73,69,1C,
-1767062276598548,00000175,false,Rx,0,8,07,FF,00,0B,9C,80,00,0E,
-1767062276598292,0000017B,false,Rx,0,8,01,65,A0,00,10,2F,00,00,
-1767062276598036,0000018A,false,Rx,0,8,00,00,00,01,00,00,00,01,
-1767062276597780,00000288,false,Rx,0,8,23,37,9F,FF,00,02,0A,00,
-1767062276597524,00000290,false,Rx,0,8,23,24,23,13,01,03,CA,7F,
-1767062276597268,00000316,false,Rx,0,8,00,00,00,00,00,00,00,00,
-1767062276597012,00000331,false,Rx,0,8,00,34,00,FA,E0,E7,40,FA,
-1767062276596756,00000342,false,Rx,0,8,13,00,18,01,FF,0F,03,00,
-1767062276596500,00000345,false,Rx,0,8,00,1C,01,01,FE,FA,FA,10,
-1767062276596244,00000346,false,Rx,0,8,E7,50,01,01,F8,00,00,00,
-1767062276595988,00000347,false,Rx,0,8,30,30,30,30,37,33,04,80,
-1767062276595689,00000478,false,Rx,0,8,00,35,A2,38,80,02,00,04,
-1767062276595476,00000493,false,Rx,0,8,00,00,00,00,00,00,00,06,
-1767062276595135,00000494,false,Rx,0,8,00,00,00,00,00,00,00,01,
-1767062276594879,00000499,false,Rx,0,8,09,9C,FF,D9,00,0C,AF,5C,
-1767062276594623,0000049C,false,Rx,0,8,00,0C,A9,D0,BF,FC,80,04,
-1767062276594367,000005C0,false,Rx,0,8,63,00,00,FF,FF,10,2E,CC,
-1767062276594111,000005C1,false,Rx,0,8,00,00,00,00,7F,FF,FF,FE,
-1767062276593855,000005D0,false,Rx,0,8,00,00,5F,8E,5E,2B,13,80,
-1767062276593599,000005D1,false,Rx,0,8,5E,D3,60,B2,00,30,00,43,
-1767062276590271,00000178,false,Rx,0,8,60,00,06,01,38,75,58,00,
-1767062276589972,000005C0,false,Rx,0,8,63,00,00,FF,FF,10,2E,D9,
-1767062276589716,000005C1,false,Rx,0,8,00,00,00,00,7F,FF,FC,52,
-1767062276589460,000005D0,false,Rx,0,8,00,00,5F,8E,5E,2B,13,81,
-1767062276589247,000005D1,false,Rx,0,8,5E,D3,60,B2,00,30,00,43,
-1767062276580159,00000142,false,Rx,0,8,40,71,3E,73,91,01,00,05,
-1767062276579946,00000141,false,Rx,0,8,0B,78,6E,5C,4F,64,00,05,
-1767062276579690,00000143,false,Rx,0,8,BF,FC,18,00,18,00,00,10,
-1767062276579434,000005C0,false,Rx,0,8,63,00,00,FF,FF,10,2E,CC,
-1767062276579136,000005C1,false,Rx,0,8,00,00,00,00,7F,FF,F8,A7,
-1767062276578880,000005D0,false,Rx,0,8,00,00,5F,8E,5E,2B,13,81,
-1767062276578666,000005D1,false,Rx,0,8,5E,D3,60,B2,00,30,00,43,
-1767062276570176,000005C0,false,Rx,0,8,63,00,00,FF,FF,10,2E,D9,
-1767062276569835,000005C1,false,Rx,0,8,00,00,00,00,80,00,07,56,
-1767062276569579,000005D0,false,Rx,0,8,00,00,5F,8E,5E,2B,13,83,
-1767062276569323,000005D1,false,Rx,0,8,5E,D3,60,B2,00,30,00,43,
-1767062276560193,00000141,false,Rx,0,8,0C,81,6E,5D,4F,64,00,05,
-1767062276559937,00000143,false,Rx,0,8,BF,FC,18,00,18,00,00,10,
-1767062276559681,000005C0,false,Rx,0,8,63,00,00,FF,FF,10,2E,D9,
-1767062276559425,000005C1,false,Rx,0,8,00,00,00,00,7F,FF,FC,52,
-1767062276559169,000005D0,false,Rx,0,8,00,00,5F,8E,5E,2B,13,83,
-1767062276558913,000005D1,false,Rx,0,8,5E,D3,60,B2,00,30,00,43,
-1767062276550252,00000142,false,Rx,0,8,41,71,3F,73,91,01,00,05,
-1767062276549953,0000017B,false,Rx,0,8,01,65,A0,00,10,2F,00,00,
-1767062276549740,00000182,false,Rx,0,8,00,02,FF,7F,F9,00,00,00,
-1767062276549484,000005C0,false,Rx,0,8,63,00,00,FF,FF,10,2E,D9,
-1767062276549228,000005C1,false,Rx,0,8,00,00,00,00,7F,FF,FC,52,
-1767062276548972,000005D0,false,Rx,0,8,00,00,5F,8E,5E,2B,13,80,
-1767062276548716,000005D1,false,Rx,0,8,5E,D3,60,B2,00,30,00,43,
-1767062276540183,00000141,false,Rx,0,8,0D,CD,6E,5C,4F,64,00,05,
-1767062276539927,00000143,false,Rx,0,8,BF,FC,18,00,18,00,00,10,
-1767062276539671,000005C0,false,Rx,0,8,63,00,00,FF,FF,10,2E,D9,
-1767062276539415,000005C1,false,Rx,0,8,00,00,00,00,7F,FF,F8,A7,
-1767062276539159,000005D0,false,Rx,0,8,00,00,5F,8E,5E,2B,13,81,
-1767062276538903,000005D1,false,Rx,0,8,5E,D3,60,B2,00,30,00,43,
-1767062276530200,000005C0,false,Rx,0,8,63,00,00,FF,FF,10,2E,CC,
-1767062276529901,000005C1,false,Rx,0,8,00,00,00,00,7F,FF,FF,FE,
-1767062276529645,000005D0,false,Rx,0,8,00,00,5F,8E,5E,2B,13,80,
-1767062276529389,000005D1,false,Rx,0,8,5E,D3,60,B2,00,30,00,43,
-1767062276520174,00000142,false,Rx,0,8,42,71,40,73,91,01,00,05,
-1767062276519918,00000141,false,Rx,0,8,0E,19,6E,5C,4F,64,00,05,
-1767062276519662,00000143,false,Rx,0,8,BF,FC,18,00,18,00,00,10,
-1767062276519406,00000178,false,Rx,0,8,60,00,01,4A,38,75,58,00,
-1767062276519150,00000286,false,Rx,0,8,A8,4A,FF,F0,00,50,01,01,
-1767062276518894,000005C0,false,Rx,0,8,63,00,00,FF,FF,10,2E,E7,
-1767062276518638,000005C1,false,Rx,0,8,00,00,00,00,7F,FF,F8,A7,
-1767062276518382,000005D0,false,Rx,0,8,00,00,5F,8E,5E,2B,13,81,
-1767062276518126,000005D1,false,Rx,0,8,5E,D3,60,B2,00,30,00,43,
-1767062276511982,00000536,false,Rx,0,8,00,41,40,21,00,00,00,00,
-1767062276509380,00000479,false,Rx,0,8,23,23,23,0A,1C,54,00,01,
-1767062276509081,000005C0,false,Rx,0,8,63,00,00,FF,FF,10,2E,BF,
-1767062276508868,000005C1,false,Rx,0,8,00,00,00,00,80,00,03,AA,
-1767062276508612,000005D0,false,Rx,0,8,00,00,5F,8E,5E,2B,13,81,
-1767062276508356,000005D1,false,Rx,0,8,5E,D3,60,B2,00,30,00,43,
-1767062276500122,00000145,false,Rx,0,8,73,A7,50,87,F3,73,69,1C,
-1767062276499866,00000053,false,Rx,0,8,00,00,80,01,78,7F,F9,00,
-1767062276499610,00000141,false,Rx,0,8,00,F6,6E,5C,4F,64,00,05,
-1767062276499354,00000143,false,Rx,0,8,BF,FC,18,00,18,00,00,10,
-1767062276499098,00000175,false,Rx,0,8,07,FF,00,0B,9C,80,00,0E,
-1767062276498842,0000017B,false,Rx,0,8,01,65,A0,00,10,2F,00,00,
-1767062276498586,0000018A,false,Rx,0,8,00,00,00,01,00,00,00,01,
-1767062276498330,00000288,false,Rx,0,8,23,37,9F,FF,00,02,0A,00,
-1767062276498074,00000290,false,Rx,0,8,23,24,23,14,01,03,CA,7F,
-1767062276497818,00000493,false,Rx,0,8,00,00,00,00,00,00,00,06,
-1767062276497562,00000494,false,Rx,0,8,00,00,00,00,00,00,00,01,
-1767062276497306,000005C0,false,Rx,0,8,63,00,00,FF,FF,10,2E,E7,
-1767062276497007,000005C1,false,Rx,0,8,00,00,00,00,7F,FF,F8,A7,
-1767062276496794,000005D0,false,Rx,0,8,00,00,5F,8E,5E,2B,13,85,
-1767062276496538,000005D1,false,Rx,0,8,5E,D3,60,B2,00,30,00,43,
-1767062276490266,00000142,false,Rx,0,8,43,71,41,73,99,01,00,05,
-1767062276489968,000005C0,false,Rx,0,8,63,00,00,FF,FF,10,2E,E7,
-1767062276489712,000005C1,false,Rx,0,8,00,00,00,00,7F,FF,F4,FA,
-1767062276489498,000005D0,false,Rx,0,8,00,00,5F,8E,5E,2B,13,83,
-1767062276489242,000005D1,false,Rx,0,8,5E,D3,60,B2,00,30,00,43,
-1767062276480155,00000182,false,Rx,0,8,00,02,FF,7F,F9,00,00,00,
-1767062276479942,00000141,false,Rx,0,8,01,BA,6E,5C,4F,64,00,05,
-1767062276479686,00000143,false,Rx,0,8,BF,FC,18,00,18,00,00,10,
-1767062276479430,000005C0,false,Rx,0,8,63,00,00,FF,FF,10,2E,D9,
-1767062276479174,000005C1,false,Rx,0,8,00,00,00,00,80,00,03,AA,
-1767062276478918,000005D0,false,Rx,0,8,00,00,5F,8E,5E,2B,13,84,
-1767062276478662,000005D1,false,Rx,0,8,5E,D3,60,B2,00,30,00,43,
-1767062276470172,000005C0,false,Rx,0,8,63,00,00,FF,FF,10,2E,F4,
-1767062276469830,000005C1,false,Rx,0,8,00,00,00,00,7F,FF,F4,FA,
-1767062276469574,000005D0,false,Rx,0,8,00,00,5F,8E,5E,2B,13,81,
-1767062276469361,000005D1,false,Rx,0,8,5E,D3,60,B2,00,30,00,43,
-1767062276460188,00000142,false,Rx,0,8,44,71,42,73,91,01,00,05,
-1767062276459932,00000141,false,Rx,0,8,02,6E,6E,5C,4F,64,00,05,
-1767062276459676,00000143,false,Rx,0,8,BF,FC,18,00,18,00,00,10,
-1767062276459420,000005C0,false,Rx,0,8,63,00,00,FF,FF,10,2E,F4,
-1767062276459164,000005C1,false,Rx,0,8,00,00,00,00,80,00,03,AA,
-1767062276458908,000005D0,false,Rx,0,8,00,00,5F,8E,5E,2B,13,81,
-1767062276458652,000005D1,false,Rx,0,8,5E,D3,60,B2,00,30,00,43,
-1767062276450248,0000017B,false,Rx,0,8,01,65,A0,00,10,30,00,00,
-1767062276449992,00000178,false,Rx,0,8,60,00,01,4C,38,75,58,00,
-1767062276449736,000005C0,false,Rx,0,8,63,00,00,FF,FF,10,2E,CC,
-1767062276449437,000005C1,false,Rx,0,8,00,00,00,00,7F,FF,FF,FE,
-1767062276449224,000005D0,false,Rx,0,8,00,00,5F,8E,5E,2B,13,81,
-1767062276448968,000005D1,false,Rx,0,8,5E,D3,60,B2,00,30,00,43,
-1767062276440179,00000141,false,Rx,0,8,03,22,6E,5C,4F,64,00,05,
-1767062276439923,00000143,false,Rx,0,8,BF,FC,18,00,18,00,00,10,
-1767062276439667,000005C0,false,Rx,0,8,63,00,00,FF,FF,10,2E,CC,
-1767062276439411,000005C1,false,Rx,0,8,00,00,00,00,7F,FF,FC,52,
-1767062276439112,000005D0,false,Rx,0,8,00,00,5F,8E,5E,2B,13,83,
-1767062276438899,000005D1,false,Rx,0,8,5E,D3,60,B2,00,30,00,43,
-1767062276430281,00000142,false,Rx,0,8,45,71,43,73,99,01,00,05,
-1767062276429982,000005C0,false,Rx,0,8,63,00,00,FF,FF,10,2E,BF,
-1767062276429726,000005C1,false,Rx,0,8,00,00,00,00,80,00,07,56,
-1767062276429470,000005D0,false,Rx,0,8,00,00,5F,8E,5E,2B,13,83,
-1767062276429214,000005D1,false,Rx,0,8,5E,D3,60,B2,00,30,00,43,
-1767062276420127,00000141,false,Rx,0,8,04,DB,6E,5C,4F,64,00,05,
-1767062276419871,00000143,false,Rx,0,8,BF,FC,18,00,18,00,00,10,
-1767062276419615,000005C0,false,Rx,0,8,63,00,00,FF,FF,10,2E,CC,
-1767062276419359,000005C1,false,Rx,0,8,00,00,00,00,7F,FF,FC,52,
-1767062276419103,000005D0,false,Rx,0,8,00,00,5F,8E,5E,2B,13,81,
-1767062276418847,000005D1,false,Rx,0,8,5E,D3,60,B2,00,30,00,43,
-1767062276411978,00000536,false,Rx,0,8,00,41,40,21,00,00,00,00,
-1767062276409375,00000182,false,Rx,0,8,00,02,FF,7F,F9,00,00,00,
-1767062276409119,000005C0,false,Rx,0,8,63,00,00,FF,FF,10,2E,D9,
-1767062276408821,000005C1,false,Rx,0,8,00,00,00,00,7F,FF,FF,FE,
-1767062276408565,000005D0,false,Rx,0,8,00,00,5F,8E,5E,2B,13,83,
-1767062276408352,000005D1,false,Rx,0,8,5E,D3,60,B2,00,30,00,43,
-1767062276400032,00000145,false,Rx,0,8,73,A7,50,87,F3,73,69,1C,
-1767062276399776,00000053,false,Rx,0,8,00,00,80,01,77,7F,F9,00,
-1767062276399477,00000141,false,Rx,0,8,05,97,6E,5C,4F,64,00,05,
-1767062276399221,00000142,false,Rx,0,8,46,71,44,73,91,01,00,05,
-1767062276398965,00000143,false,Rx,0,8,BF,FC,18,00,18,00,00,10,
-1767062276398709,00000175,false,Rx,0,8,07,FF,00,0B,9C,80,00,0E,
-1767062276398453,0000017B,false,Rx,0,8,01,65,A0,00,10,2F,00,00,
-1767062276398197,0000018A,false,Rx,0,8,00,00,00,01,00,00,00,01,
-1767062276397941,00000288,false,Rx,0,8,23,37,9F,FF,00,02,0A,00,
-1767062276397686,00000290,false,Rx,0,8,23,24,23,15,01,03,CA,7F,
-1767062276397430,00000293,false,Rx,0,8,20,00,9F,94,19,1F,08,C8,
-1767062276397216,00000295,false,Rx,0,8,3F,25,09,7B,7F,24,DC,00,
-1767062276396960,00000296,false,Rx,0,8,32,B8,3C,3C,67,8D,80,00,
-1767062276396662,00000298,false,Rx,0,8,00,18,00,00,10,00,29,C6,
-1767062276396406,00000301,false,Rx,0,8,00,94,A0,00,00,00,00,03,
-1767062276396192,00000315,false,Rx,0,8,FF,4F,FB,1F,CE,00,01,07,
-1767062276395894,00000489,false,Rx,0,8,66,2E,14,00,00,00,00,28,
-1767062276395638,00000493,false,Rx,0,8,00,00,00,00,00,00,00,06,
-1767062276395382,00000494,false,Rx,0,8,00,00,00,00,00,00,00,01,
-1767062276395126,000005C0,false,Rx,0,8,63,00,00,FF,FF,10,2E,E7,
-1767062276394827,000005C1,false,Rx,0,8,00,00,00,00,7F,FF,FF,FE,
-1767062276394571,000005D0,false,Rx,0,8,00,00,5F,8E,5E,2B,13,85,
-1767062276394315,000005D1,false,Rx,0,8,5E,D3,60,B2,00,30,00,43,
-1767062276390219,000005C0,false,Rx,0,8,63,00,00,FF,FF,10,2E,E7,
-1767062276389878,000005C1,false,Rx,0,8,00,00,00,00,7F,FF,FC,52,
-1767062276389622,000005D0,false,Rx,0,8,00,00,5F,8E,5E,2B,13,81,
-1767062276389366,000005D1,false,Rx,0,8,5E,D3,60,B2,00,30,00,43,
-1767062276380193,00000141,false,Rx,0,8,06,43,6E,5C,4F,64,00,05,
-1767062276379937,00000143,false,Rx,0,8,BF,FC,18,00,18,00,00,10,
-1767062276379681,00000178,false,Rx,0,8,60,00,01,F2,38,75,58,00,
-1767062276379425,00000286,false,Rx,0,8,A8,4A,FF,F0,00,50,01,01,
-1767062276379169,000005C0,false,Rx,0,8,63,00,00,FF,FF,10,2E,E7,
-1767062276378913,000005C1,false,Rx,0,8,00,00,00,00,80,00,03,AA,
-1767062276378657,000005D0,false,Rx,0,8,00,00,5F,8E,5E,2B,13,83,
-1767062276378401,000005D1,false,Rx,0,8,5E,D3,60,B2,00,30,00,43,
-1767062276370210,00000142,false,Rx,0,8,47,71,45,73,89,01,00,05,
-1767062276369954,000005C0,false,Rx,0,8,63,00,00,FF,FF,10,2E,E7,
-1767062276369655,000005C1,false,Rx,0,8,00,00,00,00,7F,FF,FF,FE,
-1767062276369399,000005D0,false,Rx,0,8,00,00,5F,8E,5E,2B,13,83,
-1767062276369186,000005D1,false,Rx,0,8,5E,D3,60,B2,00,30,00,43,
-1767062276360184,00000141,false,Rx,0,8,07,0F,6E,5C,4F,64,00,05,
-1767062276359928,00000143,false,Rx,0,8,BF,FC,18,00,18,00,00,10,
-1767062276359672,000005C0,false,Rx,0,8,63,00,00,FF,FF,10,2E,D9,
-1767062276359416,000005C1,false,Rx,0,8,00,00,00,00,7F,FF,FF,FE,
-1767062276359160,000005D0,false,Rx,0,8,00,00,5F,8E,5E,2B,13,84,
-1767062276358947,000005D1,false,Rx,0,8,5E,D3,60,B2,00,30,00,43,
-1767062276350286,0000017B,false,Rx,0,8,01,65,A0,00,10,2F,00,00,
-1767062276349987,00000316,false,Rx,0,8,00,00,00,00,00,00,00,00,
-1767062276349731,000005C0,false,Rx,0,8,63,00,00,FF,FF,10,2E,CC,
-1767062276349475,000005C1,false,Rx,0,8,00,00,00,00,7F,FF,FC,52,
-1767062276349219,000005D0,false,Rx,0,8,00,00,5F,8E,5E,2B,13,80,
-1767062276348963,000005D1,false,Rx,0,8,5E,D3,60,B2,00,30,00,43,
-1767062276340217,00000142,false,Rx,0,8,48,71,46,73,91,01,00,05,
-1767062276339961,00000141,false,Rx,0,8,08,AC,6E,5C,4F,64,00,05,
-1767062276339705,00000143,false,Rx,0,8,BF,FC,18,00,18,00,00,10,
-1767062276339449,00000182,false,Rx,0,8,00,02,FF,7F,F9,00,00,00,
-1767062276339193,00000479,false,Rx,0,8,23,23,23,0B,1C,54,00,01,
-1767062276338937,000005C0,false,Rx,0,8,63,00,00,FF,FF,10,2E,D9,
-1767062276338681,000005C1,false,Rx,0,8,00,00,00,00,80,00,03,AA,
-1767062276338425,000005D0,false,Rx,0,8,00,00,5F,8E,5E,2B,13,81,
-1767062276338212,000005D1,false,Rx,0,8,5E,D3,60,B2,00,30,00,43,
-1767062276330234,000005C0,false,Rx,0,8,63,00,00,FF,FF,10,2E,D9,
-1767062276329892,000005C1,false,Rx,0,8,00,00,00,00,7F,FF,FF,FE,
-1767062276329636,000005D0,false,Rx,0,8,00,00,5F,8E,5E,2B,13,81,
-1767062276329338,000005D1,false,Rx,0,8,5E,D3,60,B2,00,30,00,43,
-1767062276320208,00000141,false,Rx,0,8,09,E0,6E,5C,4F,64,00,05,
-1767062276319952,00000143,false,Rx,0,8,BF,FC,18,00,18,00,00,10,
-1767062276319653,000005C0,false,Rx,0,8,63,00,00,FF,FF,10,2E,CC,
-1767062276319397,000005C1,false,Rx,0,8,00,00,00,00,7F,FF,F8,A7,
-1767062276319141,000005D0,false,Rx,0,8,00,00,5F,8E,5E,2B,13,83,
-1767062276318885,000005D1,false,Rx,0,8,5E,D3,60,B2,00,30,00,43,
-1767062276311974,00000536,false,Rx,0,8,00,41,40,21,00,00,00,00,
-1767062276309286,00000142,false,Rx,0,8,49,71,47,73,91,01,00,05,
-1767062276308987,00000178,false,Rx,0,8,60,00,05,E4,38,75,58,00,
-1767062276308774,000005C0,false,Rx,0,8,63,00,00,FF,FF,10,2E,E7,
-1767062276308518,000005C1,false,Rx,0,8,00,00,00,00,7F,FF,F8,A7,
-1767062276308262,000005D0,false,Rx,0,8,00,00,5F,8E,5E,2B,13,81,
-1767062276308006,000005D1,false,Rx,0,8,5E,D3,60,B2,00,30,00,43,
-1767062276300028,00000145,false,Rx,0,8,73,A7,50,87,F3,73,71,1C,
-1767062276299772,00000053,false,Rx,0,8,00,00,80,01,77,7F,F9,00,
-1767062276299473,00000141,false,Rx,0,8,0A,34,6E,5C,4F,64,00,05,
-1767062276299174,00000143,false,Rx,0,8,BF,FC,18,00,18,00,00,10,
-1767062276298961,00000175,false,Rx,0,8,07,FF,00,0B,9C,80,00,0E,
-1767062276298705,0000017B,false,Rx,0,8,01,65,A0,00,10,30,00,00,
-1767062276298449,0000018A,false,Rx,0,8,00,00,00,01,00,00,00,01,
-1767062276298193,00000288,false,Rx,0,8,23,37,9F,FF,00,02,0A,00,
-1767062276297937,00000290,false,Rx,0,8,23,24,23,16,01,03,CA,7F,
-1767062276297681,00000493,false,Rx,0,8,00,00,00,00,00,00,00,06,
-1767062276297425,00000494,false,Rx,0,8,00,00,00,00,00,00,00,01,
-1767062276297169,000005C0,false,Rx,0,8,63,00,00,FF,FF,10,2E,D9,
-1767062276296913,000005C1,false,Rx,0,8,00,00,00,00,7F,FF,FF,FE,
-1767062276296657,000005D0,false,Rx,0,8,00,00,5F,8E,5E,2B,13,83,
-1767062276296401,000005D1,false,Rx,0,8,5E,D3,60,B2,00,30,00,43,
-1767062276290258,000005C0,false,Rx,0,8,63,00,00,FF,FF,10,2E,CC,
-1767062276289916,000005C1,false,Rx,0,8,00,00,00,00,7F,FF,FC,52,
-1767062276289660,000005D0,false,Rx,0,8,00,00,5F,8E,5E,2B,13,83,
-1767062276289404,000005D1,false,Rx,0,8,5E,D3,60,B2,00,30,00,43,
-1767062276280189,00000142,false,Rx,0,8,4A,71,48,73,81,01,00,05,
-1767062276279976,00000141,false,Rx,0,8,0B,78,6E,5C,4F,64,00,05,
-1767062276279720,00000143,false,Rx,0,8,BF,FC,18,00,18,00,00,10,
-1767062276279464,000005C0,false,Rx,0,8,63,00,00,FF,FF,10,2E,D9,
-1767062276279208,000005C1,false,Rx,0,8,00,00,00,00,7F,FF,F8,A7,
-1767062276278952,000005D0,false,Rx,0,8,00,00,5F,8E,5E,2B,13,81,
-1767062276278696,000005D1,false,Rx,0,8,5E,D3,60,B2,00,30,00,43,
-1767062276270205,00000182,false,Rx,0,8,00,02,FF,7F,F9,00,00,00,
-1767062276269822,000005C0,false,Rx,0,8,63,00,00,FF,FF,10,2E,D9,
-1767062276269566,000005C1,false,Rx,0,8,00,00,00,00,80,00,03,AA,
-1767062276269310,000005D0,false,Rx,0,8,00,00,5F,8E,5E,2B,13,83,
-1767062276269054,000005D1,false,Rx,0,8,5E,D3,60,B2,00,30,00,43,
-1767062276260222,00000141,false,Rx,0,8,0C,81,6E,5C,4F,64,00,05,
-1767062276259923,00000143,false,Rx,0,8,BF,FC,18,00,18,00,00,10,
-1767062276259667,000005C0,false,Rx,0,8,63,00,00,FF,FF,10,2E,D9,
-1767062276259411,000005C1,false,Rx,0,8,00,00,00,00,7F,FF,FF,FE,
-1767062276259156,000005D0,false,Rx,0,8,00,00,5F,8E,5E,2B,13,81,
-1767062276258900,000005D1,false,Rx,0,8,5E,D3,60,B2,00,30,00,43,
-1767062276250281,00000142,false,Rx,0,8,4B,71,49,73,81,01,00,05,
-1767062276249983,0000017B,false,Rx,0,8,01,65,A0,00,10,2F,00,00,
-1767062276249727,000005C0,false,Rx,0,8,63,00,00,FF,FF,10,2E,E7,
-1767062276249471,000005C1,false,Rx,0,8,00,00,00,00,7F,FF,FF,FE,
-1767062276249215,000005D0,false,Rx,0,8,00,00,5F,8E,5E,2B,13,81,
-1767062276248959,000005D1,false,Rx,0,8,5E,D3,60,B2,00,30,00,43,
-1767062276240213,00000141,false,Rx,0,8,0D,CD,6E,5C,4F,64,00,05,
-1767062276239957,00000143,false,Rx,0,8,BF,FC,18,00,18,00,00,10,
-1767062276239701,00000178,false,Rx,0,8,60,00,06,01,38,75,58,00,
-1767062276239445,00000286,false,Rx,0,8,A8,4A,FF,F0,00,50,01,01,
-1767062276239189,000005C0,false,Rx,0,8,63,00,00,FF,FF,10,2E,E7,
-1767062276238933,000005C1,false,Rx,0,8,00,00,00,00,80,00,03,AA,
-1767062276238719,000005D0,false,Rx,0,8,00,00,5F,8E,5E,2B,13,84,
-1767062276238463,000005D1,false,Rx,0,8,5E,D3,60,B2,00,30,00,43,
-1767062276230229,000005C0,false,Rx,0,8,63,00,00,FF,FF,10,2E,D9,
-1767062276229888,000005C1,false,Rx,0,8,00,00,00,00,80,00,03,AA,
-1767062276229589,000005D0,false,Rx,0,8,00,00,5F,8E,5E,2B,13,80,
-1767062276229376,000005D1,false,Rx,0,8,5E,D3,60,B2,00,30,00,43,
-1767062276220203,00000142,false,Rx,0,8,4C,71,4A,73,91,01,00,05,
-1767062276219947,00000141,false,Rx,0,8,0E,19,6E,5C,4F,64,00,05,
-1767062276219691,00000143,false,Rx,0,8,BF,FC,18,00,18,00,00,10,
-1767062276219393,000005C0,false,Rx,0,8,63,00,00,FF,FF,10,2E,F4,
-1767062276219179,000005C1,false,Rx,0,8,00,00,00,00,80,00,07,56,
-1767062276218923,000005D0,false,Rx,0,8,00,00,5F,8E,5E,2B,13,80,
-1767062276218667,000005D1,false,Rx,0,8,5E,D3,60,B2,00,30,00,43,
-1767062276211969,00000536,false,Rx,0,8,00,41,40,21,00,00,00,00,
-1767062276209281,000005C0,false,Rx,0,8,63,00,00,FF,FF,10,2E,B1,
-1767062276209025,000005C1,false,Rx,0,8,00,00,00,00,7F,FF,FF,FE,
-1767062276208769,000005D0,false,Rx,0,8,00,00,5F,8E,5E,2B,13,81,
-1767062276208513,000005D1,false,Rx,0,8,5E,D3,60,B2,00,30,00,43,
-1767062276199853,00000145,false,Rx,0,8,73,A7,50,87,F3,73,69,1C,
-1767062276199597,00000053,false,Rx,0,8,00,00,80,01,78,7F,F9,00,
-1767062276199255,00000141,false,Rx,0,8,00,F6,6E,5C,4F,64,00,05,
-1767062276198999,00000143,false,Rx,0,8,BF,FC,18,00,18,00,00,10,
-1767062276198743,00000175,false,Rx,0,8,07,FF,00,0B,9C,80,00,0E,
-1767062276198487,0000017B,false,Rx,0,8,01,65,A0,00,10,30,00,00,
-1767062276198231,00000182,false,Rx,0,8,00,02,FF,7F,F9,00,00,00,
-1767062276197975,0000018A,false,Rx,0,8,00,00,00,01,00,00,00,01,
-1767062276197719,00000288,false,Rx,0,8,23,37,9F,FF,00,02,0A,00,
-1767062276197463,00000290,false,Rx,0,8,23,24,23,17,01,03,CA,7F,
-1767062276197207,00000493,false,Rx,0,8,00,00,00,00,00,00,00,06,
-1767062276196951,00000494,false,Rx,0,8,00,00,00,00,00,00,00,01,
-1767062276196695,000005C0,false,Rx,0,8,63,00,00,FF,FF,10,2E,CC,
-1767062276196439,000005C1,false,Rx,0,8,00,00,00,00,7F,FF,F8,A7,
-1767062276196183,000005D0,false,Rx,0,8,00,00,5F,8E,5E,2B,13,83,
-1767062276195885,000005D1,false,Rx,0,8,5E,D3,60,B2,00,30,00,43,
-1767062276190253,00000142,false,Rx,0,8,4D,71,4B,73,89,01,00,05,
-1767062276189997,000005C0,false,Rx,0,8,63,00,00,FF,FF,10,2E,B1,
-1767062276189741,000005C1,false,Rx,0,8,00,00,00,00,7F,FF,F8,A7,
-1767062276189485,000005D0,false,Rx,0,8,00,00,5F,8E,5E,2B,13,81,
-1767062276189229,000005D1,false,Rx,0,8,5E,D3,60,B2,00,30,00,43,
-1767062276180184,00000141,false,Rx,0,8,01,BA,6E,5C,4F,64,00,05,
-1767062276179928,00000143,false,Rx,0,8,BF,FC,18,00,18,00,00,10,
-1767062276179672,000005C0,false,Rx,0,8,63,00,00,FF,FF,10,2E,F4,
-1767062276179374,000005C1,false,Rx,0,8,00,00,00,00,80,00,03,AA,
-1767062276179161,000005D0,false,Rx,0,8,00,00,5F,8E,5E,2B,13,81,
-1767062276178905,000005D1,false,Rx,0,8,5E,D3,60,B2,00,30,00,43,
-1767062276170201,00000479,false,Rx,0,8,23,23,23,0C,1C,54,00,01,
-1767062276169945,00000178,false,Rx,0,8,60,00,01,4A,38,75,58,00,
-1767062276169689,000005C0,false,Rx,0,8,63,00,00,FF,FF,10,2E,CC,
-1767062276169433,000005C1,false,Rx,0,8,00,00,00,00,80,00,07,56,
-1767062276169177,000005D0,false,Rx,0,8,00,00,5F,8E,5E,2B,13,81,
-1767062276168921,000005D1,false,Rx,0,8,5E,D3,60,B2,00,30,00,43,
-1767062276160175,00000142,false,Rx,0,8,4E,71,4C,73,91,01,00,05,
-1767062276159919,00000141,false,Rx,0,8,02,6E,6E,5C,4F,64,00,05,
-1767062276159663,00000143,false,Rx,0,8,BF,FC,18,00,18,00,00,10,
-1767062276159407,000005C0,false,Rx,0,8,63,00,00,FF,FF,10,2E,CC,
-1767062276159151,000005C1,false,Rx,0,8,00,00,00,00,80,00,03,AA,
-1767062276158895,000005D0,false,Rx,0,8,00,00,5F,8E,5E,2B,13,81,
-1767062276158639,000005D1,false,Rx,0,8,5E,D3,60,B2,00,30,00,43,
-1767062276150234,0000017B,false,Rx,0,8,01,65,A0,00,10,2F,00,00,
-1767062276149978,000005C0,false,Rx,0,8,63,00,00,FF,FF,10,2E,BF,
-1767062276149722,000005C1,false,Rx,0,8,00,00,00,00,7F,FF,FF,FE,
-1767062276149466,000005D0,false,Rx,0,8,00,00,5F,8E,5E,2B,13,83,
-1767062276149210,000005D1,false,Rx,0,8,5E,D3,60,B2,00,30,00,43,
-1767062276140166,00000141,false,Rx,0,8,03,22,6E,5C,4F,64,00,05,
-1767062276139952,00000143,false,Rx,0,8,BF,FC,18,00,18,00,00,10,
-1767062276139654,000005C0,false,Rx,0,8,63,00,00,FF,FF,10,2E,F4,
-1767062276139398,000005C1,false,Rx,0,8,00,00,00,00,80,00,07,56,
-1767062276139142,000005D0,false,Rx,0,8,00,00,5F,8E,5E,2B,13,83,
-1767062276138886,000005D1,false,Rx,0,8,5E,D3,60,B2,00,30,00,43,
-1767062276130268,00000142,false,Rx,0,8,4F,71,4D,73,89,01,00,05,
-1767062276129969,00000182,false,Rx,0,8,00,02,FF,7F,F9,00,00,00,
-1767062276129756,000005C0,false,Rx,0,8,63,00,00,FF,FF,10,2E,B1,
-1767062276129457,000005C1,false,Rx,0,8,00,00,00,00,80,00,03,AA,
-1767062276129244,000005D0,false,Rx,0,8,00,00,5F,8E,5E,2B,13,80,
-1767062276128988,000005D1,false,Rx,0,8,5E,D3,60,B2,00,30,00,43,
-1767062276120114,00000141,false,Rx,0,8,04,DB,6E,5C,4F,64,00,05,
-1767062276119858,00000143,false,Rx,0,8,BF,FC,18,00,18,00,00,10,
-1767062276119602,000005C0,false,Rx,0,8,63,00,00,FF,FF,10,2E,CC,
-1767062276119346,000005C1,false,Rx,0,8,00,00,00,00,7F,FF,FF,FE,
-1767062276119090,000005D0,false,Rx,0,8,00,00,5F,8E,5E,2B,13,81,
-1767062276118834,000005D1,false,Rx,0,8,5E,D3,60,B2,00,30,00,43,
-1767062276112007,00000536,false,Rx,0,8,00,41,40,21,00,00,00,00,
-1767062276109448,000005C0,false,Rx,0,8,63,00,00,FF,FF,10,2E,D9,
-1767062276109192,000005C1,false,Rx,0,8,00,00,00,00,7F,FF,F4,FA,
-1767062276108893,000005D0,false,Rx,0,8,00,00,5F,8E,5E,2B,13,83,
-1767062276108680,000005D1,false,Rx,0,8,5E,D3,60,B2,00,30,00,43,
-1767062276100232,00000145,false,Rx,0,8,73,A7,50,87,F3,73,69,1C,
-1767062276099933,00000053,false,Rx,0,8,00,00,80,01,77,7F,F9,00,
-1767062276099635,00000141,false,Rx,0,8,05,97,6E,5C,4F,64,00,05,
-1767062276099379,00000142,false,Rx,0,8,50,71,4E,73,89,01,00,05,
-1767062276099123,00000143,false,Rx,0,8,BF,FC,18,00,18,00,00,10,
-1767062276098910,00000175,false,Rx,0,8,07,FF,00,0B,9C,80,00,0E,
-1767062276098654,00000178,false,Rx,0,8,60,00,01,4C,38,75,58,00,
-1767062276098355,0000017B,false,Rx,0,8,01,65,A0,00,10,2F,00,00,
-1767062276098142,0000018A,false,Rx,0,8,00,00,00,01,00,00,00,01,
-1767062276097886,00000286,false,Rx,0,8,A8,4A,FF,F0,00,50,01,01,
-1767062276097630,00000288,false,Rx,0,8,23,37,9F,FF,00,02,0A,00,
-1767062276097374,00000290,false,Rx,0,8,23,24,23,18,01,03,CA,7F,
-1767062276097118,00000316,false,Rx,0,8,00,00,00,00,00,00,00,00,
-1767062276096862,00000493,false,Rx,0,8,00,00,00,00,00,00,00,06,
-1767062276096563,00000494,false,Rx,0,8,00,00,00,00,00,00,00,01,
-1767062276096307,000005C0,false,Rx,0,8,63,00,00,FF,FF,10,2E,CC,
-1767062276096051,000005C1,false,Rx,0,8,00,00,00,00,7F,FF,FF,FE,
-1767062276095752,000005D0,false,Rx,0,8,00,00,5F,8E,5E,2B,13,81,
-1767062276095496,000005D1,false,Rx,0,8,5E,D3,60,B2,00,30,00,43,
-1767062276090206,000005C0,false,Rx,0,8,63,00,00,FF,FF,10,2E,BF,
-1767062276089822,000005C1,false,Rx,0,8,00,00,00,00,7F,FF,F8,A7,
-1767062276089566,000005D0,false,Rx,0,8,00,00,5F,8E,5E,2B,13,80,
-1767062276089353,000005D1,false,Rx,0,8,5E,D3,60,B2,00,30,00,43,
-1767062276080137,00000141,false,Rx,0,8,06,43,6E,5C,4F,64,00,05,
-1767062276079924,00000143,false,Rx,0,8,BF,FC,18,00,18,00,00,10,
-1767062276079625,000005C0,false,Rx,0,8,63,00,00,FF,FF,10,2E,E7,
-1767062276079369,000005C1,false,Rx,0,8,00,00,00,00,7F,FF,F8,A7,
-1767062276079113,000005D0,false,Rx,0,8,00,00,5F,8E,5E,2B,13,81,
-1767062276078857,000005D1,false,Rx,0,8,5E,D3,60,B2,00,30,00,43,
-1767062276070197,00000142,false,Rx,0,8,51,71,4F,73,91,01,00,05,
-1767062276069941,000005C0,false,Rx,0,8,63,00,00,FF,FF,10,2E,D9,
-1767062276069685,000005C1,false,Rx,0,8,00,00,00,00,80,00,03,AA,
-1767062276069429,000005D0,false,Rx,0,8,00,00,5F,8E,5E,2B,13,84,
-1767062276069173,000005D1,false,Rx,0,8,5E,D3,60,B2,00,30,00,43,
-1767062276060128,00000182,false,Rx,0,8,00,02,FF,7F,F9,00,00,00,
-1767062276059872,00000141,false,Rx,0,8,07,0F,6E,5C,4F,64,00,05,
-1767062276059659,00000143,false,Rx,0,8,BF,FC,18,00,18,00,00,10,
-1767062276059403,000005C0,false,Rx,0,8,63,00,00,FF,FF,10,2E,CC,
-1767062276059104,000005C1,false,Rx,0,8,00,00,00,00,80,00,03,AA,
-1767062276058848,000005D0,false,Rx,0,8,00,00,5F,8E,5E,2B,13,81,
-1767062276058635,000005D1,false,Rx,0,8,5E,D3,60,B2,00,30,00,43,
-1767062276050230,0000017B,false,Rx,0,8,01,65,A0,00,10,2F,00,00,
-1767062276049974,000005C0,false,Rx,0,8,63,00,00,FF,FF,10,2E,D9,
-1767062276049718,000005C1,false,Rx,0,8,00,00,00,00,80,00,07,56,
-1767062276049462,000005D0,false,Rx,0,8,00,00,5F,8E,5E,2B,13,85,
-1767062276049206,000005D1,false,Rx,0,8,5E,D3,60,B2,00,30,00,43,
-1767062276040332,00000142,false,Rx,0,8,52,71,50,73,A1,01,00,05,
-1767062276040033,00000141,false,Rx,0,8,08,AC,6E,5C,4F,64,00,05,
-1767062276039820,00000143,false,Rx,0,8,BF,FC,18,00,18,00,00,10,
-1767062276039564,000005C0,false,Rx,0,8,63,00,00,FF,FF,10,2E,E7,
-1767062276039308,000005C1,false,Rx,0,8,00,00,00,00,80,00,0B,01,
-1767062276039052,000005D0,false,Rx,0,8,00,00,5F,8E,5E,2B,13,80,
-1767062276038796,000005D1,false,Rx,0,8,5E,D3,60,B2,00,30,00,43,
-1767062276030476,00000178,false,Rx,0,8,60,00,01,F2,38,75,58,00,
-1767062276030220,000005C0,false,Rx,0,8,63,00,00,FF,FF,10,2E,E7,
-1767062276029922,000005C1,false,Rx,0,8,00,00,00,00,7F,FF,FF,FE,
-1767062276029666,000005D0,false,Rx,0,8,00,00,5F,8E,5E,2B,13,81,
-1767062276029453,000005D1,false,Rx,0,8,5E,D3,60,B2,00,30,00,43,
-1767062276020322,00000141,false,Rx,0,8,09,E0,6E,5C,4F,64,00,05,
-1767062276020066,00000143,false,Rx,0,8,BF,FC,18,00,18,00,00,10,
-1767062276019810,000005C0,false,Rx,0,8,63,00,00,FF,FF,10,2E,E7,
-1767062276019554,000005C1,false,Rx,0,8,00,00,00,00,7F,FF,FC,52,
-1767062276019298,000005D0,false,Rx,0,8,00,00,5F,8E,5E,2B,13,80,
-1767062276019043,000005D1,false,Rx,0,8,5E,D3,60,B2,00,30,00,43,
-1767062276012003,00000536,false,Rx,0,8,00,41,40,21,00,00,00,00,
-1767062276010424,00000142,false,Rx,0,8,53,71,51,73,99,01,00,05,
-1767062276010168,000005C0,false,Rx,0,8,63,00,00,FF,FF,10,2E,CC,
-1767062276009912,000005C1,false,Rx,0,8,00,00,00,00,80,00,03,AA,
-1767062276009656,000005D0,false,Rx,0,8,00,00,5F,8E,5E,2B,13,81,
-1767062276009400,000005D1,false,Rx,0,8,5E,D3,60,B2,00,30,00,43,
-1767062276000356,00000145,false,Rx,0,8,73,A7,50,87,F3,73,69,1C,
-1767062276000100,00000053,false,Rx,0,8,00,00,80,01,78,7F,F9,00,
-1767062275999801,00000141,false,Rx,0,8,0A,34,6E,5C,4F,64,00,05,
-1767062275999545,00000143,false,Rx,0,8,BF,FC,18,00,18,00,00,10,
-1767062275999289,00000175,false,Rx,0,8,07,FF,00,0B,9C,80,00,0E,
-1767062275999033,0000017B,false,Rx,0,8,01,65,A0,00,10,2F,00,00,
-1767062275998777,0000018A,false,Rx,0,8,00,00,00,01,00,00,00,01,
-1767062275998521,00000288,false,Rx,0,8,23,37,9F,FF,00,02,0A,00,
-1767062275998265,00000290,false,Rx,0,8,23,24,23,19,01,03,CA,7F,
-1767062275998009,00000293,false,Rx,0,8,20,00,9F,94,19,1F,08,C8,
-1767062275997753,00000479,false,Rx,0,8,24,24,24,0D,1C,54,00,01,
-1767062275997497,00000493,false,Rx,0,8,00,00,00,00,00,00,00,06,
-1767062275997241,00000494,false,Rx,0,8,00,00,00,00,00,00,00,01,
-1767062275996985,000005C0,false,Rx,0,8,63,00,00,FF,FF,10,2E,D9,
-1767062275996729,000005C1,false,Rx,0,8,00,00,00,00,7F,FF,FC,52,
-1767062275996473,000005D0,false,Rx,0,8,00,00,5F,8E,5E,2B,13,81,
-1767062275996217,000005D1,false,Rx,0,8,5E,D3,60,B2,00,30,00,43,
-1767062275990415,00000182,false,Rx,0,8,00,02,FF,7F,F9,00,00,00,
-1767062275990159,000005C0,false,Rx,0,8,63,00,00,FF,FF,10,2E,F4,
-1767062275989903,000005C1,false,Rx,0,8,00,00,00,00,80,00,03,AA,
-1767062275989647,000005D0,false,Rx,0,8,00,00,5F,8E,5E,2B,13,83,
-1767062275989391,000005D1,false,Rx,0,8,5E,D3,60,B2,00,30,00,43,
-1767062275980389,00000142,false,Rx,0,8,54,71,52,73,91,01,00,05,
-1767062275980133,00000141,false,Rx,0,8,0B,78,6E,5C,4F,64,00,05,
-1767062275979877,00000143,false,Rx,0,8,BF,FC,18,00,18,00,00,10,
-1767062275979621,000005C0,false,Rx,0,8,63,00,00,FF,FF,10,2E,E7,
-1767062275979365,000005C1,false,Rx,0,8,00,00,00,00,7F,FF,FF,FE,
-1767062275979109,000005D0,false,Rx,0,8,00,00,5F,8E,5E,2B,13,7F,
-1767062275978853,000005D1,false,Rx,0,8,5E,D3,60,B2,00,30,00,43,
-1767062275970406,000005C0,false,Rx,0,8,63,00,00,FF,FF,10,2E,CC,
-1767062275970107,000005C1,false,Rx,0,8,00,00,00,00,7F,FF,F4,FA,
-1767062275969894,000005D0,false,Rx,0,8,00,00,5F,8E,5E,2B,13,81,
-1767062275969638,000005D1,false,Rx,0,8,5E,D3,60,B2,00,30,00,43,
-1767062275960380,00000141,false,Rx,0,8,0C,81,6E,5D,4F,64,00,05,
-1767062275960124,00000143,false,Rx,0,8,BF,FC,18,00,18,00,00,10,
-1767062275959910,00000178,false,Rx,0,8,60,00,05,E4,38,75,58,00,
-1767062275959654,00000286,false,Rx,0,8,A8,4A,FF,F0,00,50,01,01,
-1767062275959398,000005C0,false,Rx,0,8,63,00,00,FF,FF,10,2E,D9,
-1767062275959142,000005C1,false,Rx,0,8,00,00,00,00,80,00,0E,AE,
-1767062275958886,000005D0,false,Rx,0,8,00,00,5F,8E,5E,2B,13,83,
-1767062275958630,000005D1,false,Rx,0,8,5E,D3,60,B2,00,30,00,43,
-1767062275950481,00000142,false,Rx,0,8,55,71,53,73,91,01,00,05,
-1767062275950225,0000017B,false,Rx,0,8,01,65,A0,00,10,2F,00,00,
-1767062275949969,000005C0,false,Rx,0,8,63,00,00,FF,FF,10,2E,BF,
-1767062275949714,000005C1,false,Rx,0,8,00,00,00,00,7F,FF,FC,52,
-1767062275949458,000005D0,false,Rx,0,8,00,00,5F,8E,5E,2B,13,7F,
-1767062275949202,000005D1,false,Rx,0,8,5E,D3,60,B2,00,30,00,43,
-1767062275940413,00000141,false,Rx,0,8,0D,CD,6E,5C,4F,64,00,05,
-1767062275940114,00000143,false,Rx,0,8,BF,FC,18,00,18,00,00,10,
-1767062275939858,000005C0,false,Rx,0,8,63,00,00,FF,FF,10,2E,D9,
-1767062275939602,000005C1,false,Rx,0,8,00,00,00,00,7F,FF,FF,FE,
-1767062275939346,000005D0,false,Rx,0,8,00,00,5F,8E,5E,2B,13,80,
-1767062275939133,000005D1,false,Rx,0,8,5E,D3,60,B2,00,30,00,43,
-1767062275930429,000005C0,false,Rx,0,8,63,00,00,FF,FF,10,2E,D9,
-1767062275930088,000005C1,false,Rx,0,8,00,00,00,00,7F,FF,FC,52,
-1767062275929832,000005D0,false,Rx,0,8,00,00,5F,8E,5E,2B,13,80,
-1767062275929576,000005D1,false,Rx,0,8,5E,D3,60,B2,00,30,00,43,
-1767062275920361,00000142,false,Rx,0,8,56,71,54,73,99,01,00,05,
-1767062275920105,00000141,false,Rx,0,8,0E,19,6E,5C,4F,64,00,05,
-1767062275919849,00000143,false,Rx,0,8,BF,FC,18,00,18,00,00,10,
-1767062275919593,00000182,false,Rx,0,8,00,02,FF,7F,F9,00,00,00,
-1767062275919337,000005C0,false,Rx,0,8,63,00,00,FF,FF,10,2E,E7,
-1767062275919081,000005C1,false,Rx,0,8,00,00,00,00,7F,FF,FC,52,
-1767062275918825,000005D0,false,Rx,0,8,00,00,5F,8E,5E,2B,13,7F,
-1767062275918569,000005D1,false,Rx,0,8,5E,D3,60,B2,00,30,00,43,
-1767062275911999,00000536,false,Rx,0,8,00,41,40,21,00,00,00,00,
-1767062275909439,000005C0,false,Rx,0,8,63,00,00,FF,FF,10,2E,CC,
-1767062275909140,000005C1,false,Rx,0,8,00,00,00,00,7F,FF,FF,FE,
-1767062275908884,000005D0,false,Rx,0,8,00,00,5F,8E,5E,2B,13,81,
-1767062275908628,000005D1,false,Rx,0,8,5E,D3,60,B2,00,30,00,43,
-1767062275900223,00000145,false,Rx,0,8,73,A7,50,87,F3,73,69,1C,
-1767062275900010,00000053,false,Rx,0,8,00,00,80,01,78,7F,F9,00,
-1767062275899669,00000141,false,Rx,0,8,00,F6,6E,5C,4F,64,00,05,
-1767062275899455,00000143,false,Rx,0,8,BF,FC,18,00,18,00,00,10,
-1767062275899199,00000175,false,Rx,0,8,07,FF,00,0B,9C,80,00,0E,
-1767062275898943,0000017B,false,Rx,0,8,01,65,A0,00,10,2F,00,00,
-1767062275898687,0000018A,false,Rx,0,8,00,00,00,01,00,00,00,01,
-1767062275898431,00000288,false,Rx,0,8,23,37,9F,FF,00,02,0A,00,
-1767062275898175,00000290,false,Rx,0,8,23,24,23,1A,01,03,CA,7F,
-1767062275897919,00000493,false,Rx,0,8,00,00,00,00,00,00,00,06,
-1767062275897621,00000494,false,Rx,0,8,00,00,00,00,00,00,00,01,
-1767062275897407,000005C0,false,Rx,0,8,63,00,00,FF,FF,10,2E,F4,
-1767062275897151,000005C1,false,Rx,0,8,00,00,00,00,80,00,03,AA,
-1767062275896895,000005D0,false,Rx,0,8,00,00,5F,8E,5E,2B,13,80,
-1767062275896639,000005D1,false,Rx,0,8,5E,D3,60,B2,00,30,00,43,
-1767062275890453,00000142,false,Rx,0,8,57,71,55,73,91,01,00,05,
-1767062275890197,00000178,false,Rx,0,8,60,00,06,01,38,75,58,00,
-1767062275889984,000005C0,false,Rx,0,8,63,00,00,FF,FF,10,2E,D9,
-1767062275889685,000005C1,false,Rx,0,8,00,00,00,00,80,00,07,56,
-1767062275889429,000005D0,false,Rx,0,8,00,00,5F,8E,5E,2B,13,81,
-1767062275889216,000005D1,false,Rx,0,8,5E,D3,60,B2,00,30,00,43,
-1767062275880385,00000141,false,Rx,0,8,01,BA,6E,5C,4F,64,00,05,
-1767062275880129,00000143,false,Rx,0,8,BF,FC,18,00,18,00,00,10,
-1767062275879915,000005C0,false,Rx,0,8,63,00,00,FF,FF,10,2E,E7,
-1767062275879617,000005C1,false,Rx,0,8,00,00,00,00,7F,FF,FC,52,
-1767062275879361,000005D0,false,Rx,0,8,00,00,5F,8E,5E,2B,13,81,
-1767062275879147,000005D1,false,Rx,0,8,5E,D3,60,B2,00,30,00,43,
-1767062275870401,000005C0,false,Rx,0,8,63,00,00,FF,FF,10,2E,CC,
-1767062275870145,000005C1,false,Rx,0,8,00,00,00,00,7F,FF,FF,FE,
-1767062275869847,000005D0,false,Rx,0,8,00,00,5F,8E,5E,2B,13,80,
-1767062275869591,000005D1,false,Rx,0,8,5E,D3,60,B2,00,30,00,43,
-1767062275860418,00000142,false,Rx,0,8,58,71,56,73,89,01,00,05,
-1767062275860119,00000141,false,Rx,0,8,02,6E,6E,5C,4F,64,00,05,
-1767062275859906,00000143,false,Rx,0,8,BF,FC,18,00,18,00,00,10,
-1767062275859650,000005C0,false,Rx,0,8,63,00,00,FF,FF,10,2E,F4,
-1767062275859351,000005C1,false,Rx,0,8,00,00,00,00,80,00,03,AA,
-1767062275859138,000005D0,false,Rx,0,8,00,00,5F,8E,5E,2B,13,83,
-1767062275858882,000005D1,false,Rx,0,8,5E,D3,60,B2,00,30,00,43,
-1767062275850477,00000182,false,Rx,0,8,00,02,FF,7F,F9,00,00,00,
-1767062275850221,0000017B,false,Rx,0,8,01,65,A0,00,10,2F,00,00,
-1767062275849965,00000316,false,Rx,0,8,00,00,00,00,00,00,00,00,
-1767062275849666,000005C0,false,Rx,0,8,63,00,00,FF,FF,10,2E,E7,
-1767062275849453,000005C1,false,Rx,0,8,00,00,00,00,7F,FF,FC,52,
-1767062275849197,000005D0,false,Rx,0,8,00,00,5F,8E,5E,2B,13,81,
-1767062275848941,000005D1,false,Rx,0,8,5E,D3,60,B2,00,30,00,43,
-1767062275840408,00000141,false,Rx,0,8,03,22,6E,5C,4F,64,00,05,
-1767062275840152,00000143,false,Rx,0,8,BF,FC,18,00,18,00,00,10,
-1767062275839896,000005C0,false,Rx,0,8,63,00,00,FF,FF,10,2E,E7,
-1767062275839640,000005C1,false,Rx,0,8,00,00,00,00,80,00,03,AA,
-1767062275839384,000005D0,false,Rx,0,8,00,00,5F,8E,5E,2B,13,83,
-1767062275839128,000005D1,false,Rx,0,8,5E,D3,60,B2,00,30,00,43,
-1767062275830468,00000142,false,Rx,0,8,59,71,57,73,91,01,00,05,
-1767062275830212,00000479,false,Rx,0,8,23,23,23,0E,1C,54,00,01,
-1767062275829956,000005C0,false,Rx,0,8,63,00,00,FF,FF,10,2E,BF,
-1767062275829700,000005C1,false,Rx,0,8,00,00,00,00,7F,FF,FF,FE,
-1767062275829444,000005D0,false,Rx,0,8,00,00,5F,8E,5E,2B,13,83,
-1767062275829188,000005D1,false,Rx,0,8,5E,D3,60,B2,00,30,00,43,
-1767062275820399,00000141,false,Rx,0,8,04,DB,6E,5C,4F,64,00,05,
-1767062275820100,00000143,false,Rx,0,8,BF,FC,18,00,18,00,00,10,
-1767062275819887,00000178,false,Rx,0,8,60,00,01,4A,38,75,58,00,
-1767062275819631,00000286,false,Rx,0,8,A8,4A,FF,F0,00,50,01,01,
-1767062275819375,000005C0,false,Rx,0,8,63,00,00,FF,FF,10,2E,D9,
-1767062275819119,000005C1,false,Rx,0,8,00,00,00,00,7F,FF,FF,FE,
-1767062275818863,000005D0,false,Rx,0,8,00,00,5F,8E,5E,2B,13,81,
-1767062275818607,000005D1,false,Rx,0,8,5E,D3,60,B2,00,30,00,43,
-1767062275811994,00000536,false,Rx,0,8,00,41,40,21,00,00,00,00,
-1767062275809733,00000519,false,Rx,0,8,19,40,00,00,00,00,00,00,
-1767062275809392,000005C0,false,Rx,0,8,63,00,00,FF,FF,10,2E,CC,
-1767062275809093,000005C1,false,Rx,0,8,00,00,00,00,80,00,03,AA,
-1767062275808880,000005D0,false,Rx,0,8,00,00,5F,8E,5E,2B,13,80,
-1767062275808624,000005D1,false,Rx,0,8,5E,D3,60,B2,00,30,00,43,
-1767062275800176,00000145,false,Rx,0,8,73,A7,50,87,F3,73,69,1C,
-1767062275799920,00000053,false,Rx,0,8,00,00,80,01,77,7F,F9,00,
-1767062275799579,00000141,false,Rx,0,8,05,97,6E,5C,4F,64,00,05,
-1767062275799323,00000142,false,Rx,0,8,5A,71,58,73,91,01,00,05,
-1767062275799110,00000143,false,Rx,0,8,BF,FC,18,00,18,00,00,10,
-1767062275798854,00000175,false,Rx,0,8,07,FF,00,0B,9C,80,00,0E,
-1767062275798598,0000017B,false,Rx,0,8,01,65,A0,00,10,2F,00,00,
-1767062275798299,0000018A,false,Rx,0,8,00,00,00,01,00,00,00,01,
-1767062275798086,00000288,false,Rx,0,8,23,37,9F,FF,00,02,0A,00,
-1767062275797830,00000290,false,Rx,0,8,24,24,23,1B,01,03,CA,7F,
-1767062275797574,00000295,false,Rx,0,8,3F,25,09,7B,7F,24,DC,00,
-1767062275797318,00000296,false,Rx,0,8,32,B9,70,3C,67,8D,80,00,
-1767062275797062,00000298,false,Rx,0,8,00,18,00,00,10,00,29,C6,
-1767062275796806,00000301,false,Rx,0,8,00,94,E0,00,00,00,00,03,
-1767062275796550,00000493,false,Rx,0,8,00,00,00,00,00,00,00,06,
-1767062275796294,00000494,false,Rx,0,8,00,00,00,00,00,00,00,01,
-1767062275796038,000005C0,false,Rx,0,8,63,00,00,FF,FF,10,2E,E7,
-1767062275795782,000005C1,false,Rx,0,8,00,00,00,00,7F,FF,FF,FE,
-1767062275795483,000005D0,false,Rx,0,8,00,00,5F,8E,5E,2B,13,83,
-1767062275795227,000005D1,false,Rx,0,8,5E,D3,60,B2,00,30,00,43,
-1767062275790449,000005C0,false,Rx,0,8,63,00,00,FF,FF,10,2E,E7,
-1767062275790107,000005C1,false,Rx,0,8,00,00,00,00,80,00,07,56,
-1767062275789852,000005D0,false,Rx,0,8,00,00,5F,8E,5E,2B,13,80,
-1767062275789596,000005D1,false,Rx,0,8,5E,D3,60,B2,00,30,00,43,
-1767062275780380,00000182,false,Rx,0,8,00,02,FF,7F,F9,00,00,00,
-1767062275780124,00000141,false,Rx,0,8,06,43,6E,5C,4F,64,00,05,
-1767062275779911,00000143,false,Rx,0,8,BF,FC,18,00,18,00,00,10,
-1767062275779655,000005C0,false,Rx,0,8,63,00,00,FF,FF,10,2E,BF,
-1767062275779399,000005C1,false,Rx,0,8,00,00,00,00,80,00,07,56,
-1767062275779143,000005D0,false,Rx,0,8,00,00,5F,8E,5E,2B,13,81,
-1767062275778887,000005D1,false,Rx,0,8,5E,D3,60,B2,00,30,00,43,
-1767062275770397,00000142,false,Rx,0,8,5B,71,59,73,91,01,00,05,
-1767062275770098,000005C0,false,Rx,0,8,63,00,00,FF,FF,10,2E,CC,
-1767062275769842,000005C1,false,Rx,0,8,00,00,00,00,7F,FF,FC,52,
-1767062275769586,000005D0,false,Rx,0,8,00,00,5F,8E,5E,2B,13,83,
-1767062275769373,000005D1,false,Rx,0,8,5E,D3,60,B2,00,30,00,43,
-1767062275760413,00000141,false,Rx,0,8,07,0F,6E,5D,4F,64,00,05,
-1767062275760157,00000143,false,Rx,0,8,BF,FC,18,00,18,00,00,10,
-1767062275759901,000005C0,false,Rx,0,8,63,00,00,FF,FF,10,2E,D9,
-1767062275759603,000005C1,false,Rx,0,8,00,00,00,00,7F,FF,FC,52,
-1767062275759389,000005D0,false,Rx,0,8,00,00,5F,8E,5E,2B,13,81,
-1767062275759133,000005D1,false,Rx,0,8,5E,D3,60,B2,00,30,00,43,
-1767062275750473,0000017B,false,Rx,0,8,01,65,A0,00,10,30,00,00,
-1767062275750217,00000178,false,Rx,0,8,60,00,01,4C,38,75,58,00,
-1767062275749961,000005C0,false,Rx,0,8,63,00,00,FF,FF,10,2E,E7,
-1767062275749705,000005C1,false,Rx,0,8,00,00,00,00,80,00,03,AA,
-1767062275749491,000005D0,false,Rx,0,8,00,00,5F,8E,5E,2B,13,7F,
-1767062275749235,000005D1,false,Rx,0,8,5E,D3,60,B2,00,30,00,43,
-1767062275740404,00000142,false,Rx,0,8,5C,71,5A,73,91,01,00,05,
-1767062275740148,00000141,false,Rx,0,8,08,AC,6E,5C,4F,64,00,05,
-1767062275739892,00000143,false,Rx,0,8,BF,FC,18,00,18,00,00,10,
-1767062275739636,000005C0,false,Rx,0,8,63,00,00,FF,FF,10,2E,CC,
-1767062275739380,000005C1,false,Rx,0,8,00,00,00,00,7F,FF,F8,A7,
-1767062275739124,000005D0,false,Rx,0,8,00,00,5F,8E,5E,2B,13,81,
-1767062275738868,000005D1,false,Rx,0,8,5E,D3,60,B2,00,30,00,43,
-1767062275730421,000005C0,false,Rx,0,8,63,00,00,FF,FF,10,2E,CC,
-1767062275730037,000005C1,false,Rx,0,8,00,00,00,00,7F,FF,FC,52,
-1767062275729781,000005D0,false,Rx,0,8,00,00,5F,8E,5E,2B,13,80,
-1767062275729567,000005D1,false,Rx,0,8,5E,D3,60,B2,00,30,00,43,
-1767062275720395,00000141,false,Rx,0,8,09,E0,6E,5C,4F,64,00,05,
-1767062275720139,00000143,false,Rx,0,8,BF,FC,18,00,18,00,00,10,
-1767062275719883,000005C0,false,Rx,0,8,63,00,00,FF,FF,10,2E,F4,
-1767062275719627,000005C1,false,Rx,0,8,00,00,00,00,7F,FF,FC,52,
-1767062275719371,000005D0,false,Rx,0,8,00,00,5F,8E,5E,2B,13,84,
-1767062275719157,000005D1,false,Rx,0,8,5E,D3,60,B2,00,30,00,43,
-1767062275711990,00000536,false,Rx,0,8,00,41,40,21,00,00,00,00,
-1767062275710368,00000142,false,Rx,0,8,5D,71,5B,73,91,01,00,05,
-1767062275710070,00000182,false,Rx,0,8,00,02,FF,7F,F9,00,00,00,
-1767062275709857,000005C0,false,Rx,0,8,63,00,00,FF,FF,10,2E,E7,
-1767062275709601,000005C1,false,Rx,0,8,00,00,00,00,80,00,03,AA,
-1767062275709345,000005D0,false,Rx,0,8,00,00,5F,8E,5E,2B,13,7F,
-1767062275709089,000005D1,false,Rx,0,8,5E,D3,60,B2,00,30,00,43,
-1767062275700129,00000145,false,Rx,0,8,73,A7,50,87,F3,73,69,1C,
-1767062275699873,00000053,false,Rx,0,8,00,00,80,01,78,7F,F9,00,
-1767062275699617,00000141,false,Rx,0,8,0A,34,6E,5C,4F,64,00,05,
-1767062275699318,00000143,false,Rx,0,8,BF,FC,18,00,18,00,00,10,
-1767062275699105,00000175,false,Rx,0,8,07,FF,00,0B,9C,80,00,0E,
-1767062275698849,0000017B,false,Rx,0,8,01,65,A0,00,10,2F,00,00,
-1767062275698593,0000018A,false,Rx,0,8,00,00,00,01,00,00,00,01,
-1767062275698337,00000288,false,Rx,0,8,23,37,9F,FF,00,02,0A,00,
-1767062275698081,00000290,false,Rx,0,8,23,24,23,1C,01,03,CA,7F,
-1767062275697815,00000493,false,Rx,0,8,00,00,00,00,00,00,00,06,
-1767062275697517,00000494,false,Rx,0,8,00,00,00,00,00,00,00,01,
-1767062275697261,000005C0,false,Rx,0,8,63,00,00,FF,FF,10,2E,E7,
-1767062275697005,000005C1,false,Rx,0,8,00,00,00,00,80,00,03,AA,
-1767062275696749,000005D0,false,Rx,0,8,00,00,5F,8E,5E,2B,13,81,
-1767062275696493,000005D1,false,Rx,0,8,5E,D3,60,B2,00,30,00,43,
-1767062275690434,000005C0,false,Rx,0,8,63,00,00,FF,FF,10,2E,E7,
-1767062275690093,000005C1,false,Rx,0,8,00,00,00,00,80,00,07,56,
-1767062275689837,000005D0,false,Rx,0,8,00,00,5F,8E,5E,2B,13,81,
-1767062275689581,000005D1,false,Rx,0,8,5E,D3,60,B2,00,30,00,43,
-1767062275680408,00000142,false,Rx,0,8,5E,71,5C,73,91,01,00,05,
-1767062275680152,00000141,false,Rx,0,8,0B,78,6E,5C,4F,64,00,05,
-1767062275679896,00000143,false,Rx,0,8,BF,FC,18,00,18,00,00,10,
-1767062275679640,00000178,false,Rx,0,8,60,00,01,F2,38,75,58,00,
-1767062275679427,00000286,false,Rx,0,8,A8,4A,FF,F0,00,50,01,01,
-1767062275679171,000005C0,false,Rx,0,8,63,00,00,FF,FF,10,2E,E7,
-1767062275678872,000005C1,false,Rx,0,8,00,00,00,00,80,00,0E,AE,
-1767062275678659,000005D0,false,Rx,0,8,00,00,5F,8E,5E,2B,13,80,
-1767062275678403,000005D1,false,Rx,0,8,5E,D3,60,B2,00,30,00,43,
-1767062275670425,000005C0,false,Rx,0,8,63,00,00,FF,FF,10,2E,E7,
-1767062275670041,000005C1,false,Rx,0,8,00,00,00,00,7F,FF,FC,52,
-1767062275669828,000005D0,false,Rx,0,8,00,00,5F,8E,5E,2B,13,83,
-1767062275669572,000005D1,false,Rx,0,8,5E,D3,60,B2,00,30,00,43,
-1767062275660399,00000479,false,Rx,0,8,23,23,23,0F,1C,54,00,01,
-1767062275660143,00000141,false,Rx,0,8,0C,81,6E,5C,4F,64,00,05,
-1767062275659887,00000143,false,Rx,0,8,BF,FC,18,00,18,00,00,10,
-1767062275659674,000005C0,false,Rx,0,8,63,00,00,FF,FF,10,2E,D9,
-1767062275659375,000005C1,false,Rx,0,8,00,00,00,00,7F,FF,F8,A7,
-1767062275659119,000005D0,false,Rx,0,8,00,00,5F,8E,5E,2B,13,80,
-1767062275658906,000005D1,false,Rx,0,8,5E,D3,60,B2,00,30,00,43,
-1767062275650501,00000142,false,Rx,0,8,5F,71,5D,73,91,01,00,05,
-1767062275650202,0000017B,false,Rx,0,8,01,65,A0,00,10,30,00,00,
-1767062275649946,000005C0,false,Rx,0,8,63,00,00,FF,FF,10,2E,D9,
-1767062275649690,000005C1,false,Rx,0,8,00,00,00,00,7F,FF,FC,52,
-1767062275649477,000005D0,false,Rx,0,8,00,00,5F,8E,5E,2B,13,84,
-1767062275649221,000005D1,false,Rx,0,8,5E,D3,60,B2,00,30,00,43,
-1767062275640432,00000182,false,Rx,0,8,00,02,FF,7F,F9,00,00,00,
-1767062275640176,00000141,false,Rx,0,8,0D,CD,6E,5D,4F,64,00,05,
-1767062275639920,00000143,false,Rx,0,8,BF,FC,18,00,18,00,00,10,
-1767062275639664,000005C0,false,Rx,0,8,63,00,00,FF,FF,10,2E,D9,
-1767062275639408,000005C1,false,Rx,0,8,00,00,00,00,80,00,0B,01,
-1767062275639152,000005D0,false,Rx,0,8,00,00,5F,8E,5E,2B,13,7D,
-1767062275638896,000005D1,false,Rx,0,8,5E,D3,60,B2,00,30,00,43,
-1767062275630449,000005C0,false,Rx,0,8,63,00,00,FF,FF,10,2E,BF,
-1767062275630107,000005C1,false,Rx,0,8,00,00,00,00,7F,FF,FC,52,
-1767062275629852,000005D0,false,Rx,0,8,00,00,5F,8E,5E,2B,13,7F,
-1767062275629596,000005D1,false,Rx,0,8,5E,D3,60,B2,00,30,00,43,
-1767062275620167,00000142,false,Rx,0,8,60,71,5E,73,91,01,00,05,
-1767062275619953,00000141,false,Rx,0,8,0E,19,6E,5C,4F,64,00,05,
-1767062275619697,00000143,false,Rx,0,8,BF,FC,18,00,18,00,00,10,
-1767062275619441,000005C0,false,Rx,0,8,63,00,00,FF,FF,10,2E,E7,
-1767062275619143,000005C1,false,Rx,0,8,00,00,00,00,80,00,03,AA,
-1767062275618930,000005D0,false,Rx,0,8,00,00,5F,8E,5E,2B,13,80,
-1767062275618674,000005D1,false,Rx,0,8,5E,D3,60,B2,00,30,00,43,
-1767062275611975,00000536,false,Rx,0,8,00,41,40,21,00,00,00,00,
-1767062275610439,00000178,false,Rx,0,8,60,00,05,E4,38,75,58,00,
-1767062275610183,000005C0,false,Rx,0,8,63,00,00,FF,FF,10,2E,CC,
-1767062275609927,000005C1,false,Rx,0,8,00,00,00,00,7F,FF,FC,52,
-1767062275609671,000005D0,false,Rx,0,8,00,00,5F,8E,5E,2B,13,83,
-1767062275609415,000005D1,false,Rx,0,8,5E,D3,60,B2,00,30,00,43,
-1767062275600285,00000341,false,Rx,0,8,88,00,18,00,00,37,7D,C7,
-1767062275599987,00000053,false,Rx,0,8,00,00,80,01,78,7F,F9,00,
-1767062275599773,00000141,false,Rx,0,8,00,F6,6E,5C,4F,64,00,05,
-1767062275599517,00000143,false,Rx,0,8,BF,FC,18,00,18,00,00,10,
-1767062275599261,00000145,false,Rx,0,8,73,A7,50,87,F3,73,69,1C,
-1767062275599005,00000175,false,Rx,0,8,07,FF,00,0B,9C,80,00,0E,
-1767062275598749,0000017B,false,Rx,0,8,01,65,A0,00,10,2F,00,00,
-1767062275598451,0000018A,false,Rx,0,8,00,00,00,01,00,00,00,01,
-1767062275598152,00000288,false,Rx,0,8,23,37,9F,FF,00,02,0A,00,
-1767062275597939,00000290,false,Rx,0,8,24,24,23,01,01,03,CA,7F,
-1767062275597683,00000293,false,Rx,0,8,20,00,9F,94,19,1F,08,C8,
-1767062275597427,00000315,false,Rx,0,8,FF,4F,FB,1F,CE,00,01,07,
-1767062275597171,00000316,false,Rx,0,8,00,00,00,00,00,00,00,00,
-1767062275596915,00000331,false,Rx,0,8,00,34,00,FA,E0,E7,40,FA,
-1767062275596659,00000342,false,Rx,0,8,13,00,18,01,FF,0F,03,00,
-1767062275596403,00000345,false,Rx,0,8,00,1C,01,01,FE,FA,FA,10,
-1767062275596147,00000346,false,Rx,0,8,E7,50,01,01,F8,00,00,00,
-1767062275595891,00000347,false,Rx,0,8,30,30,31,50,45,42,01,80,
-1767062275595635,00000478,false,Rx,0,8,00,35,A2,38,80,02,00,04,
-1767062275595379,00000493,false,Rx,0,8,00,00,00,00,00,00,00,06,
-1767062275595080,00000494,false,Rx,0,8,00,00,00,00,00,00,00,01,
-1767062275594824,00000499,false,Rx,0,8,09,9C,FF,D9,00,0C,AF,5C,
-1767062275594568,0000049C,false,Rx,0,8,00,0C,A9,D0,BF,FC,80,04,
-1767062275594312,000005C0,false,Rx,0,8,63,00,00,FF,FF,10,2E,E7,
-1767062275594056,000005C1,false,Rx,0,8,00,00,00,00,7F,FF,FC,52,
-1767062275593800,000005D0,false,Rx,0,8,00,00,5F,8E,5E,2B,13,7F,
-1767062275593544,000005D1,false,Rx,0,8,5E,D3,60,B2,00,30,00,43,
-1767062275590430,00000142,false,Rx,0,8,61,71,5F,73,91,01,00,05,
-1767062275590174,000005C0,false,Rx,0,8,63,00,00,FF,FF,10,2E,D9,
-1767062275589918,000005C1,false,Rx,0,8,00,00,00,00,7F,FF,FF,FE,
-1767062275589662,000005D0,false,Rx,0,8,00,00,5F,8E,5E,2B,13,83,
-1767062275589406,000005D1,false,Rx,0,8,5E,D3,60,B2,00,30,00,43,
-1767062275580404,00000141,false,Rx,0,8,01,BA,6E,5C,4F,64,00,05,
-1767062275580148,00000143,false,Rx,0,8,BF,FC,18,00,18,00,00,10,
-1767062275579892,000005C0,false,Rx,0,8,63,00,00,FF,FF,10,2E,CC,
-1767062275579636,000005C1,false,Rx,0,8,00,00,00,00,7F,FF,FF,FE,
-1767062275579380,000005D0,false,Rx,0,8,00,00,5F,8E,5E,2B,13,83,
-1767062275579124,000005D1,false,Rx,0,8,5E,D3,60,B2,00,30,00,43,
-1767062275570421,00000182,false,Rx,0,8,00,02,FF,7F,F9,00,00,00,
-1767062275570165,000005C0,false,Rx,0,8,63,00,00,FF,FF,10,2E,D9,
-1767062275569909,000005C1,false,Rx,0,8,00,00,00,00,7F,FF,FC,52,
-1767062275569653,000005D0,false,Rx,0,8,00,00,5F,8E,5E,2B,13,80,
-1767062275569397,000005D1,false,Rx,0,8,5E,D3,60,B2,00,30,00,43,
-1767062275560437,00000142,false,Rx,0,8,62,71,60,73,99,01,00,05,
-1767062275560181,00000141,false,Rx,0,8,02,6E,6E,5C,4F,64,00,05,
-1767062275559925,00000143,false,Rx,0,8,BF,FC,18,00,18,00,00,10,
-1767062275559669,000005C0,false,Rx,0,8,63,00,00,FF,FF,10,2E,D9,
-1767062275559413,000005C1,false,Rx,0,8,00,00,00,00,80,00,07,56,
-1767062275559157,000005D0,false,Rx,0,8,00,00,5F,8E,5E,2B,13,80,
-1767062275558901,000005D1,false,Rx,0,8,5E,D3,60,B2,00,30,00,43,
-1767062275550496,0000017B,false,Rx,0,8,01,65,A0,00,10,2F,00,00,
-1767062275550240,000005C0,false,Rx,0,8,63,00,00,FF,FF,10,2E,D9,
-1767062275549942,000005C1,false,Rx,0,8,00,00,00,00,7F,FF,FF,FE,
-1767062275549686,000005D0,false,Rx,0,8,00,00,5F,8E,5E,2B,13,83,
-1767062275549473,000005D1,false,Rx,0,8,5E,D3,60,B2,00,30,00,43,
-1767062275540428,00000141,false,Rx,0,8,03,22,6E,5C,4F,64,00,05,
-1767062275540172,00000143,false,Rx,0,8,BF,FC,18,00,18,00,00,10,
-1767062275539916,00000178,false,Rx,0,8,60,00,06,01,38,75,58,00,
-1767062275539660,00000286,false,Rx,0,8,A8,4A,FF,F0,00,50,01,01,
-1767062275539404,000005C0,false,Rx,0,8,63,00,00,FF,FF,10,2E,E7,
-1767062275539148,000005C1,false,Rx,0,8,00,00,00,00,7F,FF,F4,FA,
-1767062275538892,000005D0,false,Rx,0,8,00,00,5F,8E,5E,2B,13,80,
-1767062275538636,000005D1,false,Rx,0,8,5E,D3,60,B2,00,30,00,43,
-1767062275530487,00000142,false,Rx,0,8,63,71,61,73,99,01,00,05,
-1767062275530231,000005C0,false,Rx,0,8,63,00,00,FF,FF,10,2E,CC,
-1767062275529975,000005C1,false,Rx,0,8,00,00,00,00,80,00,03,AA,
-1767062275529719,000005D0,false,Rx,0,8,00,00,5F,8E,5E,2B,13,80,
-1767062275529463,000005D1,false,Rx,0,8,5E,D3,60,B2,00,30,00,43,
-1767062275520290,00000141,false,Rx,0,8,04,DB,6E,5C,4F,64,00,05,
-1767062275520034,00000143,false,Rx,0,8,BF,FC,18,00,18,00,00,10,
-1767062275519778,000005C0,false,Rx,0,8,63,00,00,FF,FF,10,2E,F4,
-1767062275519522,000005C1,false,Rx,0,8,00,00,00,00,80,00,03,AA,
-1767062275519266,000005D0,false,Rx,0,8,00,00,5F,8E,5E,2B,13,7F,
-1767062275519010,000005D1,false,Rx,0,8,5E,D3,60,B2,00,30,00,43,
-1767062275512014,00000536,false,Rx,0,8,00,41,40,21,00,00,00,00,
-1767062275509454,000005C0,false,Rx,0,8,63,00,00,FF,FF,10,2E,E7,
-1767062275509198,000005C1,false,Rx,0,8,00,00,00,00,7F,FF,F4,FA,
-1767062275508942,000005D0,false,Rx,0,8,00,00,5F,8E,5E,2B,13,81,
-1767062275508686,000005D1,false,Rx,0,8,5E,D3,60,B2,00,30,00,43,
-1767062275500196,00000145,false,Rx,0,8,73,A7,50,87,F3,73,69,1C,
-1767062275499940,00000053,false,Rx,0,8,00,00,80,01,78,7F,F9,00,
-1767062275499641,00000141,false,Rx,0,8,05,97,6E,5C,4F,64,00,05,
-1767062275499385,00000142,false,Rx,0,8,64,71,62,73,99,01,00,05,
-1767062275499129,00000143,false,Rx,0,8,BF,FC,18,00,18,00,00,10,
-1767062275498916,00000175,false,Rx,0,8,07,FF,00,0B,9C,80,00,0E,
-1767062275498660,0000017B,false,Rx,0,8,01,65,A0,00,10,2F,00,00,
-1767062275498361,00000182,false,Rx,0,8,00,02,FF,7F,F9,00,00,00,
-1767062275498105,0000018A,false,Rx,0,8,00,00,00,01,00,00,00,01,
-1767062275497849,00000288,false,Rx,0,8,23,37,9F,FF,00,02,0A,00,
-1767062275497636,00000290,false,Rx,0,8,24,24,23,02,01,03,CA,7F,
-1767062275497380,00000489,false,Rx,0,8,67,2E,19,00,00,00,00,28,
-1767062275497081,00000493,false,Rx,0,8,00,00,00,00,00,00,00,06,
-1767062275496825,00000494,false,Rx,0,8,00,00,00,00,00,00,00,01,
-1767062275496569,000005C0,false,Rx,0,8,63,00,00,FF,FF,10,2E,E7,
-1767062275496313,000005C1,false,Rx,0,8,00,00,00,00,7F,FF,F8,A7,
-1767062275496057,000005D0,false,Rx,0,8,00,00,5F,8E,5E,2B,13,81,
-1767062275495801,000005D1,false,Rx,0,8,5E,D3,60,B2,00,30,00,43,
-1767062275490511,00000479,false,Rx,0,8,23,23,23,10,1C,54,00,01,
-1767062275490212,000005C0,false,Rx,0,8,63,00,00,FF,FF,10,2E,F4,
-1767062275489956,000005C1,false,Rx,0,8,00,00,00,00,7F,FF,FC,52,
-1767062275489743,000005D0,false,Rx,0,8,00,00,5F,8E,5E,2B,13,83,
-1767062275489487,000005D1,false,Rx,0,8,5E,D3,60,B2,00,30,00,43,
-1767062275480442,00000141,false,Rx,0,8,06,43,6E,5C,4F,64,00,05,
-1767062275480144,00000143,false,Rx,0,8,BF,FC,18,00,18,00,00,10,
-1767062275479930,000005C0,false,Rx,0,8,63,00,00,FF,FF,10,2E,BF,
-1767062275479632,000005C1,false,Rx,0,8,00,00,00,00,7F,FF,FF,FE,
-1767062275479418,000005D0,false,Rx,0,8,00,00,5F,8E,5E,2B,13,7E,
-1767062275479162,000005D1,false,Rx,0,8,5E,D3,60,B2,00,30,00,43,
-1767062275470459,00000142,false,Rx,0,8,65,71,63,73,91,01,00,05,
-1767062275470160,00000178,false,Rx,0,8,60,00,01,4A,38,75,58,00,
-1767062275469947,000005C0,false,Rx,0,8,63,00,00,FF,FF,10,2E,CC,
-1767062275469648,000005C1,false,Rx,0,8,00,00,00,00,7F,FF,FC,52,
-1767062275469435,000005D0,false,Rx,0,8,00,00,5F,8E,5E,2B,13,81,
-1767062275469179,000005D1,false,Rx,0,8,5E,D3,60,B2,00,30,00,43,
-1767062275460433,00000141,false,Rx,0,8,07,0F,6E,5C,4F,64,00,05,
-1767062275460177,00000143,false,Rx,0,8,BF,FC,18,00,18,00,00,10,
-1767062275459921,000005C0,false,Rx,0,8,63,00,00,FF,FF,10,2E,E7,
-1767062275459665,000005C1,false,Rx,0,8,00,00,00,00,7F,FF,F8,A7,
-1767062275459409,000005D0,false,Rx,0,8,00,00,5F,8E,5E,2B,13,80,
-1767062275459153,000005D1,false,Rx,0,8,5E,D3,60,B2,00,30,00,43,
-1767062275450492,0000017B,false,Rx,0,8,01,65,A0,00,10,2F,00,00,
-1767062275450236,000005C0,false,Rx,0,8,63,00,00,FF,FF,10,2E,D9,
-1767062275449980,000005C1,false,Rx,0,8,00,00,00,00,80,00,07,56,
-1767062275449724,000005D0,false,Rx,0,8,00,00,5F,8E,5E,2B,13,81,
-1767062275449468,000005D1,false,Rx,0,8,5E,D3,60,B2,00,30,00,43,
-1767062275440466,00000142,false,Rx,0,8,66,71,64,73,99,01,00,05,
-1767062275440210,00000141,false,Rx,0,8,08,AC,6E,5C,4F,64,00,05,
-1767062275439954,00000143,false,Rx,0,8,BF,FC,18,00,18,00,00,10,
-1767062275439698,000005C0,false,Rx,0,8,63,00,00,FF,FF,10,2E,B1,
-1767062275439399,000005C1,false,Rx,0,8,00,00,00,00,80,00,03,AA,
-1767062275439186,000005D0,false,Rx,0,8,00,00,5F,8E,5E,2B,13,81,
-1767062275438930,000005D1,false,Rx,0,8,5E,D3,60,B2,00,30,00,43,
-1767062275430483,00000182,false,Rx,0,8,00,02,FF,7F,F9,00,00,00,
-1767062275430227,000005C0,false,Rx,0,8,63,00,00,FF,FF,10,2E,E7,
-1767062275429971,000005C1,false,Rx,0,8,00,00,00,00,7F,FF,FC,52,
-1767062275429715,000005D0,false,Rx,0,8,00,00,5F,8E,5E,2B,13,81,
-1767062275429459,000005D1,false,Rx,0,8,5E,D3,60,B2,00,30,00,43,
-1767062275420286,00000141,false,Rx,0,8,09,E0,6E,5C,4F,64,00,05,
-1767062275419987,00000143,false,Rx,0,8,BF,FC,18,00,18,00,00,10,
-1767062275419774,000005C0,false,Rx,0,8,63,00,00,FF,FF,10,2E,F4,
-1767062275419518,000005C1,false,Rx,0,8,00,00,00,00,7F,FF,FC,52,
-1767062275419262,000005D0,false,Rx,0,8,00,00,5F,8E,5E,2B,13,80,
-1767062275419006,000005D1,false,Rx,0,8,5E,D3,60,B2,00,30,00,43,
-1767062275412009,00000536,false,Rx,0,8,00,41,40,21,00,00,00,00,
-1767062275410473,00000142,false,Rx,0,8,67,71,65,73,89,01,00,05,
-1767062275410217,000005C0,false,Rx,0,8,63,00,00,FF,FF,10,2E,D9,
-1767062275409961,000005C1,false,Rx,0,8,00,00,00,00,7F,FF,EA,B3,
-1767062275409705,000005D0,false,Rx,0,8,00,00,5F,8E,5E,2B,13,81,
-1767062275409492,000005D1,false,Rx,0,8,5E,D3,60,B2,00,30,00,43,
-1767062275400362,00000145,false,Rx,0,8,73,A7,50,87,F3,73,69,1C,
-1767062275400106,00000053,false,Rx,0,8,00,00,80,01,78,7F,F9,00,
-1767062275399807,00000141,false,Rx,0,8,0A,34,6E,5C,4F,64,00,05,
-1767062275399509,00000143,false,Rx,0,8,BF,FC,18,00,18,00,00,10,
-1767062275399295,00000175,false,Rx,0,8,07,FF,00,0B,9C,80,00,0E,
-1767062275399039,00000178,false,Rx,0,8,60,00,01,4C,38,75,58,00,
-1767062275398783,0000017B,false,Rx,0,8,01,65,A0,00,10,2F,00,00,
-1767062275398527,0000018A,false,Rx,0,8,00,00,00,01,00,00,00,01,
-1767062275398271,00000286,false,Rx,0,8,A8,4A,FF,F0,00,50,01,01,
-1767062275398015,00000288,false,Rx,0,8,23,37,9F,FF,00,02,0A,00,
-1767062275397759,00000290,false,Rx,0,8,23,24,23,03,01,03,CA,7F,
-1767062275397503,00000493,false,Rx,0,8,00,00,00,00,00,00,00,06,
-1767062275397247,00000494,false,Rx,0,8,00,00,00,00,00,00,00,01,
-1767062275396991,000005C0,false,Rx,0,8,63,00,00,FF,FF,10,2E,D9,
-1767062275396735,000005C1,false,Rx,0,8,00,00,00,00,7F,FF,F8,A7,
-1767062275396479,000005D0,false,Rx,0,8,00,00,5F,8E,5E,2B,13,83,
-1767062275396223,000005D1,false,Rx,0,8,5E,D3,60,B2,00,30,00,43,
-1767062275390464,000005C0,false,Rx,0,8,63,00,00,FF,FF,10,2E,CC,
-1767062275390122,000005C1,false,Rx,0,8,00,00,00,00,7F,FF,FF,FE,
-1767062275389867,000005D0,false,Rx,0,8,00,00,5F,8E,5E,2B,13,80,
-1767062275389611,000005D1,false,Rx,0,8,5E,D3,60,B2,00,30,00,43,
-1767062275380438,00000142,false,Rx,0,8,68,71,66,73,91,01,00,05,
-1767062275380182,00000141,false,Rx,0,8,0B,78,6E,5C,4F,64,00,05,
-1767062275379926,00000143,false,Rx,0,8,BF,FC,18,00,18,00,00,10,
-1767062275379670,000005C0,false,Rx,0,8,63,00,00,FF,FF,10,2E,E7,
-1767062275379414,000005C1,false,Rx,0,8,00,00,00,00,80,00,03,AA,
-1767062275379158,000005D0,false,Rx,0,8,00,00,5F,8E,5E,2B,13,83,
-1767062275378902,000005D1,false,Rx,0,8,5E,D3,60,B2,00,30,00,43,
-1767062275370454,000005C0,false,Rx,0,8,63,00,00,FF,FF,10,2E,CC,
-1767062275370070,000005C1,false,Rx,0,8,00,00,00,00,7F,FF,FC,52,
-1767062275369857,000005D0,false,Rx,0,8,00,00,5F,8E,5E,2B,13,83,
-1767062275369601,000005D1,false,Rx,0,8,5E,D3,60,B2,00,30,00,43,
-1767062275360428,00000182,false,Rx,0,8,00,02,FF,7F,F9,00,00,00,
-1767062275360172,00000141,false,Rx,0,8,0C,81,6E,5C,4F,64,00,05,
-1767062275359916,00000143,false,Rx,0,8,BF,FC,18,00,18,00,00,10,
-1767062275359660,000005C0,false,Rx,0,8,63,00,00,FF,FF,10,2E,CC,
-1767062275359404,000005C1,false,Rx,0,8,00,00,00,00,7F,FF,F8,A7,
-1767062275359106,000005D0,false,Rx,0,8,00,00,5F,8E,5E,2B,13,7F,
-1767062275358850,000005D1,false,Rx,0,8,5E,D3,60,B2,00,30,00,43,
-1767062275350488,00000142,false,Rx,0,8,69,71,67,73,99,01,00,05,
-1767062275350232,0000017B,false,Rx,0,8,01,65,A0,00,10,30,00,00,
-1767062275349976,00000316,false,Rx,0,8,00,00,00,00,00,00,00,00,
-1767062275349720,000005C0,false,Rx,0,8,63,00,00,FF,FF,10,2E,D9,
-1767062275349464,000005C1,false,Rx,0,8,00,00,00,00,80,00,03,AA,
-1767062275349208,000005D0,false,Rx,0,8,00,00,5F,8E,5E,2B,13,81,
-1767062275348952,000005D1,false,Rx,0,8,5E,D3,60,B2,00,30,00,43,
-1767062275340462,00000141,false,Rx,0,8,0D,CD,6E,5C,4F,64,00,05,
-1767062275340163,00000143,false,Rx,0,8,BF,FC,18,00,18,00,00,10,
-1767062275339950,000005C0,false,Rx,0,8,63,00,00,FF,FF,10,2E,F4,
-1767062275339694,000005C1,false,Rx,0,8,00,00,00,00,7F,FF,FC,52,
-1767062275339438,000005D0,false,Rx,0,8,00,00,5F,8E,5E,2B,13,83,
-1767062275339182,000005D1,false,Rx,0,8,5E,D3,60,B2,00,30,00,43,
-1767062275330521,00000178,false,Rx,0,8,60,00,01,F2,38,75,58,00,
