Time Stamp,ID,Extended,Dir,Bus,LEN,D1,D2,D3,D4,D5,D6,D7,D8
-1725172529967471,00000491,false,Rx,0,8,00,00,00,00,00,00,00,0A,
-1725172529967955,00000594,false,Rx,0,8,68,42,68,42,80,6B,01,20,
-1725172529966481,000004DD,false,Rx,0,8,00,00,00,00,00,00,01,00,
-1725172529965760,00000542,false,Rx,0,8,6E,0C,00,00,00,00,FF,FF,
-1725172529965269,00000596,false,Rx,0,8,00,77,00,00,00,00,0A,0C,
-1725172529963780,000005A3,false,Rx,0,8,0F,00,00,00,00,00,00,00,
-1725172529963541,000005D5,false,Rx,0,8,00,00,00,A0,C8,A0,00,04,
-1725172529963302,000005D6,false,Rx,0,8,B9,B9,00,00,0A,0C,00,AA,
-1725172529962823,000005D8,false,Rx,0,8,80,6E,04,00,00,00,36,0E,
-1725172529967226,00000493,false,Rx,0,8,00,0B,80,69,00,00,00,00,
-1725172529966973,00000497,false,Rx,0,8,11,00,00,00,00,00,00,00,
-1725172529966735,00000498,false,Rx,0,8,00,00,00,00,00,00,00,00,
-1725172529966242,000004DE,false,Rx,0,8,00,F1,0A,00,F1,C0,1E,00,
-1725172529966000,000004E2,false,Rx,0,8,00,00,00,00,00,00,C1,1E,
-1725172529965523,00000595,false,Rx,0,8,0A,00,B9,B9,00,00,36,0E,
-1725172529965027,00000597,false,Rx,0,8,81,00,00,00,00,00,00,00,
-1725172529964772,00000598,false,Rx,0,8,00,00,00,00,00,00,F1,12,
-1725172529964532,00000599,false,Rx,0,8,08,00,00,00,00,00,00,00,
-1725172529964276,0000059C,false,Rx,0,8,00,00,00,00,00,00,00,00,
-1725172529967723,000003F6,false,Rx,0,8,18,00,00,00,00,00,00,00,
-1725172529964034,0000059E,false,Rx,0,8,00,00,00,00,36,0E,00,00,
-1725172529963062,000005D7,false,Rx,0,8,02,00,00,00,00,00,00,00,
-1725172529867984,00000594,false,Rx,0,8,4A,42,4A,42,A0,6B,01,20,
-1725172529867745,00000491,false,Rx,0,8,00,00,00,00,00,00,00,0A,
-1725172529867491,00000493,false,Rx,0,8,00,0B,80,69,72,00,00,00,
-1725172529867247,000004DD,false,Rx,0,8,00,00,00,00,00,00,00,00,
-1725172529867009,000004DE,false,Rx,0,8,00,F1,0A,00,F1,C5,1D,00,
-1725172529866771,000004E2,false,Rx,0,8,00,00,00,00,00,00,C0,9D,
-1725172529866517,00000542,false,Rx,0,8,6E,0C,00,00,00,00,FF,FF,
-1725172529866278,00000595,false,Rx,0,8,0A,00,B9,B9,00,00,34,0E,
-1725172529866050,00000596,false,Rx,0,8,25,77,00,00,00,00,0A,0C,
-1725172529865796,00000597,false,Rx,0,8,09,00,00,00,00,00,00,80,
-1725172529865559,00000598,false,Rx,0,8,00,00,00,00,00,00,F1,12,
-1725172529865305,00000599,false,Rx,0,8,08,80,00,00,00,00,00,80,
-1725172529865048,0000059C,false,Rx,0,8,00,00,00,00,00,00,00,00,
-1725172529864810,0000059E,false,Rx,0,8,00,00,00,00,34,0E,00,00,
-1725172529864557,000005A3,false,Rx,0,8,0F,00,00,00,00,00,00,00,
-1725172529864316,000005D5,false,Rx,0,8,00,00,00,A0,C8,A0,00,04,
-1725172529864091,000005D6,false,Rx,0,8,B9,B9,00,00,0A,0C,00,57,
-1725172529863837,000005D7,false,Rx,0,8,02,24,00,00,00,00,00,00,
-1725172529863598,000005D8,false,Rx,0,8,A0,6E,04,00,00,00,34,0E,
-1725172529768005,00000594,false,Rx,0,8,2C,42,2C,42,A0,6B,01,20,
-1725172529767751,00000491,false,Rx,0,8,00,00,00,00,00,00,00,0A,
-1725172529767512,00000493,false,Rx,0,8,00,0B,80,69,72,00,00,00,
-1725172529767253,000004DD,false,Rx,0,8,00,00,00,00,00,00,00,00,
-1725172529767031,000004DE,false,Rx,0,8,00,F1,0A,00,F1,C5,1D,00,
-1725172529766775,000004E2,false,Rx,0,8,00,00,00,00,00,00,C0,9D,
-1725172529766537,00000542,false,Rx,0,8,6E,0C,00,00,00,00,FF,FF,
-1725172529766298,00000595,false,Rx,0,8,0A,00,B9,B9,00,00,35,0E,
-1725172529766055,00000596,false,Rx,0,8,2D,77,00,00,00,00,0A,0C,
-1725172529765817,00000597,false,Rx,0,8,89,00,00,00,00,00,00,80,
-1725172529765578,00000598,false,Rx,0,8,00,00,00,00,00,00,F1,12,
-1725172529765325,00000599,false,Rx,0,8,08,80,00,00,00,00,00,80,
-1725172529765069,0000059C,false,Rx,0,8,00,00,00,00,00,00,00,00,
-1725172529764831,0000059E,false,Rx,0,8,00,00,00,00,35,0E,00,00,
-1725172529764578,000005A3,false,Rx,0,8,0F,00,00,00,00,00,00,00,
-1725172529764339,000005D5,false,Rx,0,8,00,00,00,A0,C8,A0,00,04,
-1725172529764115,000005D6,false,Rx,0,8,B9,B9,00,00,0A,0C,25,57,
-1725172529763862,000005D7,false,Rx,0,8,02,24,00,00,00,00,00,00,
-1725172529763624,000005D8,false,Rx,0,8,A0,6E,04,00,00,00,35,0E,
-1725172529668014,00000594,false,Rx,0,8,0E,42,0E,42,A0,6B,01,20,
-1725172529667762,00000491,false,Rx,0,8,00,00,00,00,00,00,00,0A,
-1725172529667524,00000493,false,Rx,0,8,00,0B,80,69,72,00,00,00,
-1725172529667282,000004DD,false,Rx,0,8,00,00,00,00,00,00,00,00,
-1725172529667044,000004DE,false,Rx,0,8,00,F1,0A,00,F1,C5,1D,00,
-1725172529666790,000004E2,false,Rx,0,8,00,00,00,00,00,00,C0,9D,
-1725172529666553,00000542,false,Rx,0,8,6E,0C,00,00,00,00,FF,FF,
-1725172529666314,00000595,false,Rx,0,8,0A,00,B9,B9,00,00,35,0E,
-1725172529666072,00000596,false,Rx,0,8,9D,77,00,00,00,00,0A,0C,
-1725172529665833,00000597,false,Rx,0,8,09,00,00,00,00,00,00,80,
-1725172529665579,00000598,false,Rx,0,8,00,00,00,00,00,00,F1,12,
-1725172529665341,00000599,false,Rx,0,8,08,80,00,00,00,00,00,80,
-1725172529665085,0000059C,false,Rx,0,8,00,00,00,00,00,00,00,00,
-1725172529664847,0000059E,false,Rx,0,8,00,00,00,00,35,0E,00,00,
-1725172529664594,000005A3,false,Rx,0,8,0F,00,00,00,00,00,00,00,
-1725172529664355,000005D5,false,Rx,0,8,00,00,00,A0,C8,A0,00,04,
-1725172529664130,000005D6,false,Rx,0,8,B9,B9,00,00,0A,0C,2D,A9,
-1725172529663876,000005D7,false,Rx,0,8,02,24,00,00,00,00,00,00,
-1725172529663637,000005D8,false,Rx,0,8,A0,6E,04,00,00,00,35,0E,
-1725172529568029,00000594,false,Rx,0,8,F0,41,F0,41,A0,6A,04,20,
-1725172529567775,00000491,false,Rx,0,8,00,00,00,00,00,00,00,0A,
-1725172529567537,00000493,false,Rx,0,8,00,0B,80,69,72,00,00,00,
-1725172529567293,000004DD,false,Rx,0,8,00,00,00,00,00,00,00,00,
-1725172529567054,000004DE,false,Rx,0,8,00,F1,0A,00,F1,C5,1D,00,
-1725172529566802,000004E2,false,Rx,0,8,00,00,00,00,00,00,C0,9D,
-1725172529566565,00000542,false,Rx,0,8,6E,0C,00,00,00,00,FF,FF,
-1725172529566326,00000595,false,Rx,0,8,0A,00,B9,B9,00,00,35,0E,
-1725172529566084,00000596,false,Rx,0,8,25,76,00,00,00,00,0A,0C,
-1725172529565845,00000597,false,Rx,0,8,89,00,00,00,00,00,00,80,
-1725172529565591,00000598,false,Rx,0,8,00,00,00,00,00,00,F1,12,
-1725172529565352,00000599,false,Rx,0,8,08,80,00,00,00,00,00,80,
-1725172529565094,0000059C,false,Rx,0,8,00,00,00,00,00,00,00,00,
-1725172529564856,0000059E,false,Rx,0,8,00,00,00,00,35,0E,00,00,
-1725172529564616,000005A3,false,Rx,0,8,0F,00,00,00,00,00,00,00,
-1725172529564362,000005D5,false,Rx,0,8,00,00,00,A0,C8,A0,00,04,
-1725172529564136,000005D6,false,Rx,0,8,B9,B9,00,00,0A,0C,2D,A8,
-1725172529563897,000005D7,false,Rx,0,8,02,24,00,00,00,00,00,00,
-1725172529563643,000005D8,false,Rx,0,8,A0,6E,04,00,00,00,35,0E,
-1725172529504293,00000250,false,Rx,0,8,03,16,00,66,02,80,02,09,
-1725172529504023,00000290,false,Rx,0,8,06,37,10,D9,00,00,00,00,
-1725172529503769,000002D0,false,Rx,0,8,00,42,59,44,00,00,00,00,
-1725172529503516,000003D0,false,Rx,0,8,00,42,61,74,74,65,72,79,
-1725172529503273,000003D0,false,Rx,0,8,01,2D,42,6F,78,20,50,72,
-1725172529503017,000003D0,false,Rx,0,8,02,65,6D,69,75,6D,20,48,
-1725172529502764,000003D0,false,Rx,0,8,03,56,53,00,00,00,00,00,
-1725172529468058,00000594,false,Rx,0,8,D2,41,D2,41,A0,6A,04,20,
-1725172529467804,00000491,false,Rx,0,8,00,00,00,00,00,00,00,0A,
-1725172529467568,00000493,false,Rx,0,8,00,0B,80,69,72,00,00,00,
-1725172529467311,000004DD,false,Rx,0,8,00,00,00,00,00,00,00,00,
-1725172529467074,000004DE,false,Rx,0,8,00,F1,0A,00,F1,C5,1D,00,
-1725172529466838,000004E2,false,Rx,0,8,00,00,00,00,00,00,C0,9D,
-1725172529466586,00000542,false,Rx,0,8,6E,0C,00,00,00,00,FF,FF,
-1725172529466329,00000553,false,Rx,0,8,04,00,80,00,00,00,80,00,
-1725172529466110,00000595,false,Rx,0,8,0A,00,B9,B9,00,00,35,0E,
-1725172529465857,000002A1,false,Rx,0,8,00,00,00,00,00,00,00,00,
-1725172529465605,00000596,false,Rx,0,8,2D,76,00,00,00,00,0A,0C,
-1725172529465368,00000200,false,Rx,0,8,00,80,D8,04,00,17,D0,00,
-1725172529465128,00000597,false,Rx,0,8,09,00,00,00,00,00,00,80,
-1725172529464891,00000523,false,Rx,0,8,08,38,36,36,33,34,00,01,
-1725172529464640,00000598,false,Rx,0,8,00,00,00,00,91,41,F1,12,
-1725172529464388,00000524,false,Rx,0,8,00,00,00,00,00,00,00,00,
-1725172529464150,00000599,false,Rx,0,8,08,80,00,00,00,00,00,80,
-1725172529463896,0000059C,false,Rx,0,8,00,00,00,00,00,00,00,00,
-1725172529463646,0000059E,false,Rx,0,8,00,00,00,00,35,0E,00,00,
-1725172529463409,000005A3,false,Rx,0,8,0F,00,00,00,C9,7D,2A,62,
-1725172529463173,000005D5,false,Rx,0,8,00,00,00,A0,C8,A0,00,04,
-1725172529462936,000005D6,false,Rx,0,8,B9,B9,00,00,0A,0C,25,58,
-1725172529462699,000005D7,false,Rx,0,8,02,24,00,00,00,00,00,00,
-1725172529462462,000005D8,false,Rx,0,8,A0,6E,04,00,00,00,35,0E,
-1725172529457501,00000200,false,Rx,0,8,00,80,D8,04,00,57,D0,00,
-1725172529457257,00000523,false,Rx,0,8,08,38,36,36,33,34,00,01,
-1725172529457002,00000524,false,Rx,0,8,00,00,00,00,00,00,00,00,
-1725172529447510,00000200,false,Rx,0,8,00,80,D8,04,00,97,D0,00,
-1725172529447266,00000523,false,Rx,0,8,08,38,36,36,33,34,00,01,
-1725172529447011,00000524,false,Rx,0,8,00,00,00,00,00,00,00,00,
-1725172529437503,00000200,false,Rx,0,8,00,80,D8,04,00,D7,D0,00,
-1725172529437260,00000523,false,Rx,0,8,08,38,36,36,33,34,00,01,
-1725172529437005,00000524,false,Rx,0,8,00,00,00,00,00,00,00,00,
-1725172529427505,00000200,false,Rx,0,8,00,80,D8,10,00,FF,D0,00,
-1725172529427264,00000523,false,Rx,0,8,08,38,36,36,33,34,00,01,
-1725172529427011,00000524,false,Rx,0,8,00,00,00,00,00,00,00,00,
-1725172529417503,00000200,false,Rx,0,8,00,80,D8,10,00,3B,D0,00,
-1725172529417261,00000523,false,Rx,0,8,08,38,36,36,33,34,00,01,
-1725172529417008,00000524,false,Rx,0,8,00,00,00,00,00,00,00,00,
-1725172529407516,00000200,false,Rx,0,8,00,80,D8,10,00,7B,D0,00,
-1725172529407274,00000523,false,Rx,0,8,08,38,36,36,33,34,00,01,
-1725172529407005,00000524,false,Rx,0,8,00,00,00,00,00,00,00,00,
-1725172529397512,00000200,false,Rx,0,8,00,80,D8,10,00,BB,D0,00,
-1725172529397269,00000523,false,Rx,0,8,08,38,36,36,33,34,00,01,
-1725172529397014,00000524,false,Rx,0,8,00,00,00,00,00,00,00,00,
-1725172529387507,00000200,false,Rx,0,8,00,80,D8,10,00,FB,D0,00,
-1725172529387264,00000523,false,Rx,0,8,08,38,36,36,33,34,00,01,
-1725172529387009,00000524,false,Rx,0,8,00,00,00,00,00,00,00,00,
-1725172529377509,00000200,false,Rx,0,8,00,80,D8,10,00,3B,D0,00,
-1725172529377267,00000523,false,Rx,0,8,08,38,36,36,33,34,00,01,
-1725172529377014,00000524,false,Rx,0,8,00,00,00,00,00,00,00,00,
-1725172529368060,00000594,false,Rx,0,8,A0,41,A0,41,A2,6A,04,20,
-1725172529367824,00000491,false,Rx,0,8,00,00,00,00,00,00,00,0A,
-1725172529367574,00000493,false,Rx,0,8,00,0B,80,69,72,00,00,00,
-1725172529367331,000004DD,false,Rx,0,8,00,00,00,00,00,00,00,00,
-1725172529367095,000004DE,false,Rx,0,8,00,F1,0A,00,F1,D5,1D,00,
-1725172529366858,000004E2,false,Rx,0,8,00,00,00,00,00,00,D0,9D,
-1725172529366605,00000542,false,Rx,0,8,6E,0C,00,00,00,00,FF,FF,
-1725172529366367,00000553,false,Rx,0,8,04,00,80,00,00,00,80,00,
-1725172529366126,00000595,false,Rx,0,8,0A,00,B9,B9,00,00,35,0E,
-1725172529365891,0000057F,false,Rx,0,8,80,0A,72,00,00,00,00,72,
-1725172529365640,00000596,false,Rx,0,8,9D,76,00,00,00,00,0A,0C,
-1725172529365401,000002A1,false,Rx,0,8,00,00,00,00,00,00,00,00,
-1725172529365147,00000597,false,Rx,0,8,89,00,00,00,00,00,00,80,
-1725172529364912,00000200,false,Rx,0,8,00,80,D8,10,00,7B,D0,00,
-1725172529364660,00000598,false,Rx,0,8,00,00,00,00,91,41,F1,12,
-1725172529364439,00000523,false,Rx,0,8,08,38,36,36,33,34,00,01,
-1725172529364187,00000599,false,Rx,0,8,08,80,00,00,00,00,00,80,
-1725172529363934,00000524,false,Rx,0,8,00,00,00,00,00,00,00,00,
-1725172529363680,0000059C,false,Rx,0,8,00,00,00,00,00,00,00,00,
-1725172529363446,0000059E,false,Rx,0,8,00,00,00,00,35,0E,00,00,
-1725172529363210,000005A3,false,Rx,0,8,0F,00,00,00,C9,7D,2A,62,
-1725172529362971,000005D5,false,Rx,0,8,00,00,00,A0,C8,A0,00,04,
-1725172529362733,000005D6,false,Rx,0,8,B9,B9,00,00,0A,0C,25,58,
-1725172529362493,000005D7,false,Rx,0,8,02,A4,00,00,00,00,00,00,
-1725172529362250,000005D8,false,Rx,0,8,A1,6E,04,00,00,00,35,0E,
-1725172529357520,00000200,false,Rx,0,8,00,80,D8,10,00,BB,D0,00,
-1725172529357278,00000523,false,Rx,0,8,08,38,36,36,33,34,00,01,
-1725172529357025,00000524,false,Rx,0,8,6B,01,00,00,00,00,00,00,
-1725172529347516,00000200,false,Rx,0,8,00,80,D8,10,00,FB,D0,00,
-1725172529347272,00000523,false,Rx,0,8,08,38,36,36,33,34,00,01,
-1725172529347017,00000524,false,Rx,0,8,6B,01,00,00,00,00,00,00,
-1725172529337525,00000200,false,Rx,0,8,00,80,D8,10,00,3B,D0,00,
-1725172529337281,00000523,false,Rx,0,8,08,38,36,36,33,34,00,01,
-1725172529337026,00000524,false,Rx,0,8,6B,01,00,00,00,00,00,00,
-1725172529327519,00000200,false,Rx,0,8,00,80,D8,10,00,7B,D0,00,
-1725172529327278,00000523,false,Rx,0,8,08,38,36,36,33,34,00,01,
-1725172529327026,00000524,false,Rx,0,8,6B,01,00,00,00,00,00,00,
-1725172529317518,00000200,false,Rx,0,8,00,80,D8,10,00,BB,D0,00,
-1725172529317274,00000523,false,Rx,0,8,08,38,36,36,33,34,00,01,
-1725172529317019,00000524,false,Rx,0,8,6B,01,00,00,00,00,00,00,
-1725172529307512,00000200,false,Rx,0,8,00,80,D8,10,00,FB,D0,00,
-1725172529307284,00000523,false,Rx,0,8,08,38,36,36,33,34,00,01,
-1725172529307015,00000524,false,Rx,0,8,6B,01,00,00,00,00,00,00,
-1725172529297521,00000200,false,Rx,0,8,00,80,D8,10,00,3B,D0,00,
-1725172529297278,00000523,false,Rx,0,8,08,38,36,36,33,34,00,01,
-1725172529297025,00000524,false,Rx,0,8,6B,01,00,00,00,00,00,00,
-1725172529287523,00000200,false,Rx,0,8,00,80,D8,10,00,7B,D0,00,
-1725172529287283,00000523,false,Rx,0,8,08,38,36,36,33,34,00,01,
-1725172529287030,00000524,false,Rx,0,8,6B,01,00,00,00,00,00,00,
-1725172529277519,00000200,false,Rx,0,8,00,80,D8,10,00,BB,D0,00,
-1725172529277278,00000523,false,Rx,0,8,08,38,36,36,33,34,00,01,
-1725172529277025,00000524,false,Rx,0,8,6B,01,00,00,00,00,00,00,
-1725172529268073,00000594,false,Rx,0,8,6E,41,6E,41,A2,6A,04,20,
-1725172529267834,00000491,false,Rx,0,8,00,00,00,00,00,00,00,0A,
-1725172529267596,00000493,false,Rx,0,8,00,0B,80,69,72,00,00,00,
-1725172529267336,000004DD,false,Rx,0,8,00,00,00,00,00,00,00,00,
-1725172529267112,000004DE,false,Rx,0,8,00,F1,0A,00,F1,D5,1D,00,
-1725172529266874,000004E2,false,Rx,0,8,00,00,00,00,00,00,D0,9D,
-1725172529266620,00000542,false,Rx,0,8,6E,0C,00,00,00,00,FF,FF,
-1725172529266381,00000553,false,Rx,0,8,04,00,80,00,00,00,80,00,
-1725172529266138,00000595,false,Rx,0,8,0A,00,B9,B9,00,00,35,0E,
-1725172529265900,0000057F,false,Rx,0,8,80,0A,72,00,00,00,00,72,
-1725172529265660,00000596,false,Rx,0,8,22,76,00,00,00,00,0A,0C,
-1725172529265407,000002A1,false,Rx,0,8,00,00,00,00,00,00,00,00,
-1725172529265166,00000597,false,Rx,0,8,09,00,00,00,00,00,00,80,
-1725172529264928,00000200,false,Rx,0,8,00,80,D8,10,00,FB,D0,00,
-1725172529264674,00000598,false,Rx,0,8,00,00,00,00,91,41,F1,12,
-1725172529264451,00000523,false,Rx,0,8,08,38,36,36,33,34,00,01,
-1725172529264198,00000599,false,Rx,0,8,08,80,00,00,00,00,00,80,
-1725172529263944,00000524,false,Rx,0,8,6B,01,00,00,00,00,00,00,
-1725172529263706,0000059C,false,Rx,0,8,00,00,00,00,00,00,00,00,
-1725172529263451,0000059E,false,Rx,0,8,00,00,00,00,35,0E,00,00,
-1725172529263229,000005A3,false,Rx,0,8,0F,00,00,00,C9,7D,2A,62,
-1725172529262989,000005D5,false,Rx,0,8,00,00,00,A0,C8,A0,00,04,
-1725172529262751,000005D6,false,Rx,0,8,B9,B9,00,00,0A,0C,9D,A7,
-1725172529262512,000005D7,false,Rx,0,8,02,A4,00,00,00,00,00,00,
-1725172529262269,000005D8,false,Rx,0,8,A1,6E,04,00,00,00,35,0E,
-1725172529257523,00000200,false,Rx,0,8,00,80,D8,10,00,3B,D0,00,
-1725172529257280,00000523,false,Rx,0,8,08,38,36,36,33,34,00,01,
-1725172529257025,00000524,false,Rx,0,8,6B,01,00,00,00,00,00,00,
-1725172529247531,00000200,false,Rx,0,8,00,80,D8,10,00,7B,D0,00,
-1725172529247290,00000523,false,Rx,0,8,08,38,36,36,33,34,00,01,
-1725172529247036,00000524,false,Rx,0,8,6B,01,00,00,00,00,00,00,
-1725172529237534,00000200,false,Rx,0,8,00,80,D8,10,00,BB,D0,00,
-1725172529237294,00000523,false,Rx,0,8,08,38,36,36,33,34,00,01,
-1725172529237027,00000524,false,Rx,0,8,6B,01,00,00,00,00,00,00,
-1725172529227533,00000200,false,Rx,0,8,00,80,D8,10,00,FB,D0,00,
-1725172529227293,00000523,false,Rx,0,8,08,38,36,36,33,34,00,01,
-1725172529227041,00000524,false,Rx,0,8,6B,01,00,00,00,00,00,00,
-1725172529217532,00000200,false,Rx,0,8,00,80,D8,10,00,3B,D0,00,
-1725172529217288,00000523,false,Rx,0,8,08,38,36,36,33,34,00,01,
-1725172529217033,00000524,false,Rx,0,8,6B,01,00,00,00,00,00,00,
-1725172529207541,00000200,false,Rx,0,8,00,80,D8,10,00,7B,D0,00,
-1725172529207297,00000523,false,Rx,0,8,08,38,36,36,33,34,00,01,
-1725172529207043,00000524,false,Rx,0,8,6B,01,00,00,00,00,00,00,
-1725172529197535,00000200,false,Rx,0,8,00,80,D8,10,00,BB,D0,00,
-1725172529197292,00000523,false,Rx,0,8,08,38,36,36,33,34,00,01,
-1725172529197038,00000524,false,Rx,0,8,6B,01,00,00,00,00,00,00,
-1725172529187538,00000200,false,Rx,0,8,00,80,D8,10,00,FB,D0,00,
-1725172529187298,00000523,false,Rx,0,8,08,38,36,36,33,34,00,01,
-1725172529187047,00000524,false,Rx,0,8,6B,01,00,00,00,00,00,00,
-1725172529177536,00000200,false,Rx,0,8,00,80,D8,10,00,3B,D0,00,
-1725172529177295,00000523,false,Rx,0,8,08,38,36,36,33,34,00,01,
-1725172529177043,00000524,false,Rx,0,8,6B,01,00,00,00,00,00,00,
-1725172529168090,00000594,false,Rx,0,8,3C,41,3C,41,A2,6A,04,20,
-1725172529167837,00000491,false,Rx,0,8,00,00,00,00,00,00,00,0A,
-1725172529167599,00000493,false,Rx,0,8,40,0B,80,69,72,00,00,00,
-1725172529167356,000004DD,false,Rx,0,8,00,00,00,00,00,00,00,00,
-1725172529167118,000004DE,false,Rx,0,8,00,F1,0A,00,F1,D5,1D,00,
-1725172529166880,000004E2,false,Rx,0,8,00,00,00,00,00,00,D0,9D,
-1725172529166641,00000542,false,Rx,0,8,6E,0C,00,00,00,00,FF,FF,
-1725172529166385,00000553,false,Rx,0,8,04,00,80,00,00,00,80,00,
-1725172529166158,00000595,false,Rx,0,8,0A,00,B9,B9,00,00,34,0E,
-1725172529165904,0000057F,false,Rx,0,8,80,0A,72,00,00,00,00,72,
-1725172529165667,00000596,false,Rx,0,8,25,76,00,00,00,00,0A,0C,
-1725172529165429,000002A1,false,Rx,0,8,00,00,00,00,00,00,00,00,
-1725172529165172,00000597,false,Rx,0,8,89,00,00,00,00,00,00,80,
-1725172529164934,00000200,false,Rx,0,8,00,80,D8,10,00,7B,D0,00,
-1725172529164696,00000598,false,Rx,0,8,00,00,00,00,91,41,F1,12,
-1725172529164456,00000523,false,Rx,0,8,08,38,36,36,33,34,00,01,
-1725172529164217,00000599,false,Rx,0,8,08,80,00,00,00,00,00,80,
-1725172529163964,00000524,false,Rx,0,8,6B,01,00,00,00,00,00,00,
-1725172529163710,0000059C,false,Rx,0,8,00,00,00,00,00,00,00,00,
-1725172529163472,0000059E,false,Rx,0,8,00,00,00,00,34,0E,00,00,
-1725172529163234,000005A3,false,Rx,0,8,0F,00,00,00,C9,7D,2A,62,
-1725172529162996,000005D5,false,Rx,0,8,00,00,00,A0,C8,A0,00,04,
-1725172529162759,000005D6,false,Rx,0,8,B9,B9,00,00,0A,0C,9D,A7,
-1725172529162521,000005D7,false,Rx,0,8,02,A4,00,00,00,00,00,00,
-1725172529162278,000005D8,false,Rx,0,8,A1,6E,04,00,00,00,34,0E,
-1725172529157532,00000200,false,Rx,0,8,00,80,D8,10,00,BB,D0,00,
-1725172529157289,00000523,false,Rx,0,8,08,38,36,36,33,34,00,01,
-1725172529157034,00000524,false,Rx,0,8,6B,01,00,00,00,00,00,00,
-1725172529147543,00000200,false,Rx,0,8,00,80,D8,10,00,FB,D0,00,
-1725172529147301,00000523,false,Rx,0,8,08,38,36,36,33,34,00,01,
-1725172529147047,00000524,false,Rx,0,8,6B,01,00,00,00,00,00,00,
-1725172529137531,00000200,false,Rx,0,8,00,80,D8,10,00,3B,D0,00,
-1725172529137290,00000523,false,Rx,0,8,08,38,36,36,33,34,00,01,
-1725172529137037,00000524,false,Rx,0,8,6B,01,00,00,00,00,00,00,
-1725172529127543,00000200,false,Rx,0,8,00,80,D8,10,00,7B,D0,00,
-1725172529127303,00000523,false,Rx,0,8,08,38,36,36,33,34,00,01,
-1725172529127036,00000524,false,Rx,0,8,6B,01,00,00,00,00,00,00,
-1725172529117541,00000200,false,Rx,0,8,00,80,D8,10,00,BB,D0,00,
-1725172529117298,00000523,false,Rx,0,8,08,38,36,36,33,34,00,01,
-1725172529117044,00000524,false,Rx,0,8,6B,01,00,00,00,00,00,00,
-1725172529107536,00000200,false,Rx,0,8,00,80,D8,10,00,FB,D0,00,
-1725172529107293,00000523,false,Rx,0,8,08,38,36,36,33,34,00,01,
-1725172529107038,00000524,false,Rx,0,8,6B,01,00,00,00,00,00,00,
-1725172529097547,00000200,false,Rx,0,8,00,80,D8,10,00,3B,D0,00,
-1725172529097306,00000523,false,Rx,0,8,08,38,36,36,33,34,00,01,
-1725172529097052,00000524,false,Rx,0,8,6B,01,00,00,00,00,00,00,
-1725172529087551,00000200,false,Rx,0,8,00,80,D8,10,00,7B,D0,00,
-1725172529087309,00000523,false,Rx,0,8,08,38,36,36,33,34,00,01,
-1725172529087057,00000524,false,Rx,0,8,6B,01,00,00,00,00,00,00,
-1725172529077548,00000200,false,Rx,0,8,00,80,D8,10,00,BB,D0,00,
-1725172529077308,00000523,false,Rx,0,8,08,38,36,36,33,34,00,01,
-1725172529077056,00000524,false,Rx,0,8,6B,01,00,00,00,00,00,00,
-1725172529068087,00000594,false,Rx,0,8,0A,41,0A,41,A2,6A,04,20,
-1725172529067848,00000491,false,Rx,0,8,2A,00,00,00,00,00,00,0A,
-1725172529067610,00000493,false,Rx,0,8,40,0B,80,69,72,00,AE,06,
-1725172529067367,000004DD,false,Rx,0,8,00,00,00,00,00,00,00,00,
-1725172529067129,000004DE,false,Rx,0,8,00,F1,0A,00,F1,D5,1D,00,
-1725172529066906,000004E2,false,Rx,0,8,66,03,FC,03,00,00,D0,9D,
-1725172529066652,00000542,false,Rx,0,8,6E,0C,00,00,00,00,FF,FF,
-1725172529066412,00000553,false,Rx,0,8,04,00,80,00,00,00,80,00,
-1725172529066168,00000595,false,Rx,0,8,0A,00,B9,B9,00,00,35,0E,
-1725172529065930,0000057F,false,Rx,0,8,80,0A,72,00,00,00,00,72,
-1725172529065692,00000596,false,Rx,0,8,2D,76,00,00,2A,00,0A,0C,
-1725172529065438,000002A1,false,Rx,0,8,00,00,00,00,00,00,00,00,
-1725172529065197,00000597,false,Rx,0,8,09,5E,01,00,00,00,00,80,
-1725172529064958,00000200,false,Rx,0,8,00,80,D8,10,00,FB,D0,00,
-1725172529064720,00000598,false,Rx,0,8,00,00,00,00,91,41,F1,12,
-1725172529064482,00000523,false,Rx,0,8,08,38,36,36,33,34,00,01,
-1725172529064229,00000599,false,Rx,0,8,08,80,00,00,00,00,00,80,
-1725172529063991,00000524,false,Rx,0,8,6B,01,00,00,00,00,00,00,
-1725172529063736,0000059C,false,Rx,0,8,00,00,00,00,00,00,00,00,
-1725172529063498,0000059E,false,Rx,0,8,00,00,00,00,35,0E,00,00,
-1725172529063255,000005A3,false,Rx,0,8,0F,00,00,00,C9,7D,2A,62,
-1725172529063016,000005D5,false,Rx,0,8,00,00,00,A0,C8,A0,00,04,
-1725172529062779,000005D6,false,Rx,0,8,B9,B9,00,00,0A,0C,25,5A,
-1725172529062541,000005D7,false,Rx,0,8,02,A4,00,00,00,00,00,00,
-1725172529062314,000005D8,false,Rx,0,8,A1,6E,04,00,5E,01,35,0E,
-1725172529057552,00000200,false,Rx,0,8,00,80,D8,10,00,3B,D0,00,
-1725172529057311,00000523,false,Rx,0,8,08,38,36,36,33,34,00,01,
-1725172529057057,00000524,false,Rx,0,8,6B,01,00,00,00,00,00,00,
-1725172529047548,00000200,false,Rx,0,8,00,80,D8,10,00,7B,D0,00,
-1725172529047304,00000523,false,Rx,0,8,08,38,36,36,33,34,00,01,
-1725172529047049,00000524,false,Rx,0,8,6B,01,00,00,00,00,00,00,
-1725172529037549,00000200,false,Rx,0,8,00,80,D8,10,00,BB,D0,00,
-1725172529037307,00000523,false,Rx,0,8,08,38,36,36,33,34,00,01,
-1725172529037054,00000524,false,Rx,0,8,6B,01,00,00,00,00,00,00,
-1725172529027545,00000200,false,Rx,0,8,00,80,D8,10,00,FB,D0,00,
-1725172529027304,00000523,false,Rx,0,8,08,38,36,36,33,34,00,01,
-1725172529027051,00000524,false,Rx,0,8,6B,01,00,00,00,00,00,00,
-1725172529017557,00000200,false,Rx,0,8,00,80,D8,10,00,3B,D0,00,
-1725172529017315,00000523,false,Rx,0,8,08,38,36,36,33,34,00,01,
-1725172529017061,00000524,false,Rx,0,8,6B,01,00,00,00,00,00,00,
-1725172529007553,00000200,false,Rx,0,8,00,80,D8,10,00,7B,D0,00,
-1725172529007310,00000523,false,Rx,0,8,08,38,36,36,33,34,00,01,
-1725172529007055,00000524,false,Rx,0,8,6B,01,00,00,00,00,00,00,
-1725172528997563,00000200,false,Rx,0,8,00,80,D8,10,00,BB,D0,00,
-1725172528997321,00000523,false,Rx,0,8,08,38,36,36,33,34,00,01,
-1725172528997068,00000524,false,Rx,0,8,6B,01,00,00,00,00,00,00,
-1725172528987567,00000200,false,Rx,0,8,00,80,D8,10,00,FB,D0,00,
-1725172528987324,00000523,false,Rx,0,8,08,38,36,36,33,34,00,01,
-1725172528987057,00000524,false,Rx,0,8,6B,01,00,00,00,00,00,00,
-1725172528977563,00000200,false,Rx,0,8,00,80,D8,10,00,3B,D0,00,
-1725172528977322,00000523,false,Rx,0,8,08,38,36,36,33,34,00,01,
-1725172528977069,00000524,false,Rx,0,8,6B,01,00,00,00,00,00,00,
-1725172528968116,00000594,false,Rx,0,8,D8,40,D8,40,A2,6A,04,20,
-1725172528967862,000003F6,false,Rx,0,8,18,00,00,00,00,00,00,00,
-1725172528967623,00000491,false,Rx,0,8,2A,00,00,00,00,00,00,0A,
-1725172528967378,00000493,false,Rx,0,8,40,0B,80,69,72,00,AE,06,
-1725172528967140,00000497,false,Rx,0,8,14,00,00,00,00,00,00,00,
-1725172528966886,00000498,false,Rx,0,8,00,00,00,00,00,00,00,00,
-1725172528966633,000004DD,false,Rx,0,8,00,00,00,00,00,00,00,00,
-1725172528966408,000004DE,false,Rx,0,8,00,F1,0A,00,F1,D5,1D,00,
-1725172528966166,000004E2,false,Rx,0,8,66,03,FC,03,00,00,D0,9D,
-1725172528965928,00000542,false,Rx,0,8,6E,0C,00,00,00,00,FF,FF,
-1725172528965675,00000553,false,Rx,0,8,04,00,80,00,00,00,80,00,
-1725172528965437,00000595,false,Rx,0,8,0A,00,B9,B9,00,00,35,0E,
-1725172528965210,0000057F,false,Rx,0,8,80,0A,72,00,00,00,00,72,
-1725172528964971,00000596,false,Rx,0,8,9D,76,00,00,2A,00,0A,0C,
-1725172528964719,000002A1,false,Rx,0,8,00,00,00,00,00,00,00,00,
-1725172528964481,00000597,false,Rx,0,8,89,5E,01,00,00,00,00,80,
-1725172528964242,00000200,false,Rx,0,8,00,80,D8,10,00,7B,D0,00,
-1725172528963988,00000598,false,Rx,0,8,00,00,00,00,91,41,F1,12,
-1725172528963764,00000523,false,Rx,0,8,08,38,36,36,33,34,00,01,
-1725172528963509,00000599,false,Rx,0,8,08,80,00,00,00,00,00,80,
-1725172528963257,00000524,false,Rx,0,8,6B,01,00,00,00,00,00,00,
-1725172528963019,0000059C,false,Rx,0,8,00,00,00,00,00,00,00,00,
-1725172528962764,0000059E,false,Rx,0,8,00,00,00,00,35,0E,00,00,
-1725172528962541,000005A3,false,Rx,0,8,0F,00,00,00,C9,7D,2A,62,
-1725172528962297,000005D5,false,Rx,0,8,00,00,00,A0,C8,A0,00,04,
-1725172528962058,000005D6,false,Rx,0,8,B9,B9,00,00,0A,0C,25,5A,
-1725172528961818,000005D7,false,Rx,0,8,02,A4,00,00,00,00,00,00,
-1725172528961580,000005D8,false,Rx,0,8,A1,6E,04,00,5E,01,35,0E,
-1725172528957566,00000200,false,Rx,0,8,00,80,D8,10,00,BB,D0,00,
-1725172528957323,00000523,false,Rx,0,8,08,38,36,36,33,34,00,01,
-1725172528957070,00000524,false,Rx,0,8,6B,01,00,00,00,00,00,00,
-1725172528951572,000007E4,false,Rx,0,8,03,22,01,01,00,00,00,00,
-1725172528947573,00000200,false,Rx,0,8,00,80,D8,10,00,FB,D0,00,
-1725172528947329,00000523,false,Rx,0,8,08,38,36,36,33,34,00,01,
-1725172528947074,00000524,false,Rx,0,8,6B,01,00,00,00,00,00,00,
-1725172528941530,000007EC,false,Rx,0,8,10,3E,62,01,01,FF,F7,E7,
-1725172528940568,000007E4,false,Rx,0,8,30,00,00,00,00,00,00,00,
-1725172528937563,00000200,false,Rx,0,8,00,80,D8,10,00,3B,D0,00,
-1725172528937322,00000523,false,Rx,0,8,08,38,36,36,33,34,00,01,
-1725172528937069,00000524,false,Rx,0,8,6B,01,00,00,00,00,00,00,
-1725172528931521,000007EC,false,Rx,0,8,21,FF,6A,00,00,00,00,04,
-1725172528927572,00000200,false,Rx,0,8,00,80,D8,10,00,7B,D0,00,
-1725172528927332,00000523,false,Rx,0,8,08,38,36,36,33,34,00,01,
-1725172528927080,00000524,false,Rx,0,8,6B,01,00,00,00,00,00,00,
-1725172528921532,000007EC,false,Rx,0,8,22,00,00,0E,35,0C,0A,0A,
-1725172528917580,00000200,false,Rx,0,8,00,80,D8,10,00,BB,D0,00,
-1725172528917335,00000523,false,Rx,0,8,08,38,36,36,33,34,00,01,
-1725172528917081,00000524,false,Rx,0,8,6B,01,00,00,00,00,00,00,
-1725172528911535,000007EC,false,Rx,0,8,23,0B,0B,0A,00,00,0A,B9,
-1725172528907567,00000200,false,Rx,0,8,00,80,D8,10,00,FB,D0,00,
-1725172528907324,00000523,false,Rx,0,8,08,38,36,36,33,34,00,01,
-1725172528907068,00000524,false,Rx,0,8,6B,01,00,00,00,00,00,00,
-1725172528901537,000007EC,false,Rx,0,8,24,2B,B9,57,00,00,76,00,
-1725172528897571,00000200,false,Rx,0,8,00,80,D8,10,00,3B,D0,00,
-1725172528897327,00000523,false,Rx,0,8,08,38,36,36,33,34,00,01,
-1725172528897072,00000524,false,Rx,0,8,6B,01,00,00,00,00,00,00,
-1725172528891533,000007EC,false,Rx,0,8,25,04,F4,06,00,04,F2,D5,
-1725172528887581,00000200,false,Rx,0,8,00,80,D8,10,00,7B,D0,00,
-1725172528887338,00000523,false,Rx,0,8,08,38,36,36,33,34,00,01,
-1725172528887087,00000524,false,Rx,0,8,6B,01,00,00,00,00,00,00,
-1725172528881539,000007EC,false,Rx,0,8,26,00,01,DE,8E,00,01,CF,
-1725172528877573,00000200,false,Rx,0,8,00,80,D8,10,00,BB,D0,00,
-1725172528877332,00000523,false,Rx,0,8,08,38,36,36,33,34,00,01,
-1725172528877076,00000524,false,Rx,0,8,6B,01,00,00,00,00,00,00,
-1725172528871546,000007EC,false,Rx,0,8,27,63,00,C0,42,73,09,01,
-1725172528868125,00000594,false,Rx,0,8,A6,40,A6,40,A2,6A,04,20,
-1725172528867887,00000491,false,Rx,0,8,2A,00,00,00,00,00,00,0A,
-1725172528867648,00000493,false,Rx,0,8,40,0B,80,69,72,00,AE,06,
-1725172528867403,000004DD,false,Rx,0,8,00,00,00,00,00,00,00,00,
-1725172528867165,000004DE,false,Rx,0,8,00,F1,0A,00,F1,D5,1D,00,
-1725172528866941,000004E2,false,Rx,0,8,66,03,FC,03,00,00,D0,9D,
-1725172528866686,00000542,false,Rx,0,8,6E,0C,00,00,00,00,FF,FF,
-1725172528866448,00000553,false,Rx,0,8,04,00,80,00,00,00,80,00,
-1725172528866205,00000595,false,Rx,0,8,0A,00,B9,B9,00,00,35,0E,
-1725172528865967,0000057F,false,Rx,0,8,80,0A,72,00,00,00,00,72,
-1725172528865727,00000596,false,Rx,0,8,22,76,00,00,2A,00,0A,0C,
-1725172528865474,000002A1,false,Rx,0,8,00,00,00,00,00,00,00,00,
-1725172528865232,00000597,false,Rx,0,8,09,5E,01,00,00,00,00,80,
-1725172528864994,00000200,false,Rx,0,8,00,80,D8,10,00,FB,D0,00,
-1725172528864754,00000598,false,Rx,0,8,00,00,00,00,91,41,F1,12,
-1725172528864516,00000523,false,Rx,0,8,08,38,36,36,33,34,00,01,
-1725172528864263,00000599,false,Rx,0,8,08,80,00,00,00,00,00,80,
-1725172528864024,00000524,false,Rx,0,8,6B,01,00,00,00,00,00,00,
-1725172528863768,0000059C,false,Rx,0,8,00,00,00,00,00,00,00,00,
-1725172528863530,0000059E,false,Rx,0,8,00,00,00,00,35,0E,00,00,
-1725172528863286,000005A3,false,Rx,0,8,0F,00,00,00,C9,7D,2A,62,
-1725172528863048,000005D5,false,Rx,0,8,00,00,00,A0,C8,A0,00,04,
-1725172528862824,000005D6,false,Rx,0,8,B9,B9,00,00,0A,0C,9D,A5,
-1725172528862569,000005D7,false,Rx,0,8,02,A4,00,00,00,00,00,00,
-1725172528862341,000005D8,false,Rx,0,8,A1,6E,04,00,5E,01,35,0E,
-1725172528861527,000007EC,false,Rx,0,8,28,6B,7F,FF,7F,FF,03,E8,
-1725172528857582,00000200,false,Rx,0,8,00,80,D8,10,00,3B,D0,00,
-1725172528857340,00000523,false,Rx,0,8,08,38,36,36,33,34,00,01,
-1725172528857087,00000524,false,Rx,0,8,6B,01,00,00,00,00,00,00,
-1725172528847578,00000200,false,Rx,0,8,00,80,D8,10,00,7B,D0,00,
-1725172528847335,00000523,false,Rx,0,8,08,38,36,36,33,34,00,01,
-1725172528847082,00000524,false,Rx,0,8,6B,01,00,00,00,00,00,00,
-1725172528837588,00000200,false,Rx,0,8,00,80,D8,10,00,BB,D0,00,
-1725172528837349,00000523,false,Rx,0,8,08,38,36,36,33,34,00,01,
-1725172528837081,00000524,false,Rx,0,8,6B,01,00,00,00,00,00,00,
-1725172528827588,00000200,false,Rx,0,8,00,80,D8,10,00,FB,D0,00,
-1725172528827346,00000523,false,Rx,0,8,08,38,36,36,33,34,00,01,
-1725172528827092,00000524,false,Rx,0,8,6B,01,00,00,00,00,00,00,
-1725172528817583,00000200,false,Rx,0,8,00,80,D8,10,00,3B,D0,00,
-1725172528817340,00000523,false,Rx,0,8,08,38,36,36,33,34,00,01,
-1725172528817085,00000524,false,Rx,0,8,6B,01,00,00,00,00,00,00,
-1725172528807597,00000200,false,Rx,0,8,00,80,D8,10,00,7B,D0,00,
-1725172528807353,00000523,false,Rx,0,8,08,38,36,36,33,34,00,01,
-1725172528807099,00000524,false,Rx,0,8,6B,01,00,00,00,00,00,00,
-1725172528797582,00000200,false,Rx,0,8,00,80,D8,10,00,BB,D0,00,
-1725172528797341,00000523,false,Rx,0,8,08,38,36,36,33,34,00,01,
-1725172528797088,00000524,false,Rx,0,8,6B,01,00,00,00,00,00,00,
-1725172528787596,00000200,false,Rx,0,8,00,80,D8,10,00,FB,D0,00,
-1725172528787354,00000523,false,Rx,0,8,08,38,36,36,33,34,00,01,
-1725172528787087,00000524,false,Rx,0,8,6B,01,00,00,00,00,00,00,
-1725172528777594,00000200,false,Rx,0,8,00,80,D8,10,00,3B,D0,00,
-1725172528777352,00000523,false,Rx,0,8,08,38,36,36,33,34,00,01,
-1725172528777082,00000524,false,Rx,0,8,6B,01,00,00,00,00,00,00,
-1725172528768137,00000594,false,Rx,0,8,74,40,74,40,A2,6A,04,20,
-1725172528767899,00000491,false,Rx,0,8,2A,00,00,00,00,00,00,0A,
-1725172528767660,00000493,false,Rx,0,8,40,0B,80,69,72,00,AE,06,
-1725172528767415,000004DD,false,Rx,0,8,00,00,00,00,00,00,00,00,
-1725172528767177,000004DE,false,Rx,0,8,00,F1,0A,00,F1,D5,1D,00,
-1725172528766953,000004E2,false,Rx,0,8,66,03,FC,03,00,00,D0,9D,
-1725172528766701,00000542,false,Rx,0,8,6E,0C,00,00,00,00,FF,FF,
-1725172528766464,00000553,false,Rx,0,8,04,00,80,00,00,00,80,00,
-1725172528766221,00000595,false,Rx,0,8,0A,00,B9,B9,00,00,35,0E,
-1725172528765981,0000057F,false,Rx,0,8,80,0A,72,00,00,00,00,72,
-1725172528765743,00000596,false,Rx,0,8,25,76,00,00,2A,00,0A,0C,
-1725172528765490,000002A1,false,Rx,0,8,00,00,00,00,00,00,00,00,
-1725172528765249,00000597,false,Rx,0,8,89,5E,01,00,00,00,00,80,
-1725172528765010,00000200,false,Rx,0,8,00,80,D8,10,00,7B,D0,00,
-1725172528764770,00000598,false,Rx,0,8,00,00,00,00,91,41,F1,12,
-1725172528764532,00000523,false,Rx,0,8,08,38,36,36,33,34,00,01,
-1725172528764280,00000599,false,Rx,0,8,08,80,00,00,00,00,00,80,
-1725172528764041,00000524,false,Rx,0,8,6B,01,00,00,00,00,00,00,
-1725172528763787,0000059C,false,Rx,0,8,00,00,00,00,00,00,00,00,
-1725172528763549,0000059E,false,Rx,0,8,00,00,00,00,35,0E,00,00,
-1725172528763306,000005A3,false,Rx,0,8,0F,00,00,00,C9,7D,2A,62,
-1725172528763067,000005D5,false,Rx,0,8,00,00,00,A0,C8,A0,00,04,
-1725172528762828,000005D6,false,Rx,0,8,B9,B9,00,00,0A,0C,9D,A5,
-1725172528762590,000005D7,false,Rx,0,8,02,A4,00,00,00,00,00,00,
-1725172528762363,000005D8,false,Rx,0,8,A1,6E,04,00,5E,01,35,0E,
-1725172528757586,00000200,false,Rx,0,8,00,80,D8,10,00,BB,D0,00,
-1725172528757343,00000523,false,Rx,0,8,08,38,36,36,33,34,00,01,
-1725172528757088,00000524,false,Rx,0,8,6B,01,00,00,00,00,00,00,
-1725172528747587,00000200,false,Rx,0,8,00,80,D8,10,00,FB,D0,00,
-1725172528747345,00000523,false,Rx,0,8,08,38,36,36,33,34,00,01,
-1725172528747092,00000524,false,Rx,0,8,6B,01,00,00,00,00,00,00,
-1725172528737597,00000200,false,Rx,0,8,00,80,D8,10,00,3B,D0,00,
-1725172528737342,00000523,false,Rx,0,8,08,38,36,36,33,34,00,01,
-1725172528737092,00000524,false,Rx,0,8,6B,01,00,00,00,00,00,00,
-1725172528727598,00000200,false,Rx,0,8,00,80,D8,10,00,7B,D0,00,
-1725172528727356,00000523,false,Rx,0,8,08,38,36,36,33,34,00,01,
-1725172528727102,00000524,false,Rx,0,8,6B,01,00,00,00,00,00,00,
-1725172528717593,00000200,false,Rx,0,8,00,80,D8,10,00,BB,D0,00,
-1725172528717350,00000523,false,Rx,0,8,08,38,36,36,33,34,00,01,
-1725172528717095,00000524,false,Rx,0,8,6B,01,00,00,00,00,00,00,
-1725172528707601,00000200,false,Rx,0,8,00,80,D8,10,00,FB,D0,00,
-1725172528707360,00000523,false,Rx,0,8,08,38,36,36,33,34,00,01,
-1725172528707090,00000524,false,Rx,0,8,6B,01,00,00,00,00,00,00,
-1725172528697603,00000200,false,Rx,0,8,00,80,D8,10,00,3B,D0,00,
-1725172528697361,00000523,false,Rx,0,8,08,38,36,36,33,34,00,01,
-1725172528697094,00000524,false,Rx,0,8,6B,01,00,00,00,00,00,00,
-1725172528687601,00000200,false,Rx,0,8,00,80,D8,10,00,7B,D0,00,
-1725172528687362,00000523,false,Rx,0,8,08,38,36,36,33,34,00,01,
-1725172528687095,00000524,false,Rx,0,8,6B,01,00,00,00,00,00,00,
-1725172528677602,00000200,false,Rx,0,8,00,80,D8,10,00,BB,D0,00,
-1725172528677359,00000523,false,Rx,0,8,08,38,36,36,33,34,00,01,
-1725172528677105,00000524,false,Rx,0,8,6B,01,00,00,00,00,00,00,
-1725172528668157,00000594,false,Rx,0,8,42,40,42,40,A2,6A,04,20,
-1725172528667905,00000491,false,Rx,0,8,2A,00,00,00,00,00,00,0A,
-1725172528667422,000004DD,false,Rx,0,8,00,00,00,00,00,00,00,00,
-1725172528667681,00000493,false,Rx,0,8,40,0B,80,69,72,00,AE,06,
-1725172528667199,000004DE,false,Rx,0,8,00,F1,0A,00,F1,D5,1D,00,
-1725172528666961,000004E2,false,Rx,0,8,66,03,FC,03,00,00,D0,9D,
-1725172528666722,00000542,false,Rx,0,8,6E,0C,00,00,00,00,FF,FF,
-1725172528666468,00000553,false,Rx,0,8,04,00,80,00,00,00,80,00,
-1725172528666239,00000595,false,Rx,0,8,0A,00,B9,B9,00,00,35,0E,
-1725172528666003,0000057F,false,Rx,0,8,80,0A,72,00,00,00,00,72,
-1725172528665764,00000596,false,Rx,0,8,2D,76,00,00,2A,00,0A,0C,
-1725172528665509,000002A1,false,Rx,0,8,00,00,00,00,00,00,00,00,
-1725172528665269,00000597,false,Rx,0,8,09,5E,01,00,00,00,00,80,
-1725172528665031,00000200,false,Rx,0,8,00,80,D8,10,00,FB,D0,00,
-1725172528664777,00000598,false,Rx,0,8,00,00,00,00,91,41,F1,12,
-1725172528664555,00000523,false,Rx,0,8,08,38,36,36,33,34,00,01,
-1725172528664295,00000599,false,Rx,0,8,08,80,00,00,00,00,00,80,
-1725172528664057,00000524,false,Rx,0,8,6B,01,00,00,00,00,00,00,
-1725172528663803,0000059C,false,Rx,0,8,00,00,00,00,00,00,00,00,
-1725172528663565,0000059E,false,Rx,0,8,00,00,00,00,35,0E,00,00,
-1725172528663320,000005A3,false,Rx,0,8,0F,00,00,00,C9,7D,2A,62,
-1725172528663082,000005D5,false,Rx,0,8,00,00,00,A0,C8,A0,00,04,
-1725172528662858,000005D6,false,Rx,0,8,B9,B9,00,00,0A,0C,25,5C,
-1725172528662604,000005D7,false,Rx,0,8,02,A4,00,00,00,00,00,00,
-1725172528662377,000005D8,false,Rx,0,8,A1,6E,04,00,5E,01,35,0E,
-1725172528657600,00000200,false,Rx,0,8,00,80,D8,10,00,3B,D0,00,
-1725172528657357,00000523,false,Rx,0,8,08,38,36,36,33,34,00,01,
-1725172528657102,00000524,false,Rx,0,8,6B,01,00,00,00,00,00,00,
-1725172528647599,00000200,false,Rx,0,8,00,80,D8,10,00,7B,D0,00,
-1725172528647358,00000523,false,Rx,0,8,08,38,36,36,33,34,00,01,
-1725172528647105,00000524,false,Rx,0,8,6B,01,00,00,00,00,00,00,
-1725172528637610,00000200,false,Rx,0,8,00,80,D8,10,00,BB,D0,00,
-1725172528637370,00000523,false,Rx,0,8,08,38,36,36,33,34,00,01,
-1725172528637103,00000524,false,Rx,0,8,6B,01,00,00,00,00,00,00,
-1725172528627608,00000200,false,Rx,0,8,00,80,D8,10,00,FB,D0,00,
-1725172528627365,00000523,false,Rx,0,8,08,38,36,36,33,34,00,01,
-1725172528627110,00000524,false,Rx,0,8,6B,01,00,00,00,00,00,00,
-1725172528617602,00000200,false,Rx,0,8,00,80,D8,10,00,3B,D0,00,
-1725172528617374,00000523,false,Rx,0,8,08,38,36,36,33,34,00,01,
-1725172528617121,00000524,false,Rx,0,8,6B,01,00,00,00,00,00,00,
-1725172528607612,00000200,false,Rx,0,8,00,80,D8,10,00,7B,D0,00,
-1725172528607368,00000523,false,Rx,0,8,08,38,36,36,33,34,00,01,
-1725172528607113,00000524,false,Rx,0,8,6B,01,00,00,00,00,00,00,
-1725172528597613,00000200,false,Rx,0,8,00,80,D8,10,00,BB,D0,00,
-1725172528597357,00000523,false,Rx,0,8,08,38,36,36,33,34,00,01,
-1725172528597105,00000524,false,Rx,0,8,6B,01,00,00,00,00,00,00,
-1725172528587610,00000200,false,Rx,0,8,00,80,D8,10,00,FB,D0,00,
-1725172528587369,00000523,false,Rx,0,8,08,38,36,36,33,34,00,01,
-1725172528587116,00000524,false,Rx,0,8,6B,01,00,00,00,00,00,00,
-1725172528577622,00000200,false,Rx,0,8,00,80,D8,10,00,3B,D0,00,
-1725172528577380,00000523,false,Rx,0,8,08,38,36,36,33,34,00,01,
-1725172528577110,00000524,false,Rx,0,8,6B,01,00,00,00,00,00,00,
-1725172528568162,00000594,false,Rx,0,8,10,40,10,40,A2,6A,04,20,
-1725172528567908,00000491,false,Rx,0,8,2A,00,00,00,00,00,00,0A,
-1725172528567686,00000493,false,Rx,0,8,40,0B,80,69,72,00,AE,06,
-1725172528567429,000004DD,false,Rx,0,8,00,00,00,00,00,00,00,00,
-1725172528567205,000004DE,false,Rx,0,8,00,F1,0A,00,F1,D5,1D,00,
-1725172528566965,000004E2,false,Rx,0,8,66,03,FC,03,00,00,D0,9D,
-1725172528566728,00000542,false,Rx,0,8,6E,0C,00,00,00,00,FF,FF,
-1725172528566473,00000553,false,Rx,0,8,04,00,80,00,00,00,80,00,
-1725172528566246,00000595,false,Rx,0,8,0A,00,B9,B9,00,00,35,0E,
-1725172528566008,0000057F,false,Rx,0,8,80,0A,72,00,00,00,00,72,
-1725172528565768,00000596,false,Rx,0,8,9D,76,00,00,2A,00,0A,0C,
-1725172528565515,000002A1,false,Rx,0,8,00,00,00,00,00,00,00,00,
-1725172528565274,00000597,false,Rx,0,8,89,5E,01,00,00,00,00,80,
-1725172528565036,00000200,false,Rx,0,8,00,80,D8,10,00,7B,D0,00,
-1725172528564797,00000598,false,Rx,0,8,00,00,00,00,91,41,F1,12,
-1725172528564560,00000523,false,Rx,0,8,08,38,36,36,33,34,00,01,
-1725172528564308,00000599,false,Rx,0,8,08,80,00,00,00,00,00,80,
-1725172528564070,00000524,false,Rx,0,8,6B,01,00,00,00,00,00,00,
-1725172528563816,0000059C,false,Rx,0,8,00,00,00,00,00,00,00,00,
-1725172528563577,0000059E,false,Rx,0,8,00,00,00,00,35,0E,00,00,
-1725172528563334,000005A3,false,Rx,0,8,0F,00,00,00,C9,7D,2A,62,
-1725172528563095,000005D5,false,Rx,0,8,00,00,00,A0,C8,A0,00,04,
-1725172528562871,000005D6,false,Rx,0,8,B9,B9,00,00,0A,0C,25,5C,
-1725172528562618,000005D7,false,Rx,0,8,02,A4,00,00,00,00,00,00,
-1725172528562390,000005D8,false,Rx,0,8,A1,6E,04,00,5E,01,35,0E,
-1725172528557613,00000200,false,Rx,0,8,00,80,D8,10,00,BB,D0,00,
-1725172528557370,00000523,false,Rx,0,8,08,38,36,36,33,34,00,01,
-1725172528557115,00000524,false,Rx,0,8,6B,01,00,00,00,00,00,00,
-1725172528547614,00000200,false,Rx,0,8,00,80,D8,10,00,FB,D0,00,
-1725172528547373,00000523,false,Rx,0,8,08,38,36,36,33,34,00,01,
-1725172528547120,00000524,false,Rx,0,8,6B,01,00,00,00,00,00,00,
-1725172528537626,00000200,false,Rx,0,8,00,80,D8,10,00,3B,D0,00,
-1725172528537386,00000523,false,Rx,0,8,08,38,36,36,33,34,00,01,
-1725172528537119,00000524,false,Rx,0,8,6B,01,00,00,00,00,00,00,
-1725172528527624,00000200,false,Rx,0,8,00,80,D8,10,00,7B,D0,00,
-1725172528527380,00000523,false,Rx,0,8,08,38,36,36,33,34,00,01,
-1725172528527125,00000524,false,Rx,0,8,6B,01,00,00,00,00,00,00,
-1725172528517619,00000200,false,Rx,0,8,00,80,D8,10,00,BB,D0,00,
-1725172528517376,00000523,false,Rx,0,8,08,38,36,36,33,34,00,01,
-1725172528517124,00000524,false,Rx,0,8,6B,01,00,00,00,00,00,00,
-1725172528507632,00000200,false,Rx,0,8,00,80,D8,10,00,FB,D0,00,
-1725172528507390,00000523,false,Rx,0,8,08,38,36,36,33,34,00,01,
-1725172528507121,00000524,false,Rx,0,8,6B,01,00,00,00,00,00,00,
-1725172528497635,00000200,false,Rx,0,8,00,80,D8,10,00,3B,D0,00,
-1725172528497392,00000523,false,Rx,0,8,08,38,36,36,33,34,00,01,
-1725172528497125,00000524,false,Rx,0,8,6B,01,00,00,00,00,00,00,
-1725172528487633,00000200,false,Rx,0,8,00,80,D8,10,00,7B,D0,00,
-1725172528487393,00000523,false,Rx,0,8,08,38,36,36,33,34,00,01,
-1725172528487142,00000524,false,Rx,0,8,6B,01,00,00,00,00,00,00,
-1725172528477632,00000200,false,Rx,0,8,00,80,D8,10,00,BB,D0,00,
-1725172528477390,00000523,false,Rx,0,8,08,38,36,36,33,34,00,01,
-1725172528477136,00000524,false,Rx,0,8,6B,01,00,00,00,00,00,00,
-1725172528468173,00000594,false,Rx,0,8,DE,3F,DE,3F,A2,6A,04,20,
-1725172528467935,00000491,false,Rx,0,8,2A,00,00,00,00,00,00,0A,
-1725172528467698,00000493,false,Rx,0,8,40,0B,80,69,72,00,AE,06,
-1725172528467454,000004DD,false,Rx,0,8,00,00,00,00,00,00,00,00,
-1725172528467215,000004DE,false,Rx,0,8,00,F1,0A,00,F1,D5,1D,00,
-1725172528466991,000004E2,false,Rx,0,8,66,03,FC,03,00,00,D0,9D,
-1725172528466738,00000542,false,Rx,0,8,6E,0C,00,00,00,00,FF,FF,
-1725172528466498,00000553,false,Rx,0,8,04,00,80,00,00,00,80,00,
-1725172528466254,00000595,false,Rx,0,8,0A,00,B9,B9,00,00,35,0E,
-1725172528466016,0000057F,false,Rx,0,8,80,0A,72,00,00,00,00,72,
-1725172528465778,00000596,false,Rx,0,8,22,76,00,00,2A,00,0A,0C,
-1725172528465538,000002A1,false,Rx,0,8,00,00,00,00,00,00,00,00,
-1725172528465282,00000597,false,Rx,0,8,09,5E,01,00,00,00,00,80,
-1725172528465043,00000200,false,Rx,0,8,00,80,D8,10,00,FB,D0,00,
-1725172528464803,00000598,false,Rx,0,8,00,00,00,00,91,41,F1,12,
-1725172528464565,00000523,false,Rx,0,8,08,38,36,36,33,34,00,01,
-1725172528464312,00000599,false,Rx,0,8,08,80,00,00,00,00,00,80,
-1725172528464074,00000524,false,Rx,0,8,6B,01,00,00,00,00,00,00,
-1725172528463820,0000059C,false,Rx,0,8,00,00,00,00,00,00,00,00,
-1725172528463582,0000059E,false,Rx,0,8,00,00,00,00,35,0E,00,00,
-1725172528463339,000005A3,false,Rx,0,8,0F,00,00,00,C9,7D,2A,62,
-1725172528463101,000005D5,false,Rx,0,8,00,00,00,A0,C8,A0,00,04,
-1725172528462877,000005D6,false,Rx,0,8,B9,B9,00,00,0A,0C,9D,A3,
-1725172528462625,000005D7,false,Rx,0,8,02,A4,00,00,00,00,00,00,
-1725172528462397,000005D8,false,Rx,0,8,A1,6E,04,00,5E,01,35,0E,
-1725172528457636,00000200,false,Rx,0,8,00,80,D8,10,00,3B,D0,00,
-1725172528457394,00000523,false,Rx,0,8,08,38,36,36,33,34,00,01,
-1725172528457140,00000524,false,Rx,0,8,6B,01,00,00,00,00,00,00,
-1725172528447640,00000200,false,Rx,0,8,00,80,D8,10,00,7B,D0,00,
-1725172528447398,00000523,false,Rx,0,8,08,38,36,36,33,34,00,01,
-1725172528447130,00000524,false,Rx,0,8,6B,01,00,00,00,00,00,00,
-1725172528437635,00000200,false,Rx,0,8,00,80,D8,10,00,BB,D0,00,
-1725172528437394,00000523,false,Rx,0,8,08,38,36,36,33,34,00,01,
-1725172528437142,00000524,false,Rx,0,8,6B,01,00,00,00,00,00,00,
-1725172528427633,00000200,false,Rx,0,8,00,80,D8,10,00,FB,D0,00,
-1725172528427390,00000523,false,Rx,0,8,08,38,36,36,33,34,00,01,
-1725172528427135,00000524,false,Rx,0,8,6B,01,00,00,00,00,00,00,
-1725172528417641,00000200,false,Rx,0,8,00,80,D8,10,00,3B,D0,00,
-1725172528417400,00000523,false,Rx,0,8,08,38,36,36,33,34,00,01,
-1725172528417146,00000524,false,Rx,0,8,6B,01,00,00,00,00,00,00,
-1725172528407638,00000200,false,Rx,0,8,00,80,D8,10,00,7B,D0,00,
-1725172528407395,00000523,false,Rx,0,8,08,38,36,36,33,34,00,01,
-1725172528407140,00000524,false,Rx,0,8,6B,01,00,00,00,00,00,00,
-1725172528397639,00000200,false,Rx,0,8,00,80,D8,10,00,BB,D0,00,
-1725172528397398,00000523,false,Rx,0,8,08,38,36,36,33,34,00,01,
-1725172528397145,00000524,false,Rx,0,8,6B,01,00,00,00,00,00,00,
-1725172528387650,00000200,false,Rx,0,8,00,80,D8,10,00,FB,D0,00,
-1725172528387407,00000523,false,Rx,0,8,08,38,36,36,33,34,00,01,
-1725172528387140,00000524,false,Rx,0,8,6B,01,00,00,00,00,00,00,
-1725172528377646,00000200,false,Rx,0,8,00,80,D8,10,00,3B,D0,00,
-1725172528377403,00000523,false,Rx,0,8,08,38,36,36,33,34,00,01,
-1725172528377148,00000524,false,Rx,0,8,6B,01,00,00,00,00,00,00,
-1725172528368200,00000594,false,Rx,0,8,AC,3F,AC,3F,A2,6A,04,20,
-1725172528367947,00000491,false,Rx,0,8,2A,00,00,00,00,00,00,0A,
-1725172528367723,00000493,false,Rx,0,8,40,0B,80,69,72,00,AE,06,
-1725172528367464,000004DD,false,Rx,0,8,00,00,00,00,00,00,00,00,
-1725172528367241,000004DE,false,Rx,0,8,00,F1,0A,00,F1,D5,1D,00,
-1725172528367003,000004E2,false,Rx,0,8,66,03,FC,03,00,00,D0,9D,
-1725172528366766,00000542,false,Rx,0,8,6E,0C,00,00,00,00,FF,FF,
-1725172528366514,00000553,false,Rx,0,8,04,00,80,00,00,00,80,00,
-1725172528366285,00000595,false,Rx,0,8,0A,00,B9,B9,00,00,35,0E,
-1725172528366045,0000057F,false,Rx,0,8,80,0A,72,00,00,00,00,72,
-1725172528365806,00000596,false,Rx,0,8,25,76,00,00,2A,00,0A,0C,
-1725172528365552,000002A1,false,Rx,0,8,00,00,00,00,00,00,00,00,
-1725172528365312,00000597,false,Rx,0,8,89,5E,01,00,00,00,00,80,
-1725172528365072,00000200,false,Rx,0,8,00,80,D8,10,00,7B,D0,00,
-1725172528364819,00000598,false,Rx,0,8,00,00,00,00,91,41,F1,12,
-1725172528364596,00000523,false,Rx,0,8,08,38,36,36,33,34,00,01,
-1725172528364344,00000599,false,Rx,0,8,08,80,00,00,00,00,00,80,
-1725172528364091,00000524,false,Rx,0,8,6B,01,00,00,00,00,00,00,
-1725172528363851,0000059C,false,Rx,0,8,00,00,00,00,00,00,00,00,
-1725172528363597,0000059E,false,Rx,0,8,00,00,00,00,35,0E,00,00,
-1725172528363368,000005A3,false,Rx,0,8,0F,00,00,00,C9,7D,2A,62,
-1725172528363129,000005D5,false,Rx,0,8,00,00,00,A0,C8,A0,00,04,
-1725172528362891,000005D6,false,Rx,0,8,B9,B9,00,00,0A,0C,9D,A3,
-1725172528362654,000005D7,false,Rx,0,8,02,A4,00,00,00,00,00,00,
-1725172528362427,000005D8,false,Rx,0,8,A1,6E,04,00,5E,01,35,0E,
-1725172528357648,00000200,false,Rx,0,8,00,80,D8,10,00,BB,D0,00,
-1725172528357405,00000523,false,Rx,0,8,08,38,36,36,33,34,00,01,
-1725172528357150,00000524,false,Rx,0,8,6B,01,00,00,00,00,00,00,
-1725172528347649,00000200,false,Rx,0,8,00,80,D8,10,00,FB,D0,00,
-1725172528347407,00000523,false,Rx,0,8,08,38,36,36,33,34,00,01,
-1725172528347156,00000524,false,Rx,0,8,6B,01,00,00,00,00,00,00,
-1725172528337645,00000200,false,Rx,0,8,00,80,D8,10,00,3B,D0,00,
-1725172528337404,00000523,false,Rx,0,8,08,38,36,36,33,34,00,01,
-1725172528337151,00000524,false,Rx,0,8,6B,01,00,00,00,00,00,00,
-1725172528327658,00000200,false,Rx,0,8,00,80,D8,10,00,7B,D0,00,
-1725172528327413,00000523,false,Rx,0,8,08,38,36,36,33,34,00,01,
-1725172528327160,00000524,false,Rx,0,8,6B,01,00,00,00,00,00,00,
-1725172528317651,00000200,false,Rx,0,8,00,80,D8,10,00,BB,D0,00,
-1725172528317407,00000523,false,Rx,0,8,08,38,36,36,33,34,00,01,
-1725172528317152,00000524,false,Rx,0,8,6B,01,00,00,00,00,00,00,
-1725172528307660,00000200,false,Rx,0,8,00,80,D8,10,00,FB,D0,00,
-1725172528307416,00000523,false,Rx,0,8,08,38,36,36,33,34,00,01,
-1725172528307161,00000524,false,Rx,0,8,6B,01,00,00,00,00,00,00,
-1725172528297661,00000200,false,Rx,0,8,00,80,D8,10,00,3B,D0,00,
-1725172528297403,00000523,false,Rx,0,8,08,38,36,36,33,34,00,01,
-1725172528297151,00000524,false,Rx,0,8,6B,01,00,00,00,00,00,00,
-1725172528287656,00000200,false,Rx,0,8,00,80,D8,10,00,7B,D0,00,
-1725172528287415,00000523,false,Rx,0,8,08,38,36,36,33,34,00,01,
-1725172528287163,00000524,false,Rx,0,8,6B,01,00,00,00,00,00,00,
-1725172528277652,00000200,false,Rx,0,8,00,80,D8,10,00,BB,D0,00,
-1725172528277409,00000523,false,Rx,0,8,08,38,36,36,33,34,00,01,
-1725172528277154,00000524,false,Rx,0,8,6B,01,00,00,00,00,00,00,
-1725172528268205,00000594,false,Rx,0,8,7A,3F,7A,3F,A2,6A,04,20,
-1725172528267951,00000491,false,Rx,0,8,2A,00,00,00,00,00,00,0A,
-1725172528267729,00000493,false,Rx,0,8,40,0B,80,69,72,00,AE,06,
-1725172528267471,000004DD,false,Rx,0,8,00,00,00,00,00,00,00,00,
-1725172528267248,000004DE,false,Rx,0,8,00,F1,0A,00,F1,D5,1D,00,
-1725172528267008,000004E2,false,Rx,0,8,66,03,FC,03,00,00,D0,9D,
-1725172528266770,00000542,false,Rx,0,8,6E,0C,00,00,00,00,FF,FF,
-1725172528266515,00000553,false,Rx,0,8,04,00,80,00,00,00,80,00,
-1725172528266286,00000595,false,Rx,0,8,0A,00,B9,B9,00,00,35,0E,
-1725172528266048,0000057F,false,Rx,0,8,80,0A,72,00,00,00,00,72,
-1725172528265810,00000596,false,Rx,0,8,2D,76,00,00,2A,00,0A,0C,
-1725172528265556,000002A1,false,Rx,0,8,00,00,00,00,00,00,00,00,
-1725172528265316,00000597,false,Rx,0,8,09,5E,01,00,00,00,00,80,
-1725172528265076,00000200,false,Rx,0,8,00,80,D8,10,00,FB,D0,00,
-1725172528264837,00000598,false,Rx,0,8,00,00,00,00,91,41,F1,12,
-1725172528264599,00000523,false,Rx,0,8,08,38,36,36,33,34,00,01,
-1725172528264354,00000599,false,Rx,0,8,08,80,00,00,00,00,00,80,
-1725172528264101,00000524,false,Rx,0,8,6B,01,00,00,00,00,00,00,
-1725172528263845,0000059C,false,Rx,0,8,00,00,00,00,00,00,00,00,
-1725172528263607,0000059E,false,Rx,0,8,00,00,00,00,35,0E,00,00,
-1725172528263371,000005A3,false,Rx,0,8,0F,00,00,00,C9,7D,2A,62,
-1725172528263133,000005D5,false,Rx,0,8,00,00,00,A0,C8,A0,00,04,
-1725172528262893,000005D6,false,Rx,0,8,B9,B9,00,00,0A,0C,25,5E,
-1725172528262655,000005D7,false,Rx,0,8,02,A4,00,00,00,00,00,00,
-1725172528262412,000005D8,false,Rx,0,8,A1,6E,04,00,5E,01,35,0E,
-1725172528257649,00000200,false,Rx,0,8,00,80,D8,10,00,3B,D0,00,
-1725172528257406,00000523,false,Rx,0,8,08,38,36,36,33,34,00,01,
-1725172528257154,00000524,false,Rx,0,8,6B,01,00,00,00,00,00,00,
-1725172528247668,00000200,false,Rx,0,8,00,80,D8,10,00,7B,D0,00,
-1725172528247410,00000523,false,Rx,0,8,08,38,36,36,33,34,00,01,
-1725172528247158,00000524,false,Rx,0,8,6B,01,00,00,00,00,00,00,
-1725172528237665,00000200,false,Rx,0,8,00,80,D8,10,00,BB,D0,00,
-1725172528237426,00000523,false,Rx,0,8,08,38,36,36,33,34,00,01,
-1725172528237158,00000524,false,Rx,0,8,6B,01,00,00,00,00,00,00,
-1725172528227664,00000200,false,Rx,0,8,00,80,D8,10,00,FB,D0,00,
-1725172528227420,00000523,false,Rx,0,8,08,38,36,36,33,34,00,01,
-1725172528227165,00000524,false,Rx,0,8,6B,01,00,00,00,00,00,00,
-1725172528217672,00000200,false,Rx,0,8,00,80,D8,10,00,3B,D0,00,
-1725172528217428,00000523,false,Rx,0,8,08,38,36,36,33,34,00,01,
-1725172528217174,00000524,false,Rx,0,8,6B,01,00,00,00,00,00,00,
-1725172528207666,00000200,false,Rx,0,8,00,80,D8,10,00,7B,D0,00,
-1725172528207424,00000523,false,Rx,0,8,08,38,36,36,33,34,00,01,
-1725172528207168,00000524,false,Rx,0,8,6B,01,00,00,00,00,00,00,
-1725172528197665,00000200,false,Rx,0,8,00,80,D8,10,00,BB,D0,00,
-1725172528197425,00000523,false,Rx,0,8,08,38,36,36,33,34,00,01,
-1725172528197171,00000524,false,Rx,0,8,6B,01,00,00,00,00,00,00,
-1725172528187663,00000200,false,Rx,0,8,00,80,D8,10,00,FB,D0,00,
-1725172528187422,00000523,false,Rx,0,8,08,38,36,36,33,34,00,01,
-1725172528187169,00000524,false,Rx,0,8,6B,01,00,00,00,00,00,00,
-1725172528177675,00000200,false,Rx,0,8,00,80,D8,10,00,3B,D0,00,
-1725172528177434,00000523,false,Rx,0,8,08,38,36,36,33,34,00,01,
-1725172528177178,00000524,false,Rx,0,8,6B,01,00,00,00,00,00,00,
-1725172528168216,00000594,false,Rx,0,8,48,3F,48,3F,A2,6A,04,20,
-1725172528167977,00000491,false,Rx,0,8,2A,00,00,00,00,00,00,0A,
-1725172528167738,00000493,false,Rx,0,8,40,0B,80,69,72,00,AE,06,
-1725172528167496,000004DD,false,Rx,0,8,00,00,00,00,00,00,00,00,
-1725172528167257,000004DE,false,Rx,0,8,00,F1,0A,00,F1,D5,1D,00,
-1725172528167034,000004E2,false,Rx,0,8,66,03,FC,03,00,00,D0,9D,
-1725172528166779,00000542,false,Rx,0,8,6E,0C,00,00,00,00,FF,FF,
-1725172528166541,00000553,false,Rx,0,8,04,00,80,00,00,00,80,00,
-1725172528166297,00000595,false,Rx,0,8,0A,00,B9,B9,00,00,35,0E,
-1725172528166058,0000057F,false,Rx,0,8,80,0A,72,00,00,00,00,72,
-1725172528165822,00000596,false,Rx,0,8,9D,76,00,00,2A,00,0A,0C,
-1725172528165568,000002A1,false,Rx,0,8,00,00,00,00,00,00,00,00,
-1725172528165342,00000597,false,Rx,0,8,89,5E,01,00,00,00,00,80,
-1725172528165088,00000200,false,Rx,0,8,00,80,D8,10,00,7B,D0,00,
-1725172528164849,00000598,false,Rx,0,8,00,00,00,00,91,41,F1,12,
-1725172528164610,00000523,false,Rx,0,8,08,38,36,36,33,34,00,01,
-1725172528164366,00000599,false,Rx,0,8,08,80,00,00,00,00,00,80,
-1725172528164126,00000524,false,Rx,0,8,6B,01,00,00,00,00,00,00,
-1725172528163873,0000059C,false,Rx,0,8,00,00,00,00,00,00,00,00,
-1725172528163635,0000059E,false,Rx,0,8,00,00,00,00,35,0E,00,00,
-1725172528163392,000005A3,false,Rx,0,8,0F,00,00,00,C9,7D,2A,62,
-1725172528163155,000005D5,false,Rx,0,8,00,00,00,A0,C8,A0,00,04,
-1725172528162917,000005D6,false,Rx,0,8,B9,B9,00,00,0A,0C,25,5E,
-1725172528162679,000005D7,false,Rx,0,8,02,A4,00,00,00,00,00,00,
-1725172528162435,000005D8,false,Rx,0,8,A1,6E,04,00,5E,01,35,0E,
-1725172528157673,00000200,false,Rx,0,8,00,80,D8,10,00,BB,D0,00,
-1725172528157431,00000523,false,Rx,0,8,08,38,36,36,33,34,00,01,
-1725172528157177,00000524,false,Rx,0,8,6B,01,00,00,00,00,00,00,
-1725172528147675,00000200,false,Rx,0,8,00,80,D8,10,00,FB,D0,00,
-1725172528147434,00000523,false,Rx,0,8,08,38,36,36,33,34,00,01,
-1725172528147180,00000524,false,Rx,0,8,6B,01,00,00,00,00,00,00,
-1725172528137673,00000200,false,Rx,0,8,00,80,D8,10,00,3B,D0,00,
-1725172528137432,00000523,false,Rx,0,8,08,38,36,36,33,34,00,01,
-1725172528137178,00000524,false,Rx,0,8,6B,01,00,00,00,00,00,00,
-1725172528127683,00000200,false,Rx,0,8,00,80,D8,10,00,7B,D0,00,
-1725172528127442,00000523,false,Rx,0,8,08,38,36,36,33,34,00,01,
-1725172528127172,00000524,false,Rx,0,8,6B,01,00,00,00,00,00,00,
-1725172528117679,00000200,false,Rx,0,8,00,80,D8,10,00,BB,D0,00,
-1725172528117437,00000523,false,Rx,0,8,08,38,36,36,33,34,00,01,
-1725172528117181,00000524,false,Rx,0,8,6B,01,00,00,00,00,00,00,
-1725172528107674,00000200,false,Rx,0,8,00,80,D8,10,00,FB,D0,00,
-1725172528107431,00000523,false,Rx,0,8,08,38,36,36,33,34,00,01,
-1725172528107178,00000524,false,Rx,0,8,6B,01,00,00,00,00,00,00,
-1725172528097677,00000200,false,Rx,0,8,00,80,D8,10,00,3B,D0,00,
-1725172528097436,00000523,false,Rx,0,8,08,38,36,36,33,34,00,01,
-1725172528097182,00000524,false,Rx,0,8,6B,01,00,00,00,00,00,00,
-1725172528087687,00000200,false,Rx,0,8,00,80,D8,10,00,7B,D0,00,
-1725172528087447,00000523,false,Rx,0,8,08,38,36,36,33,34,00,01,
-1725172528087194,00000524,false,Rx,0,8,6B,01,00,00,00,00,00,00,
-1725172528077684,00000200,false,Rx,0,8,00,80,D8,10,00,BB,D0,00,
-1725172528077441,00000523,false,Rx,0,8,08,38,36,36,33,34,00,01,
-1725172528077185,00000524,false,Rx,0,8,6B,01,00,00,00,00,00,00,
-1725172528068239,00000594,false,Rx,0,8,16,3F,16,3F,A2,6A,04,20,
-1725172528068000,00000491,false,Rx,0,8,2A,00,00,00,00,00,00,0A,
-1725172528067761,00000493,false,Rx,0,8,40,0B,80,69,72,00,AE,06,
-1725172528067517,000004DD,false,Rx,0,8,00,00,00,00,00,00,00,00,
-1725172528067280,000004DE,false,Rx,0,8,00,F1,0A,00,F1,D5,1D,00,
-1725172528067056,000004E2,false,Rx,0,8,66,03,FC,03,00,00,D0,9D,
-1725172528066802,00000542,false,Rx,0,8,6E,0C,00,00,00,00,FF,FF,
-1725172528066564,00000553,false,Rx,0,8,04,00,80,00,00,00,80,00,
-1725172528066321,00000595,false,Rx,0,8,0A,00,B9,B9,00,00,35,0E,
-1725172528066083,0000057F,false,Rx,0,8,80,0A,72,00,00,00,00,72,
-1725172528065846,00000596,false,Rx,0,8,21,76,00,00,2A,00,0A,0C,
-1725172528065591,000002A1,false,Rx,0,8,00,00,00,00,00,00,00,00,
-1725172528065351,00000597,false,Rx,0,8,09,5E,01,00,00,00,00,80,
-1725172528065113,00000200,false,Rx,0,8,00,80,D8,10,00,FB,D0,00,
-1725172528064876,00000598,false,Rx,0,8,00,00,00,00,91,41,F1,12,
-1725172528064636,00000523,false,Rx,0,8,08,38,36,36,33,34,00,01,
-1725172528064392,00000599,false,Rx,0,8,08,80,00,00,00,00,00,80,
-1725172528064138,00000524,false,Rx,0,8,6B,01,00,00,00,00,00,00,
-1725172528063884,0000059C,false,Rx,0,8,00,00,00,00,00,00,00,00,
-1725172528063646,0000059E,false,Rx,0,8,00,00,00,00,35,0E,00,00,
-1725172528063403,000005A3,false,Rx,0,8,0F,00,00,00,C9,7D,2A,62,
-1725172528063165,000005D5,false,Rx,0,8,00,00,00,A0,C8,A0,00,04,
-1725172528062944,000005D6,false,Rx,0,8,B9,B9,00,00,0A,0C,9D,A1,
-1725172528062691,000005D7,false,Rx,0,8,02,A4,00,00,00,00,00,00,
-1725172528062465,000005D8,false,Rx,0,8,A1,6E,04,00,5E,01,35,0E,
-1725172528057688,00000200,false,Rx,0,8,00,80,D8,10,00,3B,D0,00,
-1725172528057446,00000523,false,Rx,0,8,08,38,36,36,33,34,00,01,
-1725172528057190,00000524,false,Rx,0,8,6B,01,00,00,00,00,00,00,
-1725172528047687,00000200,false,Rx,0,8,00,80,D8,10,00,7B,D0,00,
-1725172528047446,00000523,false,Rx,0,8,08,38,36,36,33,34,00,01,
-1725172528047192,00000524,false,Rx,0,8,6B,01,00,00,00,00,00,00,
-1725172528037697,00000200,false,Rx,0,8,00,80,D8,10,00,BB,D0,00,
-1725172528037456,00000523,false,Rx,0,8,08,38,36,36,33,34,00,01,
-1725172528037188,00000524,false,Rx,0,8,6B,01,00,00,00,00,00,00,
-1725172528027692,00000200,false,Rx,0,8,00,80,D8,10,00,FB,D0,00,
-1725172528027450,00000523,false,Rx,0,8,08,38,36,36,33,34,00,01,
-1725172528027194,00000524,false,Rx,0,8,6B,01,00,00,00,00,00,00,
-1725172528017688,00000200,false,Rx,0,8,00,80,D8,10,00,3B,D0,00,
-1725172528017445,00000523,false,Rx,0,8,08,38,36,36,33,34,00,01,
-1725172528017189,00000524,false,Rx,0,8,6B,01,00,00,00,00,00,00,
-1725172528007696,00000200,false,Rx,0,8,00,80,D8,10,00,7B,D0,00,
-1725172528007453,00000523,false,Rx,0,8,08,38,36,36,33,34,00,01,
-1725172528007198,00000524,false,Rx,0,8,6B,01,00,00,00,00,00,00,
-1725172527997697,00000200,false,Rx,0,8,00,80,D8,10,00,BB,D0,00,
-1725172527997443,00000523,false,Rx,0,8,08,38,36,36,33,34,00,01,
-1725172527997190,00000524,false,Rx,0,8,6B,01,00,00,00,00,00,00,
-1725172527987696,00000200,false,Rx,0,8,00,80,D8,10,00,FB,D0,00,
-1725172527987456,00000523,false,Rx,0,8,08,38,36,36,33,34,00,01,
-1725172527987200,00000524,false,Rx,0,8,6B,01,00,00,00,00,00,00,
-1725172527977451,00000523,false,Rx,0,8,08,38,36,36,33,34,00,01,
-1725172527977192,00000524,false,Rx,0,8,6B,01,00,00,00,00,00,00,
-1725172527977693,00000200,false,Rx,0,8,00,80,D8,10,00,3B,D0,00,
-1725172527967993,000003F6,false,Rx,0,8,18,00,00,00,00,00,00,00,
-1725172527967516,00000493,false,Rx,0,8,40,0B,80,69,72,00,AE,06,
-1725172527967271,00000497,false,Rx,0,8,22,00,00,00,00,00,00,00,
-1725172527967028,00000498,false,Rx,0,8,00,00,00,00,00,00,00,00,
-1725172527966747,000004DD,false,Rx,0,8,00,00,00,00,00,00,00,00,
-1725172527966545,000004DE,false,Rx,0,8,00,F1,0A,00,F1,D5,1D,00,
-1725172527966315,000004E2,false,Rx,0,8,66,03,FC,03,00,00,D0,9D,
-1725172527966070,00000542,false,Rx,0,8,6E,0C,00,00,00,00,FF,FF,
-1725172527968247,00000594,false,Rx,0,8,E4,3E,E4,3E,A2,6A,04,20,
-1725172527967750,00000491,false,Rx,0,8,2A,00,00,00,00,00,00,0A,
-1725172527965816,00000553,false,Rx,0,8,04,00,80,00,00,00,80,00,
-1725172527965578,00000595,false,Rx,0,8,0A,00,B9,B9,00,00,35,0E,
-1725172527965351,0000057F,false,Rx,0,8,80,0A,72,00,00,00,00,72,
-1725172527965114,00000596,false,Rx,0,8,22,76,00,00,2A,00,0A,0C,
-1725172527964859,000002A1,false,Rx,0,8,00,00,00,00,00,00,00,00,
-1725172527964622,00000597,false,Rx,0,8,89,5E,01,00,00,00,00,80,
-1725172527964369,00000200,false,Rx,0,8,00,80,D8,10,00,7B,D0,00,
-1725172527964129,00000598,false,Rx,0,8,00,00,00,00,91,41,F1,12,
-1725172527963892,00000523,false,Rx,0,8,08,38,36,36,33,34,00,01,
-1725172527963653,00000599,false,Rx,0,8,08,80,00,00,00,00,00,80,
-1725172527963409,00000524,false,Rx,0,8,6B,01,00,00,00,00,00,00,
-1725172527963155,0000059C,false,Rx,0,8,00,00,00,00,00,00,00,00,
-1725172527962915,0000059E,false,Rx,0,8,00,00,00,00,35,0E,00,00,
-1725172527962677,000005A3,false,Rx,0,8,0F,00,00,00,C9,7D,2A,62,
-1725172527962435,000005D5,false,Rx,0,8,00,00,00,A0,C8,A0,00,04,
-1725172527962197,000005D6,false,Rx,0,8,B9,B9,00,00,0A,0C,9D,A1,
-1725172527961961,000005D7,false,Rx,0,8,02,A4,00,00,00,00,00,00,
-1725172527961722,000005D8,false,Rx,0,8,A1,6E,04,00,5E,01,35,0E,
-1725172527957694,00000200,false,Rx,0,8,00,80,D8,10,00,BB,D0,00,
-1725172527957451,00000523,false,Rx,0,8,08,38,36,36,33,34,00,01,
-1725172527957195,00000524,false,Rx,0,8,6B,01,00,00,00,00,00,00,
-1725172527951697,000007E4,false,Rx,0,8,03,22,01,02,00,00,00,00,
-1725172527947690,00000200,false,Rx,0,8,00,80,D8,10,00,FB,D0,00,
-1725172527947450,00000523,false,Rx,0,8,08,38,36,36,33,34,00,01,
-1725172527947198,00000524,false,Rx,0,8,6B,01,00,00,00,00,00,00,
-1725172527941650,000007EC,false,Rx,0,8,10,27,62,01,02,FF,FF,FF,
-1725172527940696,000007E4,false,Rx,0,8,30,00,00,00,00,00,00,00,
-1725172527937694,00000200,false,Rx,0,8,00,80,D8,10,00,3B,D0,00,
-1725172527937453,00000523,false,Rx,0,8,08,38,36,36,33,34,00,01,
-1725172527937198,00000524,false,Rx,0,8,6B,01,00,00,00,00,00,00,
-1725172527931665,000007EC,false,Rx,0,8,21,FF,B9,B9,B9,B9,B9,B9,
-1725172527927698,00000200,false,Rx,0,8,00,80,D8,10,00,7B,D0,00,
-1725172527927456,00000523,false,Rx,0,8,08,38,36,36,33,34,00,01,
-1725172527927200,00000524,false,Rx,0,8,6B,01,00,00,00,00,00,00,
-1725172527921672,000007EC,false,Rx,0,8,22,B9,B9,B9,B9,B9,B9,B9,
-1725172527917705,00000200,false,Rx,0,8,00,80,D8,10,00,BB,D0,00,
-1725172527917446,00000523,false,Rx,0,8,08,38,36,36,33,34,00,01,
-1725172527917191,00000524,false,Rx,0,8,6B,01,00,00,00,00,00,00,
-1725172527911677,000007EC,false,Rx,0,8,23,B9,B9,B9,B9,B9,B9,B9,
-1725172527907696,00000200,false,Rx,0,8,00,80,D8,10,00,FB,D0,00,
-1725172527907454,00000523,false,Rx,0,8,08,38,36,36,33,34,00,01,
-1725172527907201,00000524,false,Rx,0,8,6B,01,00,00,00,00,00,00,
-1725172527901675,000007EC,false,Rx,0,8,24,B9,B9,B9,B9,B9,B9,B9,
-1725172527897694,00000200,false,Rx,0,8,00,80,D8,10,00,3B,D0,00,
-1725172527897454,00000523,false,Rx,0,8,08,38,36,36,33,34,00,01,
-1725172527897200,00000524,false,Rx,0,8,6B,01,00,00,00,00,00,00,
-1725172527891668,000007EC,false,Rx,0,8,25,B9,B9,B9,B9,B9,AA,AA,
-1725172527887702,00000200,false,Rx,0,8,00,80,D8,10,00,7B,D0,00,
-1725172527887461,00000523,false,Rx,0,8,08,38,36,36,33,34,00,01,
-1725172527887208,00000524,false,Rx,0,8,6B,01,00,00,00,00,00,00,
-1725172527877699,00000200,false,Rx,0,8,00,80,D8,10,00,BB,D0,00,
-1725172527877457,00000523,false,Rx,0,8,08,38,36,36,33,34,00,01,
-1725172527877201,00000524,false,Rx,0,8,6B,01,00,00,00,00,00,00,
-1725172527868255,00000594,false,Rx,0,8,B2,3E,B2,3E,A2,6A,04,20,
-1725172527868002,00000491,false,Rx,0,8,2A,00,00,00,00,00,00,0A,
-1725172527867778,00000493,false,Rx,0,8,40,0B,80,69,72,00,AE,06,
-1725172527867519,000004DD,false,Rx,0,8,00,00,00,00,00,00,00,00,
-1725172527867296,000004DE,false,Rx,0,8,00,F1,0A,00,F1,D5,1D,00,
-1725172527867058,000004E2,false,Rx,0,8,66,03,FC,03,00,00,D0,9D,
-1725172527866820,00000542,false,Rx,0,8,6E,0C,00,00,00,00,FF,FF,
-1725172527866566,00000553,false,Rx,0,8,04,00,80,00,00,00,80,00,
-1725172527866337,00000595,false,Rx,0,8,0A,00,B9,B9,00,00,35,0E,
-1725172527866098,0000057F,false,Rx,0,8,80,0A,72,00,00,00,00,72,
-1725172527865858,00000596,false,Rx,0,8,25,76,00,00,2A,00,0A,0C,
-1725172527865604,000002A1,false,Rx,0,8,00,00,00,00,00,00,00,00,
-1725172527865364,00000597,false,Rx,0,8,09,5E,01,00,00,00,00,80,
-1725172527865112,00000200,false,Rx,0,8,00,80,D8,10,00,FB,D0,00,
-1725172527864874,00000598,false,Rx,0,8,00,00,00,00,91,41,F1,12,
-1725172527864635,00000523,false,Rx,0,8,08,38,36,36,33,34,00,01,
-1725172527864398,00000599,false,Rx,0,8,08,80,00,00,00,00,00,80,
-1725172527864144,00000524,false,Rx,0,8,6B,01,00,00,00,00,00,00,
-1725172527863889,0000059C,false,Rx,0,8,00,00,00,00,00,00,00,00,
-1725172527863651,0000059E,false,Rx,0,8,00,00,00,00,35,0E,00,00,
-1725172527863414,000005A3,false,Rx,0,8,0F,00,00,00,C9,7D,2A,62,
-1725172527863176,000005D5,false,Rx,0,8,00,00,00,A0,C8,A0,00,04,
-1725172527862938,000005D6,false,Rx,0,8,B9,B9,00,00,0A,0C,22,60,
-1725172527862700,000005D7,false,Rx,0,8,02,A4,00,00,00,00,00,00,
-1725172527862459,000005D8,false,Rx,0,8,A1,6E,04,00,5E,01,35,0E,
-1725172527857696,00000200,false,Rx,0,8,00,80,D8,10,00,3B,D0,00,
-1725172527857453,00000523,false,Rx,0,8,08,38,36,36,33,34,00,01,
-1725172527857201,00000524,false,Rx,0,8,6B,01,00,00,00,00,00,00,
-1725172527847707,00000200,false,Rx,0,8,00,80,D8,10,00,7B,D0,00,
-1725172527847468,00000523,false,Rx,0,8,08,38,36,36,33,34,00,01,
-1725172527847200,00000524,false,Rx,0,8,6B,01,00,00,00,00,00,00,
-1725172527837706,00000200,false,Rx,0,8,00,80,D8,10,00,BB,D0,00,
-1725172527837465,00000523,false,Rx,0,8,08,38,36,36,33,34,00,01,
-1725172527837210,00000524,false,Rx,0,8,6B,01,00,00,00,00,00,00,
-1725172527827701,00000200,false,Rx,0,8,00,80,D8,10,00,FB,D0,00,
-1725172527827459,00000523,false,Rx,0,8,08,38,36,36,33,34,00,01,
-1725172527827203,00000524,false,Rx,0,8,6B,01,00,00,00,00,00,00,
-1725172527817695,00000200,false,Rx,0,8,00,80,D8,10,00,3B,D0,00,
-1725172527817453,00000523,false,Rx,0,8,08,38,36,36,33,34,00,01,
-1725172527817199,00000524,false,Rx,0,8,6B,01,00,00,00,00,00,00,
-1725172527807711,00000200,false,Rx,0,8,00,80,D8,10,00,7B,D0,00,
-1725172527807469,00000523,false,Rx,0,8,08,38,36,36,33,34,00,01,
-1725172527807201,00000524,false,Rx,0,8,6B,01,00,00,00,00,00,00,
-1725172527797707,00000200,false,Rx,0,8,00,80,D8,10,00,BB,D0,00,
-1725172527797453,00000523,false,Rx,0,8,08,38,36,36,33,34,00,01,
-1725172527797200,00000524,false,Rx,0,8,6B,01,00,00,00,00,00,00,
-1725172527787706,00000200,false,Rx,0,8,00,80,D8,10,00,FB,D0,00,
-1725172527787464,00000523,false,Rx,0,8,08,38,36,36,33,34,00,01,
-1725172527787200,00000524,false,Rx,0,8,6B,01,00,00,00,00,00,00,
-1725172527777707,00000200,false,Rx,0,8,00,80,D8,10,00,3B,D0,00,
-1725172527777465,00000523,false,Rx,0,8,08,38,36,36,33,34,00,01,
-1725172527777209,00000524,false,Rx,0,8,6B,01,00,00,00,00,00,00,
-1725172527768245,00000594,false,Rx,0,8,80,3E,80,3E,A2,6A,04,20,
-1725172527768007,00000491,false,Rx,0,8,2A,00,00,00,00,00,00,0A,
-1725172527767769,00000493,false,Rx,0,8,40,0B,80,69,72,00,AE,06,
-1725172527767527,000004DD,false,Rx,0,8,00,00,00,00,00,00,00,00,
-1725172527767303,000004DE,false,Rx,0,8,00,F1,0A,00,F1,D5,1D,00,
-1725172527767066,000004E2,false,Rx,0,8,66,03,FC,03,00,00,D0,9D,
-1725172527766811,00000542,false,Rx,0,8,6E,0C,00,00,00,00,FF,FF,
-1725172527766575,00000553,false,Rx,0,8,04,00,80,00,00,00,80,00,
-1725172527766331,00000595,false,Rx,0,8,0A,00,B9,B9,00,00,35,0E,
-1725172527766092,0000057F,false,Rx,0,8,80,0A,72,00,00,00,00,72,
-1725172527765852,00000596,false,Rx,0,8,2D,76,00,00,2A,00,0A,0C,
-1725172527765599,000002A1,false,Rx,0,8,00,00,00,00,00,00,00,00,
-1725172527765372,00000597,false,Rx,0,8,89,5E,01,00,00,00,00,80,
-1725172527765117,00000200,false,Rx,0,8,00,80,D8,10,00,7B,D0,00,
-1725172527764878,00000598,false,Rx,0,8,00,00,00,00,91,41,F1,12,
-1725172527764655,00000523,false,Rx,0,8,08,38,36,36,33,34,00,01,
-1725172527764397,00000599,false,Rx,0,8,08,80,00,00,00,00,00,80,
-1725172527764157,00000524,false,Rx,0,8,6B,01,00,00,00,00,00,00,
-1725172527763902,0000059C,false,Rx,0,8,00,00,00,00,00,00,00,00,
-1725172527763664,0000059E,false,Rx,0,8,00,00,00,00,35,0E,00,00,
-1725172527763421,000005A3,false,Rx,0,8,0F,00,00,00,C9,7D,2A,62,
-1725172527763184,000005D5,false,Rx,0,8,00,00,00,A0,C8,A0,00,04,
-1725172527762947,000005D6,false,Rx,0,8,B9,B9,00,00,0A,0C,22,60,
-1725172527762709,000005D7,false,Rx,0,8,02,A4,00,00,00,00,00,00,
-1725172527762467,000005D8,false,Rx,0,8,A1,6E,04,00,5E,01,35,0E,
-1725172527757695,00000200,false,Rx,0,8,00,80,D8,10,00,BB,D0,00,
-1725172527757455,00000523,false,Rx,0,8,08,38,36,36,33,34,00,01,
-1725172527757201,00000524,false,Rx,0,8,6B,01,00,00,00,00,00,00,
-1725172527747467,00000523,false,Rx,0,8,08,38,36,36,33,34,00,01,
-1725172527747210,00000524,false,Rx,0,8,6B,01,00,00,00,00,00,00,
-1725172527747707,00000200,false,Rx,0,8,00,80,D8,10,00,FB,D0,00,
-1725172527737458,00000523,false,Rx,0,8,08,38,36,36,33,34,00,01,
-1725172527737214,00000524,false,Rx,0,8,6B,01,00,00,00,00,00,00,
-1725172527737700,00000200,false,Rx,0,8,00,80,D8,10,00,3B,D0,00,
-1725172527727459,00000523,false,Rx,0,8,08,38,36,36,33,34,00,01,
-1725172527727702,00000200,false,Rx,0,8,00,80,D8,10,00,7B,D0,00,
-1725172527727205,00000524,false,Rx,0,8,6B,01,00,00,00,00,00,00,
-1725172527717713,00000200,false,Rx,0,8,00,80,D8,10,00,BB,D0,00,
-1725172527717472,00000523,false,Rx,0,8,08,38,36,36,33,34,00,01,
-1725172527717217,00000524,false,Rx,0,8,6B,01,00,00,00,00,00,00,
-1725172527707714,00000200,false,Rx,0,8,00,80,D8,10,00,FB,D0,00,
-1725172527707459,00000523,false,Rx,0,8,08,38,36,36,33,34,00,01,
-1725172527707203,00000524,false,Rx,0,8,6B,01,00,00,00,00,00,00,
-1725172527697715,00000200,false,Rx,0,8,00,80,D8,10,00,3B,D0,00,
-1725172527697458,00000523,false,Rx,0,8,08,38,36,36,33,34,00,01,
-1725172527697206,00000524,false,Rx,0,8,6B,01,00,00,00,00,00,00,
-1725172527687712,00000200,false,Rx,0,8,00,80,D8,10,00,7B,D0,00,
-1725172527687469,00000523,false,Rx,0,8,08,38,36,36,33,34,00,01,
-1725172527687215,00000524,false,Rx,0,8,6B,01,00,00,00,00,00,00,
-1725172527686945,00000110,false,Rx,0,8,01,90,00,00,00,00,00,00,
-1725172527677704,00000200,false,Rx,0,8,00,80,D8,10,00,BB,D0,00,
-1725172527677462,00000523,false,Rx,0,8,08,38,36,36,33,34,00,01,
-1725172527677206,00000524,false,Rx,0,8,6B,01,00,00,00,00,00,00,
-1725172527668261,00000594,false,Rx,0,8,4E,3E,4E,3E,A2,6A,04,20,
-1725172527668007,00000491,false,Rx,0,8,2A,00,00,00,00,00,00,0A,
-1725172527667786,00000493,false,Rx,0,8,40,0B,80,69,72,00,AE,06,
-1725172527667528,000004DD,false,Rx,0,8,00,00,00,00,00,00,00,00,
-1725172527667304,000004DE,false,Rx,0,8,00,F1,0A,00,F1,D5,1D,00,
-1725172527667066,000004E2,false,Rx,0,8,66,03,FC,03,00,00,D0,9D,
-1725172527666827,00000542,false,Rx,0,8,6E,0C,00,00,00,00,FF,FF,
-1725172527666573,00000553,false,Rx,0,8,04,00,80,00,00,00,80,00,
-1725172527666344,00000595,false,Rx,0,8,0A,00,B9,B9,00,00,35,0E,
-1725172527666105,0000057F,false,Rx,0,8,80,0A,72,00,00,00,00,72,
-1725172527665867,00000596,false,Rx,0,8,83,76,00,00,2A,00,0A,0C,
-1725172527665613,000002A1,false,Rx,0,8,00,00,00,00,00,00,00,00,
-1725172527665372,00000597,false,Rx,0,8,09,5E,01,00,00,00,00,80,
-1725172527665119,00000200,false,Rx,0,8,00,80,D8,10,00,FB,D0,00,
-1725172527664879,00000598,false,Rx,0,8,00,00,00,00,91,41,F1,12,
-1725172527664641,00000523,false,Rx,0,8,08,38,36,36,33,34,00,01,
-1725172527664404,00000599,false,Rx,0,8,08,80,00,00,00,00,00,80,
-1725172527664150,00000524,false,Rx,0,8,6B,01,00,00,00,00,00,00,
-1725172527663895,0000059C,false,Rx,0,8,00,00,00,00,00,00,00,00,
-1725172527663657,0000059E,false,Rx,0,8,00,00,00,00,35,0E,00,00,
-1725172527663420,000005A3,false,Rx,0,8,0F,00,00,00,C9,7D,2A,62,
-1725172527663182,000005D5,false,Rx,0,8,00,00,00,A0,C8,A0,00,04,
-1725172527662945,000005D6,false,Rx,0,8,B9,B9,00,00,0A,0C,2D,9F,
-1725172527662707,000005D7,false,Rx,0,8,02,A4,00,00,00,00,00,00,
-1725172527662480,000005D8,false,Rx,0,8,A1,6E,04,00,5E,01,35,0E,
-1725172527657708,00000200,false,Rx,0,8,00,80,D8,10,00,3B,D0,00,
-1725172527657468,00000523,false,Rx,0,8,08,38,36,36,33,34,00,01,
-1725172527657214,00000524,false,Rx,0,8,6B,01,00,00,00,00,00,00,
-1725172527647703,00000200,false,Rx,0,8,00,80,D8,10,00,7B,D0,00,
-1725172527647463,00000523,false,Rx,0,8,08,38,36,36,33,34,00,01,
-1725172527647209,00000524,false,Rx,0,8,6B,01,00,00,00,00,00,00,
-1725172527637714,00000200,false,Rx,0,8,00,80,D8,10,00,BB,D0,00,
-1725172527637471,00000523,false,Rx,0,8,08,38,36,36,33,34,00,01,
-1725172527637217,00000524,false,Rx,0,8,6B,01,00,00,00,00,00,00,
-1725172527627708,00000200,false,Rx,0,8,00,80,D8,10,00,FB,D0,00,
-1725172527627466,00000523,false,Rx,0,8,08,38,36,36,33,34,00,01,
-1725172527627210,00000524,false,Rx,0,8,6B,01,00,00,00,00,00,00,
-1725172527617717,00000200,false,Rx,0,8,00,80,D8,10,00,3B,D0,00,
-1725172527617461,00000523,false,Rx,0,8,08,38,36,36,33,34,00,01,
-1725172527617206,00000524,false,Rx,0,8,6B,01,00,00,00,00,00,00,
-1725172527607721,00000200,false,Rx,0,8,00,80,D8,10,00,7B,D0,00,
-1725172527607480,00000523,false,Rx,0,8,08,38,36,36,33,34,00,01,
-1725172527607212,00000524,false,Rx,0,8,6B,01,00,00,00,00,00,00,
-1725172527597718,00000200,false,Rx,0,8,00,80,D8,10,00,BB,D0,00,
-1725172527597463,00000523,false,Rx,0,8,08,38,36,36,33,34,00,01,
-1725172527597212,00000524,false,Rx,0,8,6B,01,00,00,00,00,00,00,
-1725172527587718,00000200,false,Rx,0,8,00,80,D8,10,00,FB,D0,00,
-1725172527587477,00000523,false,Rx,0,8,08,38,36,36,33,34,00,01,
-1725172527587207,00000524,false,Rx,0,8,6B,01,00,00,00,00,00,00,
-1725172527577714,00000200,false,Rx,0,8,00,80,D8,10,00,3B,D0,00,
-1725172527577472,00000523,false,Rx,0,8,08,38,36,36,33,34,00,01,
-1725172527577216,00000524,false,Rx,0,8,6B,01,00,00,00,00,00,00,
-1725172527568270,00000594,false,Rx,0,8,1C,3E,1C,3E,A2,6A,04,20,
-1725172527568016,00000491,false,Rx,0,8,2A,00,00,00,00,00,00,0A,
-1725172527567792,00000493,false,Rx,0,8,40,0B,80,69,72,00,AE,06,
-1725172527567534,000004DD,false,Rx,0,8,00,00,00,00,00,00,00,00,
-1725172527567311,000004DE,false,Rx,0,8,00,F1,0A,00,F1,D5,1D,00,
-1725172527567071,000004E2,false,Rx,0,8,66,03,FC,03,00,00,D0,9D,
-1725172527566833,00000542,false,Rx,0,8,6E,0C,00,00,00,00,FF,FF,
-1725172527566579,00000553,false,Rx,0,8,04,00,80,00,00,00,80,00,
-1725172527566351,00000595,false,Rx,0,8,0A,00,B9,B9,00,00,35,0E,
-1725172527566111,0000057F,false,Rx,0,8,80,0A,72,00,00,00,00,72,
-1725172527565872,00000596,false,Rx,0,8,9D,76,00,00,2A,00,0A,0C,
-1725172527565617,000002A1,false,Rx,0,8,00,00,00,00,00,00,00,00,
-1725172527565376,00000597,false,Rx,0,8,89,5E,01,00,00,00,00,80,
-1725172527565137,00000200,false,Rx,0,8,00,80,D8,10,00,7B,D0,00,
-1725172527564899,00000598,false,Rx,0,8,00,00,00,00,91,41,F1,12,
-1725172527564660,00000523,false,Rx,0,8,08,38,36,36,33,34,00,01,
-1725172527564409,00000599,false,Rx,0,8,08,80,00,00,00,00,00,80,
-1725172527564169,00000524,false,Rx,0,8,6B,01,00,00,00,00,00,00,
-1725172527563915,0000059C,false,Rx,0,8,00,00,00,00,00,00,00,00,
-1725172527563676,0000059E,false,Rx,0,8,00,00,00,00,35,0E,00,00,
-1725172527563449,000005A3,false,Rx,0,8,0F,00,00,00,C9,7D,2A,62,
-1725172527563195,000005D5,false,Rx,0,8,00,00,00,A0,C8,A0,00,04,
-1725172527562972,000005D6,false,Rx,0,8,B9,B9,00,00,0A,0C,2D,9F,
-1725172527562717,000005D7,false,Rx,0,8,02,A4,00,00,00,00,00,00,
-1725172527562491,000005D8,false,Rx,0,8,A1,6E,04,00,5E,01,35,0E,
-1725172527557720,00000200,false,Rx,0,8,00,80,D8,10,00,BB,D0,00,
-1725172527557479,00000523,false,Rx,0,8,08,38,36,36,33,34,00,01,
-1725172527557227,00000524,false,Rx,0,8,6B,01,00,00,00,00,00,00,
-1725172527547716,00000200,false,Rx,0,8,00,80,D8,10,00,FB,D0,00,
-1725172527547476,00000523,false,Rx,0,8,08,38,36,36,33,34,00,01,
-1725172527547222,00000524,false,Rx,0,8,6B,01,00,00,00,00,00,00,
-1725172527537711,00000200,false,Rx,0,8,00,80,D8,10,00,3B,D0,00,
-1725172527537469,00000523,false,Rx,0,8,08,38,36,36,33,34,00,01,
-1725172527537215,00000524,false,Rx,0,8,6B,01,00,00,00,00,00,00,
-1725172527527723,00000200,false,Rx,0,8,00,80,D8,10,00,7B,D0,00,
-1725172527527481,00000523,false,Rx,0,8,08,38,36,36,33,34,00,01,
-1725172527527227,00000524,false,Rx,0,8,6B,01,00,00,00,00,00,00,
-1725172527517719,00000200,false,Rx,0,8,00,80,D8,10,00,BB,D0,00,
-1725172527517477,00000523,false,Rx,0,8,08,38,36,36,33,34,00,01,
-1725172527517221,00000524,false,Rx,0,8,6B,01,00,00,00,00,00,00,
-1725172527507719,00000200,false,Rx,0,8,00,80,D8,10,00,FB,D0,00,
-1725172527507478,00000523,false,Rx,0,8,08,38,36,36,33,34,00,01,
-1725172527507225,00000524,false,Rx,0,8,6B,01,00,00,00,00,00,00,
-1725172527497731,00000200,false,Rx,0,8,00,80,D8,10,00,3B,D0,00,
-1725172527497474,00000523,false,Rx,0,8,08,38,36,36,33,34,00,01,
-1725172527497222,00000524,false,Rx,0,8,6B,01,00,00,00,00,00,00,
-1725172527487713,00000200,false,Rx,0,8,00,80,D8,10,00,7B,D0,00,
-1725172527487485,00000523,false,Rx,0,8,08,38,36,36,33,34,00,01,
-1725172527487230,00000524,false,Rx,0,8,6B,01,00,00,00,00,00,00,
-1725172527477722,00000200,false,Rx,0,8,00,80,D8,10,00,BB,D0,00,
-1725172527477224,00000524,false,Rx,0,8,6B,01,00,00,00,00,00,00,
-1725172527477480,00000523,false,Rx,0,8,08,38,36,36,33,34,00,01,
-1725172527468292,00000594,false,Rx,0,8,EA,3D,EA,3D,A2,6A,04,20,
-1725172527468038,00000491,false,Rx,0,8,2A,00,00,00,00,00,00,0A,
-1725172527467800,00000493,false,Rx,0,8,40,0B,80,69,72,00,AE,06,
-1725172527467556,000004DD,false,Rx,0,8,00,00,00,00,00,00,00,00,
-1725172527467334,000004DE,false,Rx,0,8,00,F1,0A,00,F1,D5,1D,00,
-1725172527467095,000004E2,false,Rx,0,8,66,03,FC,03,00,00,D0,9D,
-1725172527466855,00000542,false,Rx,0,8,6E,0C,00,00,00,00,FF,FF,
-1725172527466600,00000553,false,Rx,0,8,04,00,80,00,00,00,80,00,
-1725172527466373,00000595,false,Rx,0,8,0A,00,B9,B9,00,00,35,0E,
-1725172527466135,0000057F,false,Rx,0,8,80,0A,72,00,00,00,00,72,
-1725172527465896,00000596,false,Rx,0,8,21,76,00,00,2A,00,0A,0C,
-1725172527465641,000002A1,false,Rx,0,8,00,00,00,00,00,00,00,00,
-1725172527465402,00000597,false,Rx,0,8,09,5E,01,00,00,00,00,80,
-1725172527465149,00000200,false,Rx,0,8,00,80,D8,10,00,FB,D0,00,
-1725172527464912,00000598,false,Rx,0,8,00,00,00,00,91,41,F1,12,
-1725172527464674,00000523,false,Rx,0,8,08,38,36,36,33,34,00,01,
-1725172527464422,00000599,false,Rx,0,8,08,80,00,00,00,00,00,80,
-1725172527464184,00000524,false,Rx,0,8,6B,01,00,00,00,00,00,00,
-1725172527463930,0000059C,false,Rx,0,8,00,00,00,00,00,00,00,00,
-1725172527463692,0000059E,false,Rx,0,8,00,00,00,00,35,0E,00,00,
-1725172527463451,000005A3,false,Rx,0,8,0F,00,00,00,C9,7D,2A,62,
-1725172527463211,000005D5,false,Rx,0,8,00,00,00,A0,C8,A0,00,04,
-1725172527462988,000005D6,false,Rx,0,8,B9,B9,00,00,0A,0C,9D,62,
-1725172527462734,000005D7,false,Rx,0,8,02,A4,00,00,00,00,00,00,
-1725172527462508,000005D8,false,Rx,0,8,A1,6E,04,00,5E,01,35,0E,
-1725172527457719,00000200,false,Rx,0,8,00,80,D8,10,00,3B,D0,00,
-1725172527457478,00000523,false,Rx,0,8,08,38,36,36,33,34,00,01,
-1725172527457224,00000524,false,Rx,0,8,6B,01,00,00,00,00,00,00,
-1725172527447729,00000200,false,Rx,0,8,00,80,D8,10,00,7B,D0,00,
-1725172527447489,00000523,false,Rx,0,8,08,38,36,36,33,34,00,01,
-1725172527447236,00000524,false,Rx,0,8,6B,01,00,00,00,00,00,00,
-1725172527437727,00000200,false,Rx,0,8,00,80,D8,10,00,BB,D0,00,
-1725172527437484,00000523,false,Rx,0,8,08,38,36,36,33,34,00,01,
-1725172527437228,00000524,false,Rx,0,8,6B,01,00,00,00,00,00,00,
-1725172527427721,00000200,false,Rx,0,8,00,80,D8,10,00,FB,D0,00,
-1725172527427478,00000523,false,Rx,0,8,08,38,36,36,33,34,00,01,
-1725172527427225,00000524,false,Rx,0,8,6B,01,00,00,00,00,00,00,
-1725172527417733,00000200,false,Rx,0,8,00,80,D8,10,00,3B,D0,00,
-1725172527417492,00000523,false,Rx,0,8,08,38,36,36,33,34,00,01,
-1725172527417222,00000524,false,Rx,0,8,6B,01,00,00,00,00,00,00,
-1725172527407736,00000200,false,Rx,0,8,00,80,D8,10,00,7B,D0,00,
-1725172527407497,00000523,false,Rx,0,8,08,38,36,36,33,34,00,01,
-1725172527407229,00000524,false,Rx,0,8,6B,01,00,00,00,00,00,00,
-1725172527397735,00000200,false,Rx,0,8,00,80,D8,10,00,BB,D0,00,
-1725172527397494,00000523,false,Rx,0,8,08,38,36,36,33,34,00,01,
-1725172527397227,00000524,false,Rx,0,8,6B,01,00,00,00,00,00,00,
-1725172527387733,00000200,false,Rx,0,8,00,80,D8,10,00,FB,D0,00,
-1725172527387490,00000523,false,Rx,0,8,08,38,36,36,33,34,00,01,
-1725172527387234,00000524,false,Rx,0,8,6B,01,00,00,00,00,00,00,
-1725172527377740,00000200,false,Rx,0,8,00,80,D8,10,00,3B,D0,00,
-1725172527377500,00000523,false,Rx,0,8,08,38,36,36,33,34,00,01,
-1725172527377229,00000524,false,Rx,0,8,6B,01,00,00,00,00,00,00,
-1725172527368281,00000594,false,Rx,0,8,B8,3D,B8,3D,A2,6A,04,20,
-1725172527368043,00000491,false,Rx,0,8,2A,00,00,00,00,00,00,0A,
-1725172527367805,00000493,false,Rx,0,8,40,0B,80,69,72,00,AE,06,
-1725172527367561,000004DD,false,Rx,0,8,00,00,00,00,00,00,00,00,
-1725172527367338,000004DE,false,Rx,0,8,00,F1,0A,00,F1,D5,1D,00,
-1725172527367100,000004E2,false,Rx,0,8,66,03,FC,03,00,00,D0,9D,
-1725172527366847,00000542,false,Rx,0,8,6E,0C,00,00,00,00,FF,FF,
-1725172527366609,00000553,false,Rx,0,8,04,00,80,00,00,00,80,00,
-1725172527366366,00000595,false,Rx,0,8,0A,00,B9,B9,00,00,35,0E,
-1725172527366128,0000057F,false,Rx,0,8,80,0A,72,00,00,00,00,72,
-1725172527365888,00000596,false,Rx,0,8,22,76,00,00,2A,00,0A,0C,
-1725172527365633,000002A1,false,Rx,0,8,00,00,00,00,00,00,00,00,
-1725172527365409,00000597,false,Rx,0,8,89,5E,01,00,00,00,00,80,
-1725172527365155,00000200,false,Rx,0,8,00,80,D8,10,00,7B,D0,00,
-1725172527364917,00000598,false,Rx,0,8,00,00,00,00,91,41,F1,12,
-1725172527364679,00000523,false,Rx,0,8,08,38,36,36,33,34,00,01,
-1725172527364428,00000599,false,Rx,0,8,08,80,00,00,00,00,00,80,
-1725172527364189,00000524,false,Rx,0,8,6B,01,00,00,00,00,00,00,
-1725172527363935,0000059C,false,Rx,0,8,00,00,00,00,00,00,00,00,
-1725172527363697,0000059E,false,Rx,0,8,00,00,00,00,35,0E,00,00,
-1725172527363455,000005A3,false,Rx,0,8,0F,00,00,00,C9,7D,2A,62,
-1725172527363217,000005D5,false,Rx,0,8,00,00,00,A0,C8,A0,00,04,
-1725172527362993,000005D6,false,Rx,0,8,B9,B9,00,00,0A,0C,9D,62,
-1725172527362738,000005D7,false,Rx,0,8,02,A4,00,00,00,00,00,00,
-1725172527362511,000005D8,false,Rx,0,8,A1,6E,04,00,5E,01,35,0E,
-1725172527357738,00000200,false,Rx,0,8,00,80,D8,10,00,BB,D0,00,
-1725172527357483,00000523,false,Rx,0,8,08,38,36,36,33,34,00,01,
-1725172527357231,00000524,false,Rx,0,8,6B,01,00,00,00,00,00,00,
-1725172527347737,00000200,false,Rx,0,8,00,80,D8,10,00,FB,D0,00,
-1725172527347497,00000523,false,Rx,0,8,08,38,36,36,33,34,00,01,
-1725172527347243,00000524,false,Rx,0,8,6B,01,00,00,00,00,00,00,
-1725172527337734,00000200,false,Rx,0,8,00,80,D8,10,00,3B,D0,00,
-1725172527337491,00000523,false,Rx,0,8,08,38,36,36,33,34,00,01,
-1725172527337236,00000524,false,Rx,0,8,6B,01,00,00,00,00,00,00,
-1725172527327742,00000200,false,Rx,0,8,00,80,D8,10,00,7B,D0,00,
-1725172527327501,00000523,false,Rx,0,8,08,38,36,36,33,34,00,01,
-1725172527327247,00000524,false,Rx,0,8,6B,01,00,00,00,00,00,00,
-1725172527317739,00000200,false,Rx,0,8,00,80,D8,10,00,BB,D0,00,
-1725172527317497,00000523,false,Rx,0,8,08,38,36,36,33,34,00,01,
-1725172527317241,00000524,false,Rx,0,8,6B,01,00,00,00,00,00,00,
-1725172527307737,00000200,false,Rx,0,8,00,80,D8,10,00,FB,D0,00,
-1725172527307497,00000523,false,Rx,0,8,08,38,36,36,33,34,00,01,
-1725172527307243,00000524,false,Rx,0,8,6B,01,00,00,00,00,00,00,
-1725172527297733,00000200,false,Rx,0,8,00,80,D8,10,00,3B,D0,00,
-1725172527297493,00000523,false,Rx,0,8,08,38,36,36,33,34,00,01,
-1725172527297239,00000524,false,Rx,0,8,6B,01,00,00,00,00,00,00,
-1725172527287745,00000200,false,Rx,0,8,00,80,D8,10,00,7B,D0,00,
-1725172527287488,00000523,false,Rx,0,8,08,38,36,36,33,34,00,01,
-1725172527287234,00000524,false,Rx,0,8,6B,01,00,00,00,00,00,00,
-1725172527277743,00000200,false,Rx,0,8,00,80,D8,10,00,BB,D0,00,
-1725172527277501,00000523,false,Rx,0,8,08,38,36,36,33,34,00,01,
-1725172527277246,00000524,false,Rx,0,8,6B,01,00,00,00,00,00,00,
-1725172527268301,00000594,false,Rx,0,8,86,3D,86,3D,A2,6A,04,20,
-1725172527268046,00000491,false,Rx,0,8,2A,00,00,00,00,00,00,0A,
-1725172527267808,00000493,false,Rx,0,8,00,0B,80,69,72,00,AE,06,
-1725172527267566,000004DD,false,Rx,0,8,00,00,00,00,00,00,00,00,
-1725172527267342,000004DE,false,Rx,0,8,00,F1,0A,00,F1,D5,1D,00,
-1725172527267104,000004E2,false,Rx,0,8,66,03,FC,03,00,00,D0,9D,
-1725172527266865,00000542,false,Rx,0,8,6E,0C,00,00,00,00,FF,FF,
-1725172527266612,00000553,false,Rx,0,8,04,00,80,00,00,00,80,00,
-1725172527266369,00000595,false,Rx,0,8,0A,00,B9,B9,00,00,35,0E,
-1725172527266131,0000057F,false,Rx,0,8,80,0A,72,00,00,00,00,72,
-1725172527265893,00000596,false,Rx,0,8,25,76,00,00,2A,00,0A,0C,
-1725172527265640,000002A1,false,Rx,0,8,00,00,00,00,00,00,00,00,
-1725172527265400,00000597,false,Rx,0,8,09,5E,01,00,00,00,00,80,
-1725172527265161,00000200,false,Rx,0,8,00,80,D8,10,00,FB,D0,00,
-1725172527264921,00000598,false,Rx,0,8,00,00,00,00,91,41,F1,12,
-1725172527264683,00000523,false,Rx,0,8,08,38,36,36,33,34,00,01,
-1725172527264432,00000599,false,Rx,0,8,08,80,00,00,00,00,00,80,
-1725172527264193,00000524,false,Rx,0,8,6B,01,00,00,00,00,00,00,
-1725172527263938,0000059C,false,Rx,0,8,00,00,00,00,00,00,00,00,
-1725172527263700,0000059E,false,Rx,0,8,00,00,00,00,35,0E,00,00,
-1725172527263456,000005A3,false,Rx,0,8,0F,00,00,00,C9,7D,2A,62,
-1725172527263216,000005D5,false,Rx,0,8,00,00,00,A0,C8,A0,00,04,
-1725172527262993,000005D6,false,Rx,0,8,B9,B9,00,00,0A,0C,22,9D,
-1725172527262741,000005D7,false,Rx,0,8,02,A4,00,00,00,00,00,00,
-1725172527262514,000005D8,false,Rx,0,8,A1,6E,04,00,5E,01,35,0E,
-1725172527257742,00000200,false,Rx,0,8,00,80,D8,10,00,3B,D0,00,
-1725172527257502,00000523,false,Rx,0,8,08,38,36,36,33,34,00,01,
-1725172527257248,00000524,false,Rx,0,8,6B,01,00,00,00,00,00,00,
-1725172527247752,00000200,false,Rx,0,8,00,80,D8,10,00,7B,D0,00,
-1725172527247511,00000523,false,Rx,0,8,08,38,36,36,33,34,00,01,
-1725172527247243,00000524,false,Rx,0,8,6B,01,00,00,00,00,00,00,
-1725172527237749,00000200,false,Rx,0,8,00,80,D8,10,00,BB,D0,00,
-1725172527237508,00000523,false,Rx,0,8,08,38,36,36,33,34,00,01,
-1725172527237253,00000524,false,Rx,0,8,6B,01,00,00,00,00,00,00,
-1725172527227747,00000200,false,Rx,0,8,00,80,D8,10,00,FB,D0,00,
-1725172527227504,00000523,false,Rx,0,8,08,38,36,36,33,34,00,01,
-1725172527227250,00000524,false,Rx,0,8,6B,01,00,00,00,00,00,00,
-1725172527217741,00000200,false,Rx,0,8,00,80,D8,10,00,3B,D0,00,
-1725172527217499,00000523,false,Rx,0,8,08,38,36,36,33,34,00,01,
-1725172527217243,00000524,false,Rx,0,8,6B,01,00,00,00,00,00,00,
-1725172527207741,00000200,false,Rx,0,8,00,80,D8,10,00,7B,D0,00,
-1725172527207500,00000523,false,Rx,0,8,08,38,36,36,33,34,00,01,
-1725172527207246,00000524,false,Rx,0,8,6B,01,00,00,00,00,00,00,
-1725172527197751,00000200,false,Rx,0,8,00,80,D8,10,00,BB,D0,00,
-1725172527197497,00000523,false,Rx,0,8,08,38,36,36,33,34,00,01,
-1725172527197244,00000524,false,Rx,0,8,6B,01,00,00,00,00,00,00,
-1725172527187750,00000200,false,Rx,0,8,00,80,D8,10,00,FB,D0,00,
-1725172527187509,00000523,false,Rx,0,8,08,38,36,36,33,34,00,01,
-1725172527187253,00000524,false,Rx,0,8,6B,01,00,00,00,00,00,00,
-1725172527177745,00000200,false,Rx,0,8,00,80,D8,10,00,3B,D0,00,
-1725172527177503,00000523,false,Rx,0,8,08,38,36,36,33,34,00,01,
-1725172527177250,00000524,false,Rx,0,8,6B,01,00,00,00,00,00,00,
-1725172527168303,00000594,false,Rx,0,8,54,3D,54,3D,A2,6A,04,20,
-1725172527168050,00000491,false,Rx,0,8,2A,00,00,00,00,00,00,0A,
-1725172527167828,00000493,false,Rx,0,8,00,0B,80,69,72,00,AE,06,
-1725172527167570,000004DD,false,Rx,0,8,00,00,00,00,00,00,00,00,
-1725172527167347,000004DE,false,Rx,0,8,00,F1,0A,00,F1,D5,1D,00,
-1725172527167109,000004E2,false,Rx,0,8,66,03,FC,03,00,00,D0,9D,
-1725172527166870,00000542,false,Rx,0,8,6E,0C,00,00,00,00,FF,FF,
-1725172527166617,00000553,false,Rx,0,8,04,00,80,00,00,00,80,00,
-1725172527166388,00000595,false,Rx,0,8,0A,00,B9,B9,00,00,35,0E,
-1725172527166148,0000057F,false,Rx,0,8,80,0A,72,00,00,00,00,72,
-1725172527165909,00000596,false,Rx,0,8,2D,76,00,00,2A,00,0A,0C,
-1725172527165657,000002A1,false,Rx,0,8,00,00,00,00,00,00,00,00,
-1725172527165416,00000597,false,Rx,0,8,89,5E,01,00,00,00,00,80,
-1725172527165178,00000200,false,Rx,0,8,00,80,D8,10,00,7B,D0,00,
-1725172527164924,00000598,false,Rx,0,8,00,00,00,00,91,41,F1,12,
-1725172527164702,00000523,false,Rx,0,8,08,38,36,36,33,34,00,01,
-1725172527164444,00000599,false,Rx,0,8,08,80,00,00,00,00,00,80,
-1725172527164204,00000524,false,Rx,0,8,6B,01,00,00,00,00,00,00,
-1725172527163951,0000059C,false,Rx,0,8,00,00,00,00,00,00,00,00,
-1725172527163713,0000059E,false,Rx,0,8,00,00,00,00,35,0E,00,00,
-1725172527163470,000005A3,false,Rx,0,8,0F,00,00,00,C9,7D,2A,62,
-1725172527163232,000005D5,false,Rx,0,8,00,00,00,A0,C8,A0,00,04,
-1725172527163008,000005D6,false,Rx,0,8,B9,B9,00,00,0A,0C,22,9D,
-1725172527162753,000005D7,false,Rx,0,8,02,A4,00,00,00,00,00,00,
-1725172527162526,000005D8,false,Rx,0,8,A1,6E,04,00,5E,01,35,0E,
-1725172527157753,00000200,false,Rx,0,8,00,80,D8,10,00,BB,D0,00,
-1725172527157498,00000523,false,Rx,0,8,08,38,36,36,33,34,00,01,
-1725172527157247,00000524,false,Rx,0,8,6B,01,00,00,00,00,00,00,
-1725172527147752,00000200,false,Rx,0,8,00,80,D8,10,00,FB,D0,00,
-1725172527147512,00000523,false,Rx,0,8,08,38,36,36,33,34,00,01,
-1725172527147244,00000524,false,Rx,0,8,6B,01,00,00,00,00,00,00,
-1725172527137748,00000200,false,Rx,0,8,00,80,D8,10,00,3B,D0,00,
-1725172527137506,00000523,false,Rx,0,8,08,38,36,36,33,34,00,01,
-1725172527137253,00000524,false,Rx,0,8,6B,01,00,00,00,00,00,00,
-1725172527127745,00000200,false,Rx,0,8,00,80,D8,10,00,7B,D0,00,
-1725172527127503,00000523,false,Rx,0,8,08,38,36,36,33,34,00,01,
-1725172527127250,00000524,false,Rx,0,8,6B,01,00,00,00,00,00,00,
-1725172527117757,00000200,false,Rx,0,8,00,80,D8,10,00,BB,D0,00,
-1725172527117501,00000523,false,Rx,0,8,08,38,36,36,33,34,00,01,
-1725172527117248,00000524,false,Rx,0,8,6B,01,00,00,00,00,00,00,
-1725172527107760,00000200,false,Rx,0,8,00,80,D8,10,00,FB,D0,00,
-1725172527107505,00000523,false,Rx,0,8,08,38,36,36,33,34,00,01,
-1725172527107254,00000524,false,Rx,0,8,6B,01,00,00,00,00,00,00,
-1725172527097760,00000200,false,Rx,0,8,00,80,D8,10,00,3B,D0,00,
-1725172527097506,00000523,false,Rx,0,8,08,38,36,36,33,34,00,01,
-1725172527097255,00000524,false,Rx,0,8,6B,01,00,00,00,00,00,00,
-1725172527087762,00000200,false,Rx,0,8,00,80,D8,10,00,7B,D0,00,
-1725172527087521,00000523,false,Rx,0,8,08,38,36,36,33,34,00,01,
-1725172527087266,00000524,false,Rx,0,8,6B,01,00,00,00,00,00,00,
-1725172527077759,00000200,false,Rx,0,8,00,80,D8,10,00,BB,D0,00,
-1725172527077516,00000523,false,Rx,0,8,08,38,36,36,33,34,00,01,
-1725172527077262,00000524,false,Rx,0,8,6B,01,00,00,00,00,00,00,
-1725172527068300,00000594,false,Rx,0,8,22,3D,22,3D,A2,6A,04,20,
-1725172527068061,00000491,false,Rx,0,8,2A,00,00,00,00,00,00,0A,
-1725172527067823,00000493,false,Rx,0,8,00,0B,80,69,72,00,AE,06,
-1725172527067580,000004DD,false,Rx,0,8,00,00,00,00,00,00,00,00,
-1725172527067341,000004DE,false,Rx,0,8,00,F1,0A,00,F1,D5,1D,00,
-1725172527067118,000004E2,false,Rx,0,8,66,03,FC,03,00,00,D0,9D,
-1725172527066864,00000542,false,Rx,0,8,6E,0C,00,00,00,00,FF,FF,
-1725172527066625,00000553,false,Rx,0,8,04,00,80,00,00,00,80,00,
-1725172527066381,00000595,false,Rx,0,8,0A,00,B9,B9,00,00,35,0E,
-1725172527066142,0000057F,false,Rx,0,8,80,0A,72,00,00,00,00,72,
-1725172527065906,00000596,false,Rx,0,8,83,76,00,00,2A,00,0A,0C,
-1725172527065666,000002A1,false,Rx,0,8,00,00,00,00,00,00,00,00,
-1725172527065410,00000597,false,Rx,0,8,09,5E,01,00,00,00,00,80,
-1725172527065172,00000200,false,Rx,0,8,00,80,D8,10,00,FB,D0,00,
-1725172527064934,00000598,false,Rx,0,8,00,00,00,00,91,41,F1,12,
-1725172527064694,00000523,false,Rx,0,8,08,38,36,36,33,34,00,01,
-1725172527064451,00000599,false,Rx,0,8,08,80,00,00,00,00,00,80,
-1725172527064195,00000524,false,Rx,0,8,6B,01,00,00,00,00,00,00,
-1725172527063941,0000059C,false,Rx,0,8,00,00,00,00,00,00,00,00,
-1725172527063702,0000059E,false,Rx,0,8,00,00,00,00,35,0E,00,00,
-1725172527063475,000005A3,false,Rx,0,8,0F,00,00,00,C9,7D,2A,62,
-1725172527063236,000005D5,false,Rx,0,8,00,00,00,A0,C8,A0,00,04,
-1725172527062998,000005D6,false,Rx,0,8,B9,B9,00,00,0A,0C,2D,64,
-1725172527062759,000005D7,false,Rx,0,8,02,A4,00,00,00,00,00,00,
-1725172527062531,000005D8,false,Rx,0,8,A1,6E,04,00,5E,01,35,0E,
-1725172527057760,00000200,false,Rx,0,8,00,80,D8,10,00,3B,D0,00,
-1725172527057519,00000523,false,Rx,0,8,08,38,36,36,33,34,00,01,
-1725172527057251,00000524,false,Rx,0,8,6B,01,00,00,00,00,00,00,
-1725172527047757,00000200,false,Rx,0,8,00,80,D8,10,00,7B,D0,00,
-1725172527047517,00000523,false,Rx,0,8,08,38,36,36,33,34,00,01,
-1725172527047263,00000524,false,Rx,0,8,6B,01,00,00,00,00,00,00,
-1725172527037754,00000200,false,Rx,0,8,00,80,D8,10,00,BB,D0,00,
-1725172527037511,00000523,false,Rx,0,8,08,38,36,36,33,34,00,01,
-1725172527037257,00000524,false,Rx,0,8,6B,01,00,00,00,00,00,00,
-1725172527027765,00000200,false,Rx,0,8,00,80,D8,10,00,FB,D0,00,
-1725172527027508,00000523,false,Rx,0,8,08,38,36,36,33,34,00,01,
-1725172527027254,00000524,false,Rx,0,8,6B,01,00,00,00,00,00,00,
-1725172527017762,00000200,false,Rx,0,8,00,80,D8,10,00,3B,D0,00,
-1725172527017519,00000523,false,Rx,0,8,08,38,36,36,33,34,00,01,
-1725172527017264,00000524,false,Rx,0,8,6B,01,00,00,00,00,00,00,
-1725172527007761,00000200,false,Rx,0,8,00,80,D8,10,00,7B,D0,00,
-1725172527007521,00000523,false,Rx,0,8,08,38,36,36,33,34,00,01,
-1725172527007267,00000524,false,Rx,0,8,6B,01,00,00,00,00,00,00,
-1725172526997756,00000200,false,Rx,0,8,00,80,D8,10,00,BB,D0,00,
-1725172526997516,00000523,false,Rx,0,8,08,38,36,36,33,34,00,01,
-1725172526997262,00000524,false,Rx,0,8,6B,01,00,00,00,00,00,00,
-1725172526987767,00000200,false,Rx,0,8,00,80,D8,10,00,FB,D0,00,
-1725172526987524,00000523,false,Rx,0,8,08,38,36,36,33,34,00,01,
-1725172526987269,00000524,false,Rx,0,8,6B,01,00,00,00,00,00,00,
-1725172526977760,00000200,false,Rx,0,8,00,80,D8,10,00,3B,D0,00,
-1725172526977517,00000523,false,Rx,0,8,08,38,36,36,33,34,00,01,
-1725172526977261,00000524,false,Rx,0,8,6B,01,00,00,00,00,00,00,
-1725172526968315,00000594,false,Rx,0,8,F0,3C,F0,3C,A2,6A,04,20,
-1725172526968077,000003F6,false,Rx,0,8,18,00,00,00,00,00,00,00,
-1725172526967824,00000491,false,Rx,0,8,2A,00,00,00,00,00,00,0A,
-1725172526967582,00000493,false,Rx,0,8,00,0B,80,69,72,00,AE,06,
-1725172526967343,00000497,false,Rx,0,8,11,00,00,00,00,00,00,00,
-1725172526967089,00000498,false,Rx,0,8,00,00,00,00,00,00,00,00,
-1725172526966853,000004DD,false,Rx,0,8,00,00,00,00,00,00,00,00,
-1725172526966614,000004DE,false,Rx,0,8,00,F1,0A,00,F1,D5,1D,00,
-1725172526966387,000004E2,false,Rx,0,8,66,03,FC,03,00,00,D0,9D,
-1725172526966133,00000542,false,Rx,0,8,6E,0C,00,00,00,00,FF,FF,
-1725172526965894,00000553,false,Rx,0,8,04,00,80,00,00,00,80,00,
-1725172526965656,00000595,false,Rx,0,8,0A,00,B9,B9,00,00,35,0E,
-1725172526965414,0000057F,false,Rx,0,8,80,0A,72,00,00,00,00,72,
-1725172526965176,00000596,false,Rx,0,8,9D,76,00,00,2A,00,0A,0C,
-1725172526964921,000002A1,false,Rx,0,8,00,00,00,00,00,00,00,00,
-1725172526964683,00000597,false,Rx,0,8,89,5E,01,00,00,00,00,80,
-1725172526964444,00000200,false,Rx,0,8,00,80,D8,10,00,7B,D0,00,
-1725172526964205,00000598,false,Rx,0,8,00,00,00,00,91,41,F1,12,
-1725172526963966,00000523,false,Rx,0,8,08,38,36,36,33,34,00,01,
-1725172526963728,00000599,false,Rx,0,8,08,80,00,00,00,00,00,80,
-1725172526963470,00000524,false,Rx,0,8,6B,01,00,00,00,00,00,00,
-1725172526963231,0000059C,false,Rx,0,8,00,00,00,00,00,00,00,00,
-1725172526962977,0000059E,false,Rx,0,8,00,00,00,00,35,0E,00,00,
-1725172526962739,000005A3,false,Rx,0,8,0F,00,00,00,C9,7D,2A,62,
-1725172526962511,000005D5,false,Rx,0,8,00,00,00,A0,C8,A0,00,04,
-1725172526962272,000005D6,false,Rx,0,8,B9,B9,00,00,0A,0C,2D,64,
-1725172526962033,000005D7,false,Rx,0,8,02,A4,00,00,00,00,00,00,
-1725172526961795,000005D8,false,Rx,0,8,A1,6E,04,00,5E,01,35,0E,
-1725172526957770,00000200,false,Rx,0,8,00,80,D8,10,00,BB,D0,00,
-1725172526957515,00000523,false,Rx,0,8,08,38,36,36,33,34,00,01,
-1725172526957264,00000524,false,Rx,0,8,6B,01,00,00,00,00,00,00,
-1725172526951779,000007E4,false,Rx,0,8,03,22,01,03,00,00,00,00,
-1725172526947766,00000200,false,Rx,0,8,00,80,D8,10,00,FB,D0,00,
-1725172526947525,00000523,false,Rx,0,8,08,38,36,36,33,34,00,01,
-1725172526947271,00000524,false,Rx,0,8,6B,01,00,00,00,00,00,00,
-1725172526941724,000007EC,false,Rx,0,8,10,27,62,01,03,FF,FF,FF,
-1725172526940765,000007E4,false,Rx,0,8,30,00,00,00,00,00,00,00,
-1725172526937768,00000200,false,Rx,0,8,00,80,D8,10,00,3B,D0,00,
-1725172526937526,00000523,false,Rx,0,8,08,38,36,36,33,34,00,01,
-1725172526937270,00000524,false,Rx,0,8,6B,01,00,00,00,00,00,00,
-1725172526931739,000007EC,false,Rx,0,8,21,FF,B9,B9,B9,B9,B9,B9,
-1725172526927772,00000200,false,Rx,0,8,00,80,D8,10,00,7B,D0,00,
-1725172526927530,00000523,false,Rx,0,8,08,38,36,36,33,34,00,01,
-1725172526927275,00000524,false,Rx,0,8,6B,01,00,00,00,00,00,00,
-1725172526921747,000007EC,false,Rx,0,8,22,B9,B9,B9,B9,B9,B9,B9,
-1725172526917764,00000200,false,Rx,0,8,00,80,D8,10,00,BB,D0,00,
-1725172526917522,00000523,false,Rx,0,8,08,38,36,36,33,34,00,01,
-1725172526917268,00000524,false,Rx,0,8,6B,01,00,00,00,00,00,00,
-1725172526911742,000007EC,false,Rx,0,8,23,B9,B9,B9,B9,B9,B9,B9,
-1725172526907776,00000200,false,Rx,0,8,00,80,D8,10,00,FB,D0,00,
-1725172526907536,00000523,false,Rx,0,8,08,38,36,36,33,34,00,01,
-1725172526907268,00000524,false,Rx,0,8,6B,01,00,00,00,00,00,00,
-1725172526901752,000007EC,false,Rx,0,8,24,B9,B9,B9,B9,B9,B9,B9,
-1725172526897772,00000200,false,Rx,0,8,00,80,D8,10,00,3B,D0,00,
-1725172526897532,00000523,false,Rx,0,8,08,38,36,36,33,34,00,01,
-1725172526897278,00000524,false,Rx,0,8,6B,01,00,00,00,00,00,00,
-1725172526891748,000007EC,false,Rx,0,8,25,B9,B9,B9,B9,B9,AA,AA,
-1725172526887781,00000200,false,Rx,0,8,00,80,D8,10,00,7B,D0,00,
-1725172526887540,00000523,false,Rx,0,8,08,38,36,36,33,34,00,01,
-1725172526887270,00000524,false,Rx,0,8,6B,01,00,00,00,00,00,00,
-1725172526877778,00000200,false,Rx,0,8,00,80,D8,10,00,BB,D0,00,
-1725172526877535,00000523,false,Rx,0,8,08,38,36,36,33,34,00,01,
-1725172526877279,00000524,false,Rx,0,8,6B,01,00,00,00,00,00,00,
-1725172526868331,00000594,false,Rx,0,8,BE,3C,BE,3C,A2,6A,04,20,
-1725172526868093,00000491,false,Rx,0,8,2A,00,00,00,00,00,00,0A,
-1725172526867855,00000493,false,Rx,0,8,00,0B,80,69,72,00,AE,06,
-1725172526867599,000004DD,false,Rx,0,8,00,00,00,00,00,00,00,00,
-1725172526867376,000004DE,false,Rx,0,8,00,F1,0A,00,F1,D5,1D,00,
-1725172526867139,000004E2,false,Rx,0,8,66,03,FC,03,00,00,D0,9D,
-1725172526866903,00000542,false,Rx,0,8,6E,0C,00,00,00,00,FF,FF,
-1725172526866651,00000553,false,Rx,0,8,04,00,80,00,00,00,80,00,
-1725172526866410,00000595,false,Rx,0,8,0A,00,B9,B9,00,00,35,0E,
-1725172526866172,0000057F,false,Rx,0,8,80,0A,72,00,00,00,00,72,
-1725172526865936,00000596,false,Rx,0,8,21,76,00,00,2A,00,0A,0C,
-1725172526865684,000002A1,false,Rx,0,8,00,00,00,00,00,00,00,00,
-1725172526865447,00000597,false,Rx,0,8,09,5E,01,00,00,00,00,80,
-1725172526865194,00000200,false,Rx,0,8,00,80,D8,10,00,FB,D0,00,
-1725172526864958,00000598,false,Rx,0,8,00,00,00,00,91,41,F1,12,
-1725172526864722,00000523,false,Rx,0,8,08,38,36,36,33,34,00,01,
-1725172526864480,00000599,false,Rx,0,8,08,80,00,00,00,00,00,80,
-1725172526864227,00000524,false,Rx,0,8,6B,01,00,00,00,00,00,00,
-1725172526863976,0000059C,false,Rx,0,8,00,00,00,00,00,00,00,00,
-1725172526863739,0000059E,false,Rx,0,8,00,00,00,00,35,0E,00,00,
-1725172526863499,000005A3,false,Rx,0,8,0F,00,00,00,C9,7D,2A,62,
