Time Stamp,ID,Extended,Dir,Bus,LEN,D1,D2,D3,D4,D5,D6,D7,D8
8035535,000000A3,false,Rx,0,8,B2,06,00,00,00,00,00,00,
8035784,00000066,false,Rx,0,8,00,00,00,00,00,00,00,00,
8037273,000001B1,false,Rx,0,8,00,00,10,00,00,00,00,00,
8037524,000001D3,false,Rx,0,8,00,00,00,00,00,00,00,00,
8037770,00000013,false,Rx,0,8,B6,F1,00,00,00,00,00,00,
8038003,000000AA,false,Rx,0,8,97,0D,00,FA,3F,FE,3F,FF,
8038239,000001B2,false,Rx,0,8,00,00,00,00,00,00,00,00,
8038492,000002DD,false,Rx,0,8,EA,0C,FF,40,0F,FC,00,00,
8038744,0000059F,false,Rx,0,8,9F,00,FF,FF,FF,FF,FF,FF,
8039349,00000092,false,Rx,0,8,06,03,00,00,10,00,28,00,
8039582,00000044,false,Rx,0,8,F3,35,0D,C9,FF,46,00,00,
8039866,00000063,false,Rx,0,8,00,00,00,00,00,00,00,00,
8040069,00000065,false,Rx,0,8,00,00,00,00,00,00,00,00,
8040326,000000A2,false,Rx,0,8,48,06,00,00,00,00,24,09,
8040589,000000A4,false,Rx,0,8,00,00,00,00,27,FE,10,00,
8040883,00000072,false,Rx,0,8,00,00,00,00,05,9D,01,A4,
8041036,000000A8,false,Rx,0,8,67,03,00,00,00,00,00,00,
8041298,00000177,false,Rx,0,8,44,3A,00,00,41,00,3A,6C,
8041554,000001D1,false,Rx,0,8,00,00,7F,7F,7F,7F,FF,C0,
8041883,000001D2,false,Rx,0,8,00,00,00,00,00,00,00,00,
8042051,000001D4,false,Rx,0,8,00,00,00,00,00,00,00,00,
8042675,00000041,false,Rx,0,8,89,00,01,4C,00,00,00,00,
8042913,0000000D,false,Rx,0,8,ED,08,03,E8,03,E8,00,00,
8043146,000002C1,false,Rx,0,8,00,00,28,01,03,E8,50,00,
8045602,000000A3,false,Rx,0,8,AF,07,00,00,00,00,00,00,
8045715,00000066,false,Rx,0,8,00,00,00,00,00,00,00,00,
8045989,000000D9,false,Rx,0,8,00,00,09,A6,01,01,00,00,
8046218,00000088,false,Rx,0,8,F6,0B,01,C1,C5,66,C6,D0,
8046462,0000008A,false,Rx,0,8,00,00,03,96,02,93,00,00,
8046685,0000008C,false,Rx,0,8,94,0B,01,51,3A,83,8C,12,
8046942,0000008E,false,Rx,0,8,00,01,03,FF,00,00,00,7C,
8047187,00000090,false,Rx,0,8,00,00,01,A2,00,00,00,00,
8047421,00000096,false,Rx,0,8,07,1B,01,A0,00,00,00,00,
8047678,00000098,false,Rx,0,8,5C,4B,00,00,07,E8,03,E8,
8047907,00000013,false,Rx,0,8,0C,F2,00,00,00,00,00,00,
8048169,00000036,false,Rx,0,8,07,33,00,00,00,00,00,00,
8048408,00000050,false,Rx,0,8,35,01,09,80,00,80,B4,50,
8048653,00000084,false,Rx,0,8,1F,5A,79,00,00,00,00,00,
8048889,000000AA,false,Rx,0,8,70,0E,00,FA,3F,FE,3F,FF,
8049103,000000C8,false,Rx,0,8,93,0B,00,00,00,00,7F,FD,
8049626,000000CA,false,Rx,0,8,D0,01,A1,2D,A1,80,00,22,
8049643,00000065,false,Rx,0,8,00,00,00,00,00,00,00,00,
8049872,00000044,false,Rx,0,8,61,36,0E,2D,FF,46,00,00,
8050093,00000063,false,Rx,0,8,00,00,00,00,00,00,00,00,
8050569,000000A2,false,Rx,0,8,55,07,00,00,00,00,24,09,
8050585,000000DB,false,Rx,0,8,00,54,00,00,01,A6,00,00,
8051154,000000EA,false,Rx,0,8,76,5B,00,00,00,00,00,00,
8051171,00000143,false,Rx,0,8,EF,0B,01,A1,43,40,01,A6,
8051308,0000015B,false,Rx,0,8,00,08,00,01,00,6C,00,96,
8051530,000002DD,false,Rx,0,8,AC,0D,FF,40,0F,FC,00,00,
8052663,00000041,false,Rx,0,8,06,01,01,4C,00,00,00,00,
8052919,0000000D,false,Rx,0,8,87,09,03,E8,03,E8,00,00,
8053149,00000067,false,Rx,0,8,F1,30,00,00,00,00,00,00,
8054652,00000104,false,Rx,0,8,00,00,00,00,00,00,00,00,
8054907,0000029E,false,Rx,0,8,00,00,00,00,00,00,00,00,
8055155,00000115,false,Rx,0,8,00,00,00,00,00,00,01,00,
8055391,00000183,false,Rx,0,8,0A,0A,00,5A,40,00,00,8C,
8055632,00000066,false,Rx,0,8,00,00,00,00,00,00,00,00,
8055889,000000A3,false,Rx,0,8,14,08,00,00,00,00,00,00,
8056128,000001A3,false,Rx,0,8,00,00,00,78,82,01,00,91,
8056368,000002E2,false,Rx,0,8,01,0A,0A,5A,00,00,00,8C,
8056614,000002E3,false,Rx,0,8,00,00,00,00,00,00,00,00,
8056873,000002E4,false,Rx,0,8,00,00,00,00,00,00,00,00,
8057076,00000316,false,Rx,0,8,00,00,00,00,64,64,64,64,
8057345,00000317,false,Rx,0,8,00,00,00,00,00,5A,8C,88,
8057584,0000031A,false,Rx,0,8,00,00,00,00,00,02,62,E9,
8057884,00000013,false,Rx,0,8,91,F3,00,00,00,00,00,00,
8058070,000000AA,false,Rx,0,8,2D,0F,00,FA,3F,FE,3F,FF,
8058310,000002DD,false,Rx,0,8,66,0E,FF,40,0F,FC,00,00,
8058550,00000348,false,Rx,0,8,00,00,00,00,64,64,64,64,
8058789,00000349,false,Rx,0,8,00,00,00,00,00,5A,8C,88,
8059062,000001A1,false,Rx,0,8,6C,03,26,00,02,82,02,00,
8059354,00000092,false,Rx,0,8,8C,04,00,00,10,00,28,00,
8059587,00000044,false,Rx,0,8,42,37,0E,92,FF,45,00,00,
8059883,00000063,false,Rx,0,8,00,00,00,00,00,00,00,00,
8060093,00000065,false,Rx,0,8,00,00,00,00,00,00,00,00,
8060333,000000A2,false,Rx,0,8,EE,08,00,00,00,00,24,09,
8060584,000000A4,false,Rx,0,8,00,00,00,00,27,FE,10,00,
8060884,000000A8,false,Rx,0,8,ED,04,00,00,00,00,00,00,
8061462,00000072,false,Rx,0,8,00,00,00,00,05,9D,01,A4,
8061707,000000E8,false,Rx,0,8,00,00,03,9C,00,14,00,00,
8062673,00000041,false,Rx,0,8,8A,02,01,4C,00,00,00,00,
8063110,0000000D,false,Rx,0,8,39,0A,03,E8,03,E8,00,00,
8065746,000000A3,false,Rx,0,8,09,09,00,00,00,00,00,00,
8065762,00000066,false,Rx,0,8,00,00,00,00,00,00,00,00,
8065958,000000D9,false,Rx,0,8,00,00,09,A6,01,01,00,00,
8066188,00000088,false,Rx,0,8,25,0D,01,C1,C5,66,C6,D0,
8066445,0000008A,false,Rx,0,8,00,00,03,96,02,93,00,00,
8066678,0000008C,false,Rx,0,8,47,0D,01,51,3A,83,8C,12,
8066925,0000008E,false,Rx,0,8,00,01,03,FF,00,00,00,7C,
8067155,00000090,false,Rx,0,8,00,00,01,A2,00,00,00,00,
8067409,00000096,false,Rx,0,8,8D,1C,01,A0,00,00,00,00,
8067648,00000098,false,Rx,0,8,E9,4D,00,00,07,E8,03,E8,
8067996,00000013,false,Rx,0,8,65,F4,00,00,00,00,00,00,
8068158,00000036,false,Rx,0,8,FE,34,00,00,00,00,00,00,
8068446,00000050,false,Rx,0,8,8B,02,09,80,00,80,B4,50,
8068619,00000011,false,Rx,0,8,A6,E8,0C,C4,00,00,00,00,
8068884,00000084,false,Rx,0,8,82,5B,79,00,00,00,00,00,
8069069,000000AA,false,Rx,0,8,71,00,00,FA,3F,FE,3F,FF,
8069345,000000C8,false,Rx,0,8,40,0D,00,00,00,00,7F,FD,
8069574,00000044,false,Rx,0,8,68,38,0E,F6,FF,45,00,00,
8070102,00000063,false,Rx,0,8,00,00,00,00,00,00,00,00,
8070117,00000065,false,Rx,0,8,00,00,00,00,00,00,00,00,
8070322,000000A2,false,Rx,0,8,F3,09,00,00,00,00,24,09,
8070931,000000CA,false,Rx,0,8,54,01,A1,35,A1,80,00,23,
8070947,000000DB,false,Rx,0,8,00,55,00,00,01,A6,00,00,
8071006,000000DD,false,Rx,0,8,00,0A,00,0A,FE,0B,03,E6,
8071453,000000EF,false,Rx,0,8,00,00,0E,51,F3,00,00,00,
8071495,000000FB,false,Rx,0,8,00,0E,00,00,00,00,00,00,
8072054,00000110,false,Rx,0,8,00,00,00,01,83,60,02,49,
8072070,00000130,false,Rx,0,8,00,00,00,20,00,4B,00,00,
8072257,00000132,false,Rx,0,8,00,00,00,00,00,00,00,00,
8072521,00000134,false,Rx,0,8,00,00,00,00,00,00,0F,FF,
8072760,00000135,false,Rx,0,8,3F,12,00,00,00,00,00,00,
8073003,0000000D,false,Rx,0,8,53,0B,03,E8,03,E8,00,00,
8073237,00000041,false,Rx,0,8,05,03,01,4C,00,00,00,00,
8073732,00000067,false,Rx,0,8,7E,31,00,00,00,00,00,00,
8073749,0000013D,false,Rx,0,8,00,00,00,00,00,00,00,00,
8073979,00000146,false,Rx,0,8,00,65,03,FF,03,FF,00,00,
8074551,0000013F,false,Rx,0,8,00,00,00,00,00,00,00,00,
8074566,00000148,false,Rx,0,8,00,00,00,74,C8,74,74,74,
8074692,00000143,false,Rx,0,8,65,0C,01,A1,43,40,01,A6,
8075172,00000149,false,Rx,0,8,00,00,00,00,00,00,08,4D,
8075188,0000014C,false,Rx,0,8,00,00,10,68,0F,15,0F,1F,
8075440,0000014E,false,Rx,0,8,00,00,00,00,00,00,00,00,
8075914,0000015B,false,Rx,0,8,00,08,00,01,00,6C,00,96,
8075929,00000066,false,Rx,0,8,00,00,00,00,00,00,00,00,
8076429,000000A3,false,Rx,0,8,2E,0A,00,00,00,00,00,00,
8076445,00000160,false,Rx,0,8,00,00,00,28,1F,D8,0F,FF,
8076650,00000162,false,Rx,0,8,00,1C,28,01,12,5E,00,00,
8076907,00000164,false,Rx,0,8,00,00,00,00,00,41,06,49,
8077140,00000166,false,Rx,0,8,00,00,03,C0,00,00,00,00,
8077637,000000EC,false,Rx,0,8,00,00,01,56,01,E7,90,91,
8077654,00000171,false,Rx,0,8,00,00,07,74,28,01,00,00,
8077876,00000013,false,Rx,0,8,F8,F5,00,00,00,00,00,00,
8078495,000000AA,false,Rx,0,8,2C,01,00,FA,3F,FE,3F,FF,
8078510,000000F7,false,Rx,0,8,01,A6,00,00,00,00,00,00,
8078576,00000191,false,Rx,0,8,00,AD,01,17,00,00,00,00,
8079150,0000027A,false,Rx,0,8,18,04,0F,1C,0F,1A,0F,1B,
8079166,0000027E,false,Rx,0,8,18,10,74,74,00,00,00,00,
8079321,000002FD,false,Rx,0,8,00,00,00,00,00,01,00,00,
8079877,00000044,false,Rx,0,8,E9,39,0F,59,FF,45,00,00,
8079892,00000063,false,Rx,0,8,00,00,00,00,00,00,00,00,
8080061,00000065,false,Rx,0,8,00,00,00,00,00,00,00,00,
8080537,00000092,false,Rx,0,8,03,05,00,00,10,00,28,00,
8080553,000000A2,false,Rx,0,8,D4,0A,00,00,00,00,24,09,
8080800,000000A4,false,Rx,0,8,00,00,00,00,27,FE,10,00,
8081035,00000072,false,Rx,0,8,00,00,00,00,05,9D,01,A4,
8081578,000000A8,false,Rx,0,8,62,05,00,00,00,00,00,00,
8081594,000001D5,false,Rx,0,8,00,00,00,00,00,00,00,4F,
8081777,000001DF,false,Rx,0,8,00,00,00,00,00,00,00,4E,
8082677,00000041,false,Rx,0,8,8F,04,01,4C,00,00,00,00,
8082913,0000000D,false,Rx,0,8,58,0C,03,E8,03,E8,00,00,
8085525,000000A3,false,Rx,0,8,33,0B,00,00,00,00,00,00,
8085765,00000066,false,Rx,0,8,00,00,00,00,00,00,00,00,
8086225,000000D9,false,Rx,0,8,00,00,09,A6,01,01,00,00,
8086241,00000088,false,Rx,0,8,9F,0F,01,C1,C5,66,C6,D0,
8086872,0000008A,false,Rx,0,8,00,00,03,96,02,93,00,00,
8086888,0000008C,false,Rx,0,8,FD,0F,01,51,3A,83,8C,12,
8086921,0000008E,false,Rx,0,8,00,01,03,FF,00,00,00,7C,
8087409,00000090,false,Rx,0,8,00,00,01,A2,00,00,00,00,
8087430,00000096,false,Rx,0,8,02,1D,01,A0,00,00,00,00,
8087878,00000098,false,Rx,0,8,71,4F,00,00,07,E8,03,E8,
8087905,00000013,false,Rx,0,8,42,F6,00,00,00,00,00,00,
8088160,00000036,false,Rx,0,8,B2,35,00,00,00,00,00,00,
8088749,00000050,false,Rx,0,8,E1,03,09,80,00,80,B4,50,
8088766,00000084,false,Rx,0,8,76,5C,79,00,00,00,00,00,
8088879,000000AA,false,Rx,0,8,CB,02,00,FA,3F,FE,3F,FF,
8089143,000000C8,false,Rx,0,8,FA,0F,00,00,00,00,7F,FD,
8089376,000000CA,false,Rx,0,8,70,01,A1,3D,A1,80,00,24,
8089615,00000044,false,Rx,0,8,6A,3A,0F,BE,FF,46,00,00,
8089884,00000063,false,Rx,0,8,00,00,00,00,00,00,00,00,
8090121,00000065,false,Rx,0,8,00,00,00,00,00,00,00,00,
8090343,000000A2,false,Rx,0,8,C9,0B,00,00,00,00,24,09,
8090807,000000DB,false,Rx,0,8,00,56,00,00,01,A6,00,00,
8090849,000000EA,false,Rx,0,8,5B,5F,00,00,00,00,00,00,
8091073,00000109,false,Rx,0,8,00,00,00,00,00,18,00,02,
8091307,00000143,false,Rx,0,8,EA,0D,01,A1,43,40,01,A6,
8091556,0000015B,false,Rx,0,8,00,08,00,01,00,6C,00,96,
8092090,00000204,false,Rx,0,8,0B,0F,00,00,00,00,00,00,
8092108,00000207,false,Rx,0,8,48,00,00,00,00,00,1C,5A,
8092281,000002DD,false,Rx,0,8,A3,01,FF,40,0F,FC,00,00,
8092685,00000041,false,Rx,0,8,00,05,01,4C,00,00,00,00,
8092925,0000000D,false,Rx,0,8,32,0D,03,E8,03,E8,00,00,
8093201,00000067,false,Rx,0,8,F2,32,00,00,00,00,00,00,
8094590,00000104,false,Rx,0,8,00,00,00,04,00,00,00,00,
8095738,000000A3,false,Rx,0,8,60,0C,00,00,00,00,00,00,
8095759,00000066,false,Rx,0,8,00,00,00,00,00,00,00,00,
8097874,00000013,false,Rx,0,8,DF,F7,00,00,00,00,00,00,
8097896,000000AA,false,Rx,0,8,96,03,00,FA,3F,FE,3F,FF,
8098154,000002DD,false,Rx,0,8,69,02,FF,40,0F,FC,00,00,
8099086,0000013B,false,Rx,0,8,00,00,00,00,22,74,B8,23,
8099319,000001A1,false,Rx,0,8,6A,07,26,00,02,82,02,00,
8099554,00000044,false,Rx,0,8,36,3B,00,21,FF,46,00,00,
8100123,00000063,false,Rx,0,8,00,00,00,00,00,00,00,00,
8100139,00000065,false,Rx,0,8,00,00,00,00,00,00,00,00,
8100292,00000092,false,Rx,0,8,8F,06,00,00,10,00,28,00,
8100548,000000A2,false,Rx,0,8,9A,0C,00,00,00,00,24,09,
8100795,00000072,false,Rx,0,8,00,00,00,00,05,9D,01,A4,
8101041,000000A4,false,Rx,0,8,00,00,00,00,27,FE,10,00,
8101259,000000A8,false,Rx,0,8,EE,06,00,00,00,00,00,00,
8101535,000000E8,false,Rx,0,8,00,00,03,9C,00,14,00,00,
8101769,00000154,false,Rx,0,8,00,00,00,00,80,4E,4E,6F,
8102262,00000217,false,Rx,0,8,00,00,00,02,00,03,00,04,
8102279,00000230,false,Rx,0,8,00,00,00,00,01,01,01,00,
8102943,00000041,false,Rx,0,8,8C,06,01,4C,00,00,00,00,
8102958,0000000D,false,Rx,0,8,8C,0E,03,E8,03,E8,00,00,
8104597,00000183,false,Rx,0,8,0A,0A,00,5A,40,00,00,8C,
8105478,000000A3,false,Rx,0,8,7D,0D,00,00,00,00,00,00,
8105964,00000066,false,Rx,0,8,00,00,00,00,00,00,00,00,
8105981,000000D9,false,Rx,0,8,00,00,09,A6,01,01,00,00,
8106192,00000088,false,Rx,0,8,9E,01,01,C1,C5,66,C6,D0,
8106761,0000008A,false,Rx,0,8,00,00,03,96,02,93,00,00,
8106777,0000008C,false,Rx,0,8,FC,01,01,51,3A,83,8C,12,
8106921,0000008E,false,Rx,0,8,00,01,03,FF,00,00,00,7C,
8107172,00000090,false,Rx,0,8,00,00,01,A2,00,00,00,00,
8107411,00000096,false,Rx,0,8,8E,1E,01,A0,00,00,00,00,
8107655,00000098,false,Rx,0,8,9E,41,00,00,07,E8,03,E8,
8107897,00000013,false,Rx,0,8,B7,F8,00,00,00,00,00,00,
8108141,00000036,false,Rx,0,8,66,36,00,00,00,00,00,00,
8108378,00000011,false,Rx,0,8,CC,E9,0C,C4,00,00,00,00,
8108615,00000050,false,Rx,0,8,EA,04,09,80,00,80,B4,50,
8108860,00000084,false,Rx,0,8,EB,5D,79,00,00,00,00,00,
8109116,000000AA,false,Rx,0,8,18,04,00,FA,3F,FE,3F,FF,
8109325,000000C8,false,Rx,0,8,FB,01,00,00,00,00,7F,FD,
8109587,00000044,false,Rx,0,8,CB,3C,00,85,FF,46,00,00,
8109874,00000063,false,Rx,0,8,00,00,00,00,00,00,00,00,
8110090,00000065,false,Rx,0,8,00,00,00,00,00,00,00,00,
8110329,000000A2,false,Rx,0,8,87,0D,00,00,00,00,24,09,
8110557,000000CA,false,Rx,0,8,66,01,A1,05,A1,80,00,22,
8110874,000000DB,false,Rx,0,8,00,57,00,00,01,A6,00,00,
8111043,000000DD,false,Rx,0,8,00,0A,00,0A,FE,0B,03,E6,
8111294,000000FB,false,Rx,0,8,00,0F,00,00,00,00,00,00,
8111533,0000015B,false,Rx,0,8,00,08,00,01,00,6C,00,96,
8111766,00000143,false,Rx,0,8,66,0E,01,A1,43,40,01,A6,
8112010,000002DD,false,Rx,0,8,2F,03,FF,40,0F,FC,00,00,
8112671,00000041,false,Rx,0,8,03,07,01,4C,00,00,00,00,
8112916,0000000D,false,Rx,0,8,E6,0F,03,E8,03,E8,00,00,
8113161,00000067,false,Rx,0,8,7D,33,00,00,00,00,00,00,
8115508,000000A3,false,Rx,0,8,5A,0E,00,00,00,00,00,00,
8115753,00000066,false,Rx,0,8,00,00,00,00,00,00,00,00,
8115999,00000110,false,Rx,0,8,00,00,00,01,83,60,02,49,
8117659,00000013,false,Rx,0,8,2A,F9,00,00,00,00,00,00,
8117891,000000AA,false,Rx,0,8,45,05,00,FA,3F,FE,3F,FF,
8118143,000002DD,false,Rx,0,8,E0,04,FF,40,0F,FC,00,00,
8119354,00000092,false,Rx,0,8,00,07,00,00,10,00,28,00,
8119593,00000044,false,Rx,0,8,77,3D,00,EA,FF,46,00,00,
8119873,00000063,false,Rx,0,8,00,00,00,00,00,00,00,00,
8120095,00000065,false,Rx,0,8,00,00,00,00,00,00,00,00,
8120335,000000A2,false,Rx,0,8,A0,0E,00,00,00,00,24,09,
8120581,00000072,false,Rx,0,8,00,00,00,00,05,9D,01,A4,
8120874,000000A4,false,Rx,0,8,00,00,00,00,27,FE,10,00,
8121074,000000A8,false,Rx,0,8,61,07,00,00,00,00,00,00,
8121318,00000205,false,Rx,0,8,D0,01,1B,FF,3F,FF,3F,FE,
8121563,00000400,false,Rx,0,8,1E,00,01,01,01,02,01,00,
8122663,00000041,false,Rx,0,8,85,08,01,4C,00,00,00,00,
8122904,0000000D,false,Rx,0,8,9A,00,03,E8,03,E8,00,00,
8123746,00000501,false,Rx,0,8,1E,12,00,00,01,00,00,00,
8125482,000000A3,false,Rx,0,8,47,0F,00,00,00,00,00,00,
8125729,00000066,false,Rx,0,8,00,00,00,00,00,00,00,00,
8125972,000000D9,false,Rx,0,8,00,00,09,A6,01,01,00,00,
8126206,00000088,false,Rx,0,8,24,03,01,C1,C5,66,C6,D0,
8126449,0000008A,false,Rx,0,8,00,00,03,96,02,93,00,00,
8126682,0000008C,false,Rx,0,8,46,03,01,51,3A,83,8C,12,
8126928,0000008E,false,Rx,0,8,00,01,03,FF,00,00,00,7C,
8127173,00000090,false,Rx,0,8,00,00,01,A2,00,00,00,00,
8127418,00000096,false,Rx,0,8,01,1F,01,A0,00,00,00,00,
8127663,00000098,false,Rx,0,8,06,43,00,00,07,E8,03,E8,
8127904,00000013,false,Rx,0,8,90,FA,00,00,00,00,00,00,
8128150,00000036,false,Rx,0,8,2A,37,00,00,00,00,00,00,
8128390,00000050,false,Rx,0,8,80,05,09,80,00,80,B4,50,
8128629,00000084,false,Rx,0,8,51,5E,79,00,00,00,00,00,
8128875,000000AA,false,Rx,0,8,A2,06,00,FA,3F,FE,3F,FF,
8129108,000000C8,false,Rx,0,8,12,03,00,00,00,00,7F,FA,
8129341,000000CA,false,Rx,0,8,0C,01,A1,0D,A1,80,00,23,
8129586,00000044,false,Rx,0,8,09,3E,01,4D,FF,45,00,00,
8129874,00000063,false,Rx,0,8,00,00,00,00,00,00,00,00,
8130084,00000065,false,Rx,0,8,00,00,00,00,00,00,00,00,
8130324,000000A2,false,Rx,0,8,BD,0F,00,00,00,00,24,09,
8130569,000000DB,false,Rx,0,8,00,58,00,00,01,A6,00,00,
8130875,000000EA,false,Rx,0,8,2C,53,00,00,00,00,00,00,
8131045,000000EC,false,Rx,0,8,00,00,01,56,01,E7,90,91,
8131288,0000015B,false,Rx,0,8,00,08,00,01,00,6C,00,96,
8131533,000000F7,false,Rx,0,8,01,A6,00,00,00,00,00,00,
8131778,0000019A,false,Rx,0,8,A0,05,01,A1,00,01,00,00,
8132011,00000143,false,Rx,0,8,E9,0F,01,A1,43,40,01,A6,
8132254,000002DD,false,Rx,0,8,A6,05,FF,40,0F,FC,00,00,
8132674,00000041,false,Rx,0,8,0A,09,01,4C,00,00,00,00,
8132916,0000000D,false,Rx,0,8,F0,01,03,E8,03,E8,00,00,
8133162,00000067,false,Rx,0,8,F7,34,00,00,00,00,00,00,
8134634,00000104,false,Rx,0,8,00,00,00,04,00,00,00,00,
8135512,000000A3,false,Rx,0,8,FC,00,00,00,00,00,00,00,
8135763,00000066,false,Rx,0,8,00,00,00,00,00,00,00,00,
8137247,000001B1,false,Rx,0,8,00,00,10,00,00,00,00,00,
8137666,00000013,false,Rx,0,8,0D,FB,00,00,00,00,00,00,
8137907,000000AA,false,Rx,0,8,FF,07,00,FA,3F,FE,3F,FF,
8138148,000002DD,false,Rx,0,8,6C,06,FF,40,0F,FC,00,00,
8138963,000001B2,false,Rx,0,8,00,00,00,00,00,00,00,00,
8139206,000001A1,false,Rx,0,8,60,0B,26,00,02,82,02,00,
8139444,00000044,false,Rx,0,8,6D,3F,01,B2,FF,45,00,00,
8139693,00000063,false,Rx,0,8,00,00,00,00,00,00,00,00,
8139945,00000065,false,Rx,0,8,00,00,00,00,00,00,00,00,
8140184,00000092,false,Rx,0,8,86,08,00,00,10,00,28,00,
8140425,000000A2,false,Rx,0,8,06,00,00,00,00,00,24,09,
8140675,000000A4,false,Rx,0,8,00,00,00,00,27,FE,10,00,
8140923,00000072,false,Rx,0,8,00,00,00,00,05,9D,01,A4,
8141168,000000A8,false,Rx,0,8,E7,08,00,00,00,00,00,00,
8141412,000000E8,false,Rx,0,8,00,00,03,9C,00,14,00,00,
8141646,00000177,false,Rx,0,8,44,3A,00,00,41,00,3A,6C,
8141887,00000200,false,Rx,0,8,00,00,00,01,7F,4B,FE,32,
8142660,00000041,false,Rx,0,8,86,0A,01,4C,00,00,00,00,
8142899,0000000D,false,Rx,0,8,4E,02,03,E8,03,E8,00,00,
8143150,0000025F,false,Rx,0,8,00,00,00,00,00,00,00,00,
8145488,000000A3,false,Rx,0,8,E1,01,00,00,00,00,00,00,
8145739,00000066,false,Rx,0,8,00,00,00,00,00,00,00,00,
8145980,000000D9,false,Rx,0,8,00,00,09,A6,01,01,00,00,
8146205,00000088,false,Rx,0,8,F7,05,01,C1,C5,66,C6,D0,
8146454,0000008A,false,Rx,0,8,00,00,03,96,02,93,00,00,
8146678,0000008C,false,Rx,0,8,95,05,01,51,3A,83,8C,12,
8146924,0000008E,false,Rx,0,8,00,01,03,FF,00,00,00,7C,
8147176,00000090,false,Rx,0,8,00,00,01,A2,00,00,00,00,
8147420,00000096,false,Rx,0,8,87,10,01,A0,00,00,00,00,
8147663,00000098,false,Rx,0,8,B3,45,00,00,07,E8,03,E8,
8147910,00000013,false,Rx,0,8,F9,FC,00,00,00,00,00,00,
8148156,00000036,false,Rx,0,8,89,38,00,00,00,00,00,00,
8148402,00000050,false,Rx,0,8,3E,06,09,80,00,80,B4,50,
8148640,00000011,false,Rx,0,8,72,EA,0C,C4,00,00,00,00,
8148891,00000084,false,Rx,0,8,CC,5F,79,00,00,00,00,00,
8149111,000000AA,false,Rx,0,8,A3,08,00,FA,3F,FE,3F,FF,
8149358,000000C8,false,Rx,0,8,C1,05,00,00,00,00,7F,FA,
8149598,00000044,false,Rx,0,8,5D,30,02,16,FF,45,00,00,
8149874,00000063,false,Rx,0,8,00,00,00,00,00,00,00,00,
8150101,00000065,false,Rx,0,8,00,00,00,00,00,00,00,00,
8150348,000000A2,false,Rx,0,8,1B,01,00,00,00,00,24,09,
8150575,000000CA,false,Rx,0,8,C6,01,A1,15,A1,80,00,24,
8150876,000000DB,false,Rx,0,8,00,59,00,00,01,A6,00,00,
8151061,000000DD,false,Rx,0,8,00,0A,00,0A,FE,0B,03,E6,
8151300,000000EF,false,Rx,0,8,00,00,0E,51,F3,00,00,00,
8151552,000000FB,false,Rx,0,8,00,00,00,00,00,00,00,00,
8151875,00000109,false,Rx,0,8,00,00,00,00,00,18,00,02,
8152043,00000135,false,Rx,0,8,22,13,00,00,00,00,00,00,
8152288,0000013D,false,Rx,0,8,00,00,00,00,00,00,00,00,
8152534,0000015B,false,Rx,0,8,00,08,00,01,00,6C,00,96,
8152774,00000041,false,Rx,0,8,09,0B,01,4C,00,00,00,00,
8153018,0000000D,false,Rx,0,8,24,03,03,E8,03,E8,00,00,
8153258,00000067,false,Rx,0,8,78,35,00,00,00,00,00,00,
8153509,0000013F,false,Rx,0,8,00,00,00,00,00,00,00,00,
8153753,00000191,false,Rx,0,8,00,AD,01,17,00,00,00,00,
8153983,00000143,false,Rx,0,8,6F,00,01,A1,43,40,01,A6,
8154238,000002DD,false,Rx,0,8,2A,07,FF,40,0F,FC,00,00,
8154466,00000159,false,Rx,0,8,90,0F,3D,60,00,02,06,4B,
8154716,0000029E,false,Rx,0,8,00,00,00,00,00,00,00,00,
8154963,00000115,false,Rx,0,8,00,00,00,00,00,00,01,00,
8155198,00000183,false,Rx,0,8,0A,0A,00,5A,40,00,00,8C,
8155444,000001A3,false,Rx,0,8,00,00,00,78,82,01,00,91,
8155733,00000066,false,Rx,0,8,00,00,00,00,00,00,00,00,
8155940,000000A3,false,Rx,0,8,C6,02,00,00,00,00,00,00,
8157657,00000013,false,Rx,0,8,64,FD,00,00,00,00,00,00,
8157893,000000AA,false,Rx,0,8,FE,09,00,FA,3F,FE,3F,FF,
8158138,000002DD,false,Rx,0,8,EF,08,FF,40,0F,FC,00,00,
8159152,000001D3,false,Rx,0,8,00,00,00,00,00,00,00,00,
8159385,00000044,false,Rx,0,8,4A,31,02,7A,FF,46,00,00,
8159637,00000065,false,Rx,0,8,00,00,00,00,00,00,00,00,
8159893,00000063,false,Rx,0,8,00,00,00,00,00,00,00,00,
8160131,00000092,false,Rx,0,8,09,09,00,00,10,00,28,00,
8160370,000000A2,false,Rx,0,8,3C,02,00,00,00,00,24,09,
8160615,00000072,false,Rx,0,8,00,00,00,00,05,9D,01,A4,
8160874,000000A4,false,Rx,0,8,00,00,00,00,27,FE,10,00,
8161111,000000A8,false,Rx,0,8,68,09,00,00,00,00,00,00,
8161365,000001D4,false,Rx,0,8,00,00,00,00,00,00,00,00,
8161616,000001D1,false,Rx,0,8,00,00,7F,7F,7F,7F,FF,C0,
8162117,000001D2,false,Rx,0,8,00,00,00,00,00,00,00,00,
8162659,00000041,false,Rx,0,8,83,0C,01,4C,00,00,00,00,
8162905,0000000D,false,Rx,0,8,2F,04,03,E8,03,E8,00,00,
8163876,000002B4,false,Rx,0,8,00,00,00,0C,1F,18,3C,FF,
8165507,000000A3,false,Rx,0,8,DB,03,00,00,00,00,00,00,
8165748,00000066,false,Rx,0,8,00,00,00,00,00,00,00,00,
8165990,000000D9,false,Rx,0,8,00,00,09,A6,01,01,00,00,
8166232,00000088,false,Rx,0,8,4D,07,01,C1,C5,66,C6,D0,
8166472,0000008A,false,Rx,0,8,00,00,03,96,02,93,00,00,
8166705,0000008C,false,Rx,0,8,2F,07,01,51,3A,83,8C,12,
8166957,0000008E,false,Rx,0,8,00,01,03,FF,00,00,00,7C,
8167202,00000090,false,Rx,0,8,00,00,01,A2,00,00,00,00,
8167448,00000096,false,Rx,0,8,08,11,01,A0,00,00,00,00,
8167700,00000013,false,Rx,0,8,DE,FE,00,00,00,00,00,00,
8167923,00000036,false,Rx,0,8,C5,39,00,00,00,00,00,00,
8168174,00000050,false,Rx,0,8,54,07,09,80,00,80,B4,50,
8168418,00000084,false,Rx,0,8,A4,50,79,00,00,00,00,00,
8168657,00000098,false,Rx,0,8,2B,47,00,00,07,E8,03,E8,
8168899,000000AA,false,Rx,0,8,19,0A,00,FA,3F,FE,3F,FF,
8169144,000000C8,false,Rx,0,8,28,07,00,00,00,00,7F,FD,
8169385,00000044,false,Rx,0,8,02,32,02,DE,FF,46,00,00,
8169634,00000063,false,Rx,0,8,00,00,00,00,00,00,00,00,
8169881,00000065,false,Rx,0,8,00,00,00,00,00,00,00,00,
8170126,000000A2,false,Rx,0,8,21,03,00,00,00,00,24,09,
8170363,000000CA,false,Rx,0,8,FF,01,A1,1D,A1,80,00,22,
8170599,000000DB,false,Rx,0,8,00,5A,00,00,01,A6,00,00,
8170876,000000EA,false,Rx,0,8,01,57,00,00,00,00,00,00,
8171091,00000110,false,Rx,0,8,00,00,00,01,83,60,02,49,
8171337,00000130,false,Rx,0,8,00,00,00,20,00,4B,00,00,
8171588,00000132,false,Rx,0,8,00,00,00,00,00,00,00,00,
8171876,00000134,false,Rx,0,8,00,00,00,00,00,00,0F,FF,
8172074,00000143,false,Rx,0,8,E0,01,01,A1,43,40,01,A6,
8172319,00000146,false,Rx,0,8,00,65,03,FF,03,FF,00,00,
8172552,00000148,false,Rx,0,8,00,00,00,74,C8,74,74,74,
8172791,0000000D,false,Rx,0,8,45,05,03,E8,03,E8,00,00,
8173079,00000041,false,Rx,0,8,0C,0D,01,4C,00,00,00,00,
8173287,00000067,false,Rx,0,8,F4,36,00,00,00,00,00,00,
8173531,00000149,false,Rx,0,8,00,00,00,00,00,00,08,4D,
8173770,0000014C,false,Rx,0,8,00,00,10,68,0F,14,0F,20,
8174024,0000014E,false,Rx,0,8,00,00,00,00,00,00,00,00,
8174263,0000015B,false,Rx,0,8,00,08,00,01,00,6C,00,96,
8174508,00000160,false,Rx,0,8,00,00,00,28,1F,D8,0F,FF,
8174759,00000104,false,Rx,0,8,00,00,00,04,00,00,00,00,
8175000,00000162,false,Rx,0,8,00,1C,28,01,12,5E,00,00,
8175246,00000164,false,Rx,0,8,00,00,00,00,00,41,06,49,
8175490,00000166,false,Rx,0,8,00,00,03,C0,00,00,00,00,
8175730,00000171,false,Rx,0,8,00,00,07,74,28,01,00,00,
8175983,00000066,false,Rx,0,8,00,00,00,00,00,00,00,00,
8176228,000000A3,false,Rx,0,8,88,04,00,00,00,00,00,00,
8176473,00000206,false,Rx,0,8,00,00,00,00,00,00,01,A6,
8176724,0000020D,false,Rx,0,8,00,00,00,00,00,00,00,00,
8176965,000002DD,false,Rx,0,8,A9,09,FF,40,0F,FC,00,00,
8177210,0000030B,false,Rx,0,8,00,00,00,00,00,00,00,00,
8177449,000000EC,false,Rx,0,8,00,00,01,56,01,E7,90,91,
8177694,00000013,false,Rx,0,8,43,FF,00,00,00,00,00,00,
8177934,000000AA,false,Rx,0,8,44,0B,00,FA,3F,FE,3F,FF,
8178180,000000F7,false,Rx,0,8,01,A6,00,00,00,00,00,00,
8178420,000002DD,false,Rx,0,8,63,0A,FF,40,0F,FC,00,00,
8179094,0000013B,false,Rx,0,8,00,00,00,00,22,74,B8,24,
8179334,000001A1,false,Rx,0,8,66,0F,26,00,02,82,02,00,
8179573,00000044,false,Rx,0,8,AB,33,03,41,FF,46,00,00,
8179876,00000065,false,Rx,0,8,00,00,00,00,00,00,00,00,
8180074,00000063,false,Rx,0,8,00,00,00,00,00,00,00,00,
8180315,00000092,false,Rx,0,8,85,0A,00,00,10,00,28,00,
8180549,000000A2,false,Rx,0,8,72,04,00,00,00,00,24,09,
8180866,00000072,false,Rx,0,8,00,00,00,00,05,9D,01,A4,
8181083,000000A4,false,Rx,0,8,00,00,00,00,27,FE,10,00,
8181286,000000A8,false,Rx,0,8,E4,0A,00,00,00,00,00,00,
8181523,000000E8,false,Rx,0,8,00,00,03,9C,00,14,00,00,
8181786,0000012E,false,Rx,0,8,00,00,01,FE,01,FE,00,00,
8182654,00000041,false,Rx,0,8,80,0E,01,4C,00,00,00,00,
8182891,0000000D,false,Rx,0,8,FB,06,03,E8,03,E8,00,00,
8185489,000000A3,false,Rx,0,8,95,05,00,00,00,00,00,00,
8185740,00000066,false,Rx,0,8,00,00,00,00,00,00,00,00,
8185981,000000D9,false,Rx,0,8,00,00,09,A6,01,01,00,00,
8186214,00000088,false,Rx,0,8,4C,09,01,C1,C5,66,C6,D0,
8186454,0000008A,false,Rx,0,8,00,00,03,96,02,93,00,00,
8186683,0000008C,false,Rx,0,8,2E,09,01,51,3A,83,8C,12,
8187015,0000008E,false,Rx,0,8,00,01,03,FF,00,00,00,7C,
8187185,00000090,false,Rx,0,8,00,00,01,A2,00,00,00,00,
8187426,00000096,false,Rx,0,8,84,12,01,A0,00,00,00,00,
8187663,00000098,false,Rx,0,8,C4,49,00,00,07,E8,03,E8,
8187916,00000013,false,Rx,0,8,2B,F0,00,00,00,00,00,00,
8188161,00000036,false,Rx,0,8,11,3A,00,00,00,00,00,00,
8188401,00000011,false,Rx,0,8,18,EB,0C,C4,00,00,00,00,
8188646,00000050,false,Rx,0,8,28,08,09,80,00,80,B4,50,
8188886,00000084,false,Rx,0,8,39,51,79,00,00,00,00,00,
8189126,000000AA,false,Rx,0,8,CA,0C,00,FA,3F,FE,3F,FF,
8189371,000000C8,false,Rx,0,8,7A,09,00,00,00,00,7F,FA,
8189624,00000063,false,Rx,0,8,00,00,00,00,00,00,00,00,
8189875,00000044,false,Rx,0,8,11,34,03,A5,FF,45,00,00,
8190108,00000065,false,Rx,0,8,00,00,00,00,00,00,00,00,
8190347,000000A2,false,Rx,0,8,6F,05,00,00,00,00,24,09,
8190580,000000CA,false,Rx,0,8,E9,01,A1,25,A1,80,00,24,
8190875,000000DB,false,Rx,0,8,00,5B,00,00,01,A6,00,00,
8191061,000000DD,false,Rx,0,8,00,0A,00,0A,FE,0B,03,E6,
8191312,000000FB,false,Rx,0,8,00,01,00,00,00,00,00,00,
8191553,0000015B,false,Rx,0,8,00,08,00,01,00,6C,00,96,
8191786,00000143,false,Rx,0,8,6C,02,01,A1,43,40,01,A6,
8192025,000002DD,false,Rx,0,8,25,0B,FF,40,0F,FC,00,00,
8192270,00000405,false,Rx,0,8,10,00,00,00,00,53,41,44,
8192669,00000041,false,Rx,0,8,0F,0F,01,4C,00,00,00,00,
8192912,0000000D,false,Rx,0,8,91,07,03,E8,03,E8,00,00,
8193136,00000067,false,Rx,0,8,7B,37,00,00,00,00,00,00,
8195520,000000A3,false,Rx,0,8,B2,06,00,00,00,00,00,00,
8195771,00000066,false,Rx,0,8,00,00,00,00,00,00,00,00,
8197657,00000013,false,Rx,0,8,B6,F1,00,00,00,00,00,00,
8197896,000000AA,false,Rx,0,8,97,0D,00,FA,3F,FE,3F,FF,
8198133,000002DD,false,Rx,0,8,EA,0C,FF,40,0F,FC,00,00,
8199368,00000092,false,Rx,0,8,0A,0B,00,00,10,00,28,00,
8199609,00000044,false,Rx,0,8,F9,35,04,0A,FF,45,00,00,
8199875,00000063,false,Rx,0,8,00,00,00,00,00,00,00,00,
8200112,00000065,false,Rx,0,8,00,00,00,00,00,00,00,00,
8200352,000000A2,false,Rx,0,8,48,06,00,00,00,00,24,09,
8200594,00000072,false,Rx,0,8,00,00,00,00,05,9D,01,A4,
8200877,000000A4,false,Rx,0,8,00,00,00,00,27,FE,10,00,
8201106,000000A8,false,Rx,0,8,6B,0B,00,00,00,00,00,00,
8201331,00000154,false,Rx,0,8,00,00,00,00,80,4E,4E,6F,
8201577,000001D5,false,Rx,0,8,00,00,00,00,00,00,00,4F,
8201867,000001DF,false,Rx,0,8,00,00,00,00,00,00,00,4E,
8202656,00000041,false,Rx,0,8,89,00,01,4C,00,00,00,00,
8202900,0000000D,false,Rx,0,8,ED,08,03,E8,03,E8,00,00,
8204562,00000183,false,Rx,0,8,0A,0A,00,5A,40,00,00,8C,
8205469,000000A3,false,Rx,0,8,AF,07,00,00,00,00,00,00,
8205720,00000066,false,Rx,0,8,00,00,00,00,00,00,00,00,
8205955,000000D9,false,Rx,0,8,00,00,09,A6,01,01,00,00,
8206189,00000088,false,Rx,0,8,F6,0B,01,C1,C5,66,C6,D0,
8206426,0000008A,false,Rx,0,8,00,00,03,96,02,93,00,00,
8206661,0000008C,false,Rx,0,8,94,0B,01,51,3A,83,8C,12,
8206913,0000008E,false,Rx,0,8,00,01,03,FF,00,00,00,7C,
8207158,00000090,false,Rx,0,8,00,00,01,A2,00,00,00,00,
8207397,00000096,false,Rx,0,8,0B,13,01,A0,00,00,00,00,
8207647,00000098,false,Rx,0,8,5C,4B,00,00,07,E8,03,E8,
8207888,00000013,false,Rx,0,8,0C,F2,00,00,00,00,00,00,
8208144,00000036,false,Rx,0,8,5D,3B,00,00,00,00,00,00,
8208375,00000050,false,Rx,0,8,42,09,09,80,00,80,B4,50,
8208629,00000084,false,Rx,0,8,83,52,79,00,00,00,00,00,
8208888,000000AA,false,Rx,0,8,70,0E,00,FA,3F,FE,3F,FF,
8209098,000000C8,false,Rx,0,8,C0,0B,00,00,00,00,7F,FA,
8209333,000000CA,false,Rx,0,8,9E,01,A1,2D,A1,80,00,24,
8209594,00000065,false,Rx,0,8,00,00,00,00,00,00,00,00,
8209888,00000044,false,Rx,0,8,11,36,04,6E,FF,45,00,00,
8210080,00000063,false,Rx,0,8,00,00,00,00,00,00,00,00,
8210325,000000A2,false,Rx,0,8,55,07,00,00,00,00,24,09,
8210565,000000DB,false,Rx,0,8,00,5C,00,00,01,A6,00,00,
8210804,000000EA,false,Rx,0,8,76,5B,00,00,00,00,00,00,
8211055,00000109,false,Rx,0,8,00,00,00,00,00,18,00,02,
8211289,00000143,false,Rx,0,8,E3,03,01,A1,43,40,01,A6,
8211527,0000015B,false,Rx,0,8,00,08,00,01,00,6C,00,96,
8211763,000002DD,false,Rx,0,8,AC,0D,FF,40,0F,FC,00,00,
8212861,00000041,false,Rx,0,8,06,01,01,4C,00,00,00,00,
8212886,0000000D,false,Rx,0,8,87,09,03,E8,03,E8,00,00,
8213169,00000067,false,Rx,0,8,FD,38,00,00,00,00,00,00,
8214654,00000104,false,Rx,0,8,00,00,00,04,00,00,00,00,
8215507,000000A3,false,Rx,0,8,14,08,00,00,00,00,00,00,
8215763,00000066,false,Rx,0,8,00,00,00,00,00,00,00,00,
8216038,00000110,false,Rx,0,8,00,00,00,01,83,60,02,49,
8217668,00000013,false,Rx,0,8,91,F3,00,00,00,00,00,00,
8217913,000000AA,false,Rx,0,8,2D,0F,00,FA,3F,FE,3F,FF,
8218134,000002DD,false,Rx,0,8,66,0E,FF,40,0F,FC,00,00,
8219242,000001A1,false,Rx,0,8,6C,03,26,00,02,82,02,00,
8219365,00000092,false,Rx,0,8,80,0C,00,00,10,00,28,00,
8220016,00000044,false,Rx,0,8,15,37,04,D1,FF,45,00,00,
8220032,00000063,false,Rx,0,8,00,00,00,00,00,00,00,00,
8220089,00000065,false,Rx,0,8,00,00,00,00,00,00,00,00,
8220536,000000A2,false,Rx,0,8,EE,08,00,00,00,00,24,09,
8220579,000000A4,false,Rx,0,8,00,00,00,00,27,FE,10,00,
8220888,00000072,false,Rx,0,8,00,00,00,00,05,9D,01,A4,
8221089,000000A8,false,Rx,0,8,E1,0C,00,00,00,00,00,00,
8221807,000000E8,false,Rx,0,8,00,00,03,9C,00,14,00,00,
8222852,00000041,false,Rx,0,8,8A,02,01,4C,00,00,00,00,
8222880,0000000D,false,Rx,0,8,39,0A,03,E8,03,E8,00,00,
8225839,000000A3,false,Rx,0,8,09,09,00,00,00,00,00,00,
8225857,00000066,false,Rx,0,8,00,00,00,00,00,00,00,00,
8225977,000000D9,false,Rx,0,8,00,00,09,A6,01,01,00,00,
8226415,00000088,false,Rx,0,8,25,0D,01,C1,C5,66,C6,D0,
8226441,0000008A,false,Rx,0,8,00,00,03,96,02,93,00,00,
8226695,0000008C,false,Rx,0,8,47,0D,01,51,3A,83,8C,12,
8227252,0000008E,false,Rx,0,8,00,01,03,FF,00,00,00,7C,
8227269,00000090,false,Rx,0,8,00,00,01,A2,00,00,00,00,
8227414,00000096,false,Rx,0,8,81,14,01,A0,00,00,00,00,
8227659,00000098,false,Rx,0,8,E9,4D,00,00,07,E8,03,E8,
8228136,00000013,false,Rx,0,8,65,F4,00,00,00,00,00,00,
8228158,00000036,false,Rx,0,8,A4,3C,00,00,00,00,00,00,
8228390,00000050,false,Rx,0,8,FC,0A,09,80,00,80,B4,50,
8228640,00000011,false,Rx,0,8,13,EC,0C,C4,00,00,00,00,
8228916,00000084,false,Rx,0,8,1E,53,79,00,00,00,00,00,
8229106,000000AA,false,Rx,0,8,71,00,00,FA,3F,FE,3F,FF,
8229373,000000C8,false,Rx,0,8,40,0D,00,00,00,00,7F,FD,
8229606,00000044,false,Rx,0,8,C9,38,05,36,FF,46,00,00,
8229867,00000063,false,Rx,0,8,00,00,00,00,00,00,00,00,
8230089,00000065,false,Rx,0,8,00,00,00,00,00,00,00,00,
8230343,000000A2,false,Rx,0,8,F3,09,00,00,00,00,24,09,
8230575,000000CA,false,Rx,0,8,54,01,A1,35,A1,80,00,23,
8230889,000000DB,false,Rx,0,8,00,5D,00,00,01,A6,00,00,
8231046,000000DD,false,Rx,0,8,00,0A,00,0A,FE,0B,03,E6,
8231301,000000EC,false,Rx,0,8,00,00,01,56,01,E7,90,91,
8231546,000000EF,false,Rx,0,8,00,00,0E,51,F3,00,00,00,
8231787,000000F7,false,Rx,0,8,01,A6,00,00,00,00,00,00,
8232020,00000135,false,Rx,0,8,71,14,00,00,00,00,00,00,
8232282,000000FB,false,Rx,0,8,00,02,00,00,00,00,00,00,
8232522,0000015B,false,Rx,0,8,00,08,00,01,00,6C,00,96,
8232754,00000041,false,Rx,0,8,05,03,01,4C,00,00,00,00,
8233006,0000000D,false,Rx,0,8,53,0B,03,E8,03,E8,00,00,
8233251,00000067,false,Rx,0,8,72,39,00,00,00,00,00,00,
8233497,0000013D,false,Rx,0,8,00,00,00,00,00,00,00,00,
8233743,00000191,false,Rx,0,8,00,AD,01,17,00,00,00,00,
8233996,0000013F,false,Rx,0,8,00,00,00,00,00,00,00,00,
8234226,0000019A,false,Rx,0,8,47,06,01,A1,00,01,00,00,
8234499,00000143,false,Rx,0,8,69,04,01,A1,43,40,01,A6,
8234708,000002DD,false,Rx,0,8,20,0F,FF,40,0F,FC,00,00,
8234954,00000147,false,Rx,0,8,00,00,00,00,00,00,01,A6,
8235193,0000051E,false,Rx,0,8,22,02,00,1B,00,00,00,00,
8235551,000000A3,false,Rx,0,8,2E,0A,00,00,00,00,00,00,
8235802,00000066,false,Rx,0,8,00,00,00,00,00,00,00,00,
8237665,00000013,false,Rx,0,8,F8,F5,00,00,00,00,00,00,
8238334,000000AA,false,Rx,0,8,2C,01,00,FA,3F,FE,3F,FF,
8238357,000002DD,false,Rx,0,8,E5,00,FF,40,0F,FC,00,00,
8239047,000001B1,false,Rx,0,8,00,00,10,00,00,00,00,00,
8239115,000001B2,false,Rx,0,8,00,00,00,00,00,00,00,00,
8240033,00000065,false,Rx,0,8,00,00,00,00,00,00,00,00,
8240049,00000044,false,Rx,0,8,D5,39,05,99,FF,46,00,00,
8240051,00000063,false,Rx,0,8,00,00,00,00,00,00,00,00,
8240093,00000092,false,Rx,0,8,0F,0D,00,00,10,00,28,00,
8240361,000000A2,false,Rx,0,8,D4,0A,00,00,00,00,24,09,
8240625,000000A4,false,Rx,0,8,00,00,00,00,27,FE,10,00,
8240888,00000072,false,Rx,0,8,00,00,00,00,05,9D,01,A4,
8241079,000000A8,false,Rx,0,8,6E,0D,00,00,00,00,00,00,
8241851,00000177,false,Rx,0,8,44,3A,00,00,41,00,3A,6C,
8241866,00000312,false,Rx,0,8,00,00,3B,6C,00,3A,88,42,
8241874,00000400,false,Rx,0,8,B0,22,74,B8,22,3A,04,FF,
8242901,00000041,false,Rx,0,8,8F,04,01,4C,00,00,00,00,
8242918,0000000D,false,Rx,0,8,58,0C,03,E8,03,E8,00,00,
8245319,000002C1,false,Rx,0,8,00,00,28,01,03,E8,50,00,
8245560,000000A3,false,Rx,0,8,33,0B,00,00,00,00,00,00,
8246120,00000066,false,Rx,0,8,00,00,00,00,00,00,00,00,
8246136,000000D9,false,Rx,0,8,00,00,09,A6,01,01,00,00,
8246273,00000088,false,Rx,0,8,9F,0F,01,C1,C5,66,C6,D0,
8246726,0000008A,false,Rx,0,8,00,00,03,96,02,93,00,00,
8246747,0000008C,false,Rx,0,8,FD,0F,01,51,3A,83,8C,12,
8247252,0000008E,false,Rx,0,8,00,01,03,FF,00,00,00,7C,
8247269,00000090,false,Rx,0,8,00,00,01,A2,00,00,00,00,
8247489,00000096,false,Rx,0,8,0E,15,01,A0,00,00,00,00,
8248118,00000013,false,Rx,0,8,42,F6,00,00,00,00,00,00,
8248134,00000036,false,Rx,0,8,E8,3D,00,00,00,00,00,00,
8248218,00000050,false,Rx,0,8,96,0B,09,80,00,80,B4,50,
8248681,00000084,false,Rx,0,8,EA,54,79,00,00,00,00,00,
8248696,00000098,false,Rx,0,8,71,4F,00,00,07,E8,03,E8,
8248931,000000AA,false,Rx,0,8,CB,02,00,FA,3F,FE,3F,FF,
8249187,000000C8,false,Rx,0,8,FA,0F,00,00,00,00,7F,FD,
8249422,00000044,false,Rx,0,8,1A,3A,05,FD,FF,45,00,00,
8249684,00000063,false,Rx,0,8,00,00,00,00,00,00,00,00,
8249920,00000065,false,Rx,0,8,00,00,00,00,00,00,00,00,
8250169,000000A2,false,Rx,0,8,C9,0B,00,00,00,00,24,09,
8250903,000000CA,false,Rx,0,8,23,01,A1,3D,A1,80,00,23,
8250917,000000DB,false,Rx,0,8,00,5E,00,00,01,A6,00,00,
8250919,000000EA,false,Rx,0,8,5B,5F,00,00,00,00,00,00,
8251403,00000143,false,Rx,0,8,E6,05,01,A1,43,40,01,A6,
8251419,0000015B,false,Rx,0,8,00,08,00,01,00,6C,00,96,
8251608,00000207,false,Rx,0,8,48,00,00,00,00,00,1C,5A,
8251865,000002DD,false,Rx,0,8,A3,01,FF,40,0F,FC,00,00,
8252686,00000041,false,Rx,0,8,00,05,01,4C,00,00,00,00,
8252925,0000000D,false,Rx,0,8,32,0D,03,E8,03,E8,00,00,
8253171,00000067,false,Rx,0,8,FE,3A,00,00,00,00,00,00,
8254883,00000104,false,Rx,0,8,00,00,00,00,00,00,00,00,
8254899,00000115,false,Rx,0,8,00,00,00,00,00,00,01,00,
8255365,00000183,false,Rx,0,8,0A,0A,00,5A,40,00,00,8C,
8255381,000001A3,false,Rx,0,8,00,00,00,78,82,01,00,91,
8255612,000000A3,false,Rx,0,8,60,0C,00,00,00,00,00,00,
8256195,00000066,false,Rx,0,8,00,00,00,00,00,00,00,00,
8256212,0000029E,false,Rx,0,8,00,00,00,00,00,00,00,00,
8256362,00000346,false,Rx,0,8,00,00,00,00,00,00,00,00,
8256615,00000347,false,Rx,0,8,00,00,00,00,00,00,00,00,
8256889,0000059E,false,Rx,0,8,9E,10,FF,FF,FF,FF,FF,FF,
8257662,00000013,false,Rx,0,8,DF,F7,00,00,00,00,00,00,
8257908,000000AA,false,Rx,0,8,96,03,00,FA,3F,FE,3F,FF,
8258147,000002DD,false,Rx,0,8,69,02,FF,40,0F,FC,00,00,
8259302,0000013B,false,Rx,0,8,00,00,00,00,22,74,B8,24,
8259322,000001A1,false,Rx,0,8,6A,07,26,00,02,82,02,00,
8260104,00000044,false,Rx,0,8,94,3B,06,62,FF,45,00,00,
8260119,00000065,false,Rx,0,8,00,00,00,00,00,00,00,00,
8260121,00000063,false,Rx,0,8,00,00,00,00,00,00,00,00,
8260300,00000092,false,Rx,0,8,83,0E,00,00,10,00,28,00,
8260775,000000A2,false,Rx,0,8,9A,0C,00,00,00,00,24,09,
8260796,000000A4,false,Rx,0,8,00,00,00,00,27,FE,10,00,
8261041,00000072,false,Rx,0,8,00,00,00,00,05,9D,01,A4,
8261287,000000A8,false,Rx,0,8,E2,0E,00,00,00,00,00,00,
8261878,000000E8,false,Rx,0,8,00,00,03,9C,00,14,00,00,
8262675,00000041,false,Rx,0,8,8C,06,01,4C,00,00,00,00,
8262906,0000000D,false,Rx,0,8,8C,0E,03,E8,03,E8,00,00,
8265717,000000A3,false,Rx,0,8,7D,0D,00,00,00,00,00,00,
8265734,00000066,false,Rx,0,8,00,00,00,00,00,00,00,00,
8265961,000000D9,false,Rx,0,8,00,00,09,A6,01,01,00,00,
8266446,00000088,false,Rx,0,8,9E,01,01,C1,C5,66,C6,D0,
8266462,0000008A,false,Rx,0,8,00,00,03,96,02,93,00,00,
8266679,0000008C,false,Rx,0,8,FC,01,01,51,3A,83,8C,12,
8267159,0000008E,false,Rx,0,8,00,01,03,FF,00,00,00,7C,
8267176,00000090,false,Rx,0,8,00,00,01,A2,00,00,00,00,
8267409,00000096,false,Rx,0,8,82,16,01,A0,00,00,00,00,
8267650,00000098,false,Rx,0,8,9E,41,00,00,07,E8,03,E8,
8267884,00000013,false,Rx,0,8,B7,F8,00,00,00,00,00,00,
8268466,00000036,false,Rx,0,8,3C,3E,00,00,00,00,00,00,
8268483,00000011,false,Rx,0,8,79,ED,0C,C4,00,00,00,00,
8268625,00000050,false,Rx,0,8,9D,0C,09,80,00,80,B4,50,
8268889,00000084,false,Rx,0,8,77,55,79,00,00,00,00,00,
8269105,000000AA,false,Rx,0,8,18,04,00,FA,3F,FE,3F,FF,
8269595,000000C8,false,Rx,0,8,FB,01,00,00,00,00,7F,FD,
8269612,00000044,false,Rx,0,8,E5,3C,06,C5,FF,45,00,00,
8269878,00000063,false,Rx,0,8,00,00,00,00,00,00,00,00,
8270104,00000065,false,Rx,0,8,00,00,00,00,00,00,00,00,
8270338,000000A2,false,Rx,0,8,87,0D,00,00,00,00,24,09,
8270571,000000CA,false,Rx,0,8,66,01,A1,05,A1,80,00,22,
8270890,000000DB,false,Rx,0,8,00,5F,00,00,01,A6,00,00,
8271042,000000DD,false,Rx,0,8,00,0A,00,0A,FE,0B,03,E6,
8271310,000000FB,false,Rx,0,8,00,03,00,00,00,00,00,00,
8271893,00000109,false,Rx,0,8,00,00,00,00,00,18,00,02,
8271909,00000110,false,Rx,0,8,00,00,00,01,83,60,02,49,
8272033,00000130,false,Rx,0,8,00,00,00,20,00,4B,00,00,
8272296,00000132,false,Rx,0,8,00,00,00,00,00,00,00,00,
8272541,00000134,false,Rx,0,8,00,00,00,00,00,00,0F,FF,
8272790,0000000D,false,Rx,0,8,E6,0F,03,E8,03,E8,00,00,
8273037,00000041,false,Rx,0,8,03,07,01,4C,00,00,00,00,
8273271,00000067,false,Rx,0,8,71,3B,00,00,00,00,00,00,
8273881,00000143,false,Rx,0,8,6A,06,01,A1,43,40,01,A6,
8273897,00000146,false,Rx,0,8,00,65,03,FF,03,FF,00,00,
8273959,00000148,false,Rx,0,8,00,00,00,74,C8,74,74,74,
8274428,00000149,false,Rx,0,8,00,00,00,00,00,00,08,4D,
8274453,0000014C,false,Rx,0,8,00,00,10,68,0F,15,0F,1F,
8274948,0000014E,false,Rx,0,8,00,00,00,00,00,00,00,00,
8274964,0000015B,false,Rx,0,8,00,08,00,01,00,6C,00,96,
8275618,00000160,false,Rx,0,8,00,00,00,28,1F,D8,0F,FF,
8275633,00000162,false,Rx,0,8,00,1C,28,01,12,5E,00,00,
8275660,00000164,false,Rx,0,8,00,00,00,00,00,41,06,49,
8276126,00000066,false,Rx,0,8,00,00,00,00,00,00,00,00,
8276152,000000A3,false,Rx,0,8,5A,0E,00,00,00,00,00,00,
8276700,00000166,false,Rx,0,8,00,00,03,C0,00,00,00,00,
8276717,00000171,false,Rx,0,8,00,00,07,74,28,01,00,00,
8276913,00000204,false,Rx,0,8,0A,01,00,00,00,00,00,00,
8277455,000002DD,false,Rx,0,8,2F,03,FF,40,0F,FC,00,00,
8277472,000000EC,false,Rx,0,8,00,00,01,56,01,E7,90,91,
8277644,00000595,false,Rx,0,8,95,00,FF,FF,FF,FF,FF,FF,
8278188,00000013,false,Rx,0,8,2A,F9,00,00,00,00,00,00,
8278204,000000AA,false,Rx,0,8,45,05,00,FA,3F,FE,3F,FF,
8278376,000000F7,false,Rx,0,8,01,A6,00,00,00,00,00,00,
8278636,000001D3,false,Rx,0,8,00,00,00,00,00,00,00,00,
8278889,000002DD,false,Rx,0,8,E0,04,FF,40,0F,FC,00,00,
8279123,000001D1,false,Rx,0,8,00,00,7F,7F,7F,7F,FF,C0,
8279363,000001D2,false,Rx,0,8,00,00,00,00,00,00,00,00,
8279965,00000044,false,Rx,0,8,23,3D,07,2A,FF,46,00,00,
8279981,00000063,false,Rx,0,8,00,00,00,00,00,00,00,00,
8280106,00000065,false,Rx,0,8,00,00,00,00,00,00,00,00,
8280356,00000092,false,Rx,0,8,0C,0F,00,00,10,00,28,00,
8280595,000000A2,false,Rx,0,8,A0,0E,00,00,00,00,24,09,
8280889,00000072,false,Rx,0,8,00,00,00,00,05,9D,01,A4,
8281074,000000A4,false,Rx,0,8,00,00,00,00,27,FE,10,00,
8281332,000000A8,false,Rx,0,8,6D,0F,00,00,00,00,00,00,
8281566,000001D4,false,Rx,0,8,00,00,00,00,00,00,00,00,
8282099,00000205,false,Rx,0,8,37,02,1B,FF,3F,FF,3F,FE,
8282704,00000041,false,Rx,0,8,85,08,01,4C,00,00,00,00,
8282897,0000000D,false,Rx,0,8,9A,00,03,E8,03,E8,00,00,
8285743,000000A3,false,Rx,0,8,47,0F,00,00,00,00,00,00,
8285763,00000066,false,Rx,0,8,00,00,00,00,00,00,00,00,
8286025,000000D9,false,Rx,0,8,00,00,09,A6,01,01,00,00,
8286497,00000088,false,Rx,0,8,24,03,01,C1,C5,66,C6,D0,
8286513,0000008A,false,Rx,0,8,00,00,03,96,02,93,00,00,
8286720,0000008C,false,Rx,0,8,46,03,01,51,3A,83,8C,12,
8287205,0000008E,false,Rx,0,8,00,01,03,FF,00,00,00,7C,
8287226,00000090,false,Rx,0,8,00,00,01,A2,00,00,00,00,
8287468,00000096,false,Rx,0,8,0D,17,01,A0,00,00,00,00,
8287707,00000013,false,Rx,0,8,90,FA,00,00,00,00,00,00,
8288195,00000036,false,Rx,0,8,70,3F,00,00,00,00,00,00,
8288211,00000050,false,Rx,0,8,F7,0D,09,80,00,80,B4,50,
8288421,00000084,false,Rx,0,8,CD,56,79,00,00,00,00,00,
8288673,00000098,false,Rx,0,8,06,43,00,00,07,E8,03,E8,
8288913,000000AA,false,Rx,0,8,A2,06,00,FA,3F,FE,3F,FF,
8289153,000000C8,false,Rx,0,8,12,03,00,00,00,00,7F,FA,
8289392,00000044,false,Rx,0,8,6B,3E,07,8E,FF,46,00,00,
8289643,00000063,false,Rx,0,8,00,00,00,00,00,00,00,00,
8289884,00000065,false,Rx,0,8,00,00,00,00,00,00,00,00,
8290129,000000A2,false,Rx,0,8,BD,0F,00,00,00,00,24,09,
8290363,000000CA,false,Rx,0,8,0C,01,A1,0D,A1,80,00,23,
8290608,000000DB,false,Rx,0,8,00,50,00,00,01,A6,00,00,
8290890,000000EA,false,Rx,0,8,2C,53,00,00,00,00,00,00,
8291075,00000143,false,Rx,0,8,E5,07,01,A1,43,40,01,A6,
8291327,0000015B,false,Rx,0,8,00,08,00,01,00,6C,00,96,
8291567,000002DD,false,Rx,0,8,A6,05,FF,40,0F,FC,00,00,
8292679,00000041,false,Rx,0,8,0A,09,01,4C,00,00,00,00,
8292905,0000000D,false,Rx,0,8,F0,01,03,E8,03,E8,00,00,
8293166,00000067,false,Rx,0,8,FB,3C,00,00,00,00,00,00,
8294886,00000104,false,Rx,0,8,00,00,00,04,00,00,00,00,
8295611,000000A3,false,Rx,0,8,FC,00,00,00,00,00,00,00,
8295762,00000066,false,Rx,0,8,00,00,00,00,00,00,00,00,
8297689,00000013,false,Rx,0,8,0D,FB,00,00,00,00,00,00,
8297896,000000AA,false,Rx,0,8,FF,07,00,FA,3F,FE,3F,FF,
8298143,000002DD,false,Rx,0,8,6C,06,FF,40,0F,FC,00,00,
8299261,000001A1,false,Rx,0,8,60,0B,26,00,02,82,02,00,
8299330,00000092,false,Rx,0,8,8A,00,00,00,10,00,28,00,
8299803,00000044,false,Rx,0,8,64,3F,07,F2,FF,45,00,00,
8299850,00000063,false,Rx,0,8,00,00,00,00,00,00,00,00,
8300466,00000065,false,Rx,0,8,00,00,00,00,00,00,00,00,
8300481,000000A2,false,Rx,0,8,06,00,00,00,00,00,24,09,
8300585,000000A4,false,Rx,0,8,00,00,00,00,27,FE,10,00,
8300890,00000072,false,Rx,0,8,00,00,00,00,05,9D,01,A4,
8301077,000000A8,false,Rx,0,8,EB,00,00,00,00,00,00,00,
8301333,000000E8,false,Rx,0,8,00,00,03,9C,00,14,00,00,
8301572,00000154,false,Rx,0,8,00,00,00,00,80,4E,4E,6F,
8302096,00000217,false,Rx,0,8,00,00,00,02,00,03,00,04,
8302112,00000230,false,Rx,0,8,00,00,00,00,01,01,01,00,
8302316,0000025F,false,Rx,0,8,00,00,00,00,00,00,00,00,
8302862,00000041,false,Rx,0,8,86,0A,01,4C,00,00,00,00,
8302882,0000000D,false,Rx,0,8,4E,02,03,E8,03,E8,00,00,
8304870,00000183,false,Rx,0,8,0A,0A,00,5A,40,00,00,8C,
8305474,000000A3,false,Rx,0,8,E1,01,00,00,00,00,00,00,
8305964,00000066,false,Rx,0,8,00,00,00,00,00,00,00,00,
8305980,000000D9,false,Rx,0,8,00,00,09,A6,01,01,00,00,
8306201,00000088,false,Rx,0,8,F7,05,01,C1,C5,66,C6,D0,
8306898,0000008A,false,Rx,0,8,00,00,03,96,02,93,00,00,
8306916,0000008C,false,Rx,0,8,95,05,01,51,3A,83,8C,12,
8306923,0000008E,false,Rx,0,8,00,01,03,FF,00,00,00,7C,
8307184,00000090,false,Rx,0,8,00,00,01,A2,00,00,00,00,
8307411,00000096,false,Rx,0,8,8B,18,01,A0,00,00,00,00,
8308007,00000098,false,Rx,0,8,B3,45,00,00,07,E8,03,E8,
8308024,00000013,false,Rx,0,8,F9,FC,00,00,00,00,00,00,
8308141,00000036,false,Rx,0,8,D3,30,00,00,00,00,00,00,
8308578,00000050,false,Rx,0,8,49,0E,09,80,00,80,B4,50,
8308604,00000011,false,Rx,0,8,C7,EE,0C,C4,00,00,00,00,
8308890,00000084,false,Rx,0,8,50,57,79,00,00,00,00,00,
8309100,000000AA,false,Rx,0,8,A3,08,00,FA,3F,FE,3F,FF,
8309357,000000C8,false,Rx,0,8,92,05,00,00,00,00,7F,FD,
8309590,00000044,false,Rx,0,8,86,30,08,56,FF,45,00,00,
8309891,00000063,false,Rx,0,8,00,00,00,00,00,00,00,00,
8310095,00000065,false,Rx,0,8,00,00,00,00,00,00,00,00,
8310334,000000A2,false,Rx,0,8,1B,01,00,00,00,00,24,09,
8310568,000000CA,false,Rx,0,8,95,01,A1,15,A1,80,00,23,
8310808,000000DB,false,Rx,0,8,00,51,00,00,01,A6,00,00,
8311051,000000DD,false,Rx,0,8,00,0A,00,0A,FE,0B,03,E6,
8311487,000000EF,false,Rx,0,8,00,00,0E,51,F3,00,00,00,
8311513,000000FB,false,Rx,0,8,00,04,00,00,00,00,00,00,
8312293,00000135,false,Rx,0,8,6C,15,00,00,00,00,00,00,
8312310,0000013D,false,Rx,0,8,00,00,00,00,00,00,00,00,
8312312,0000015B,false,Rx,0,8,00,08,00,01,00,6C,00,96,
8312510,0000013F,false,Rx,0,8,00,00,00,00,00,00,00,00,
8312768,00000041,false,Rx,0,8,09,0B,01,4C,00,00,00,00,
8313009,0000000D,false,Rx,0,8,24,03,03,E8,03,E8,00,00,
8313253,00000067,false,Rx,0,8,74,3D,00,00,00,00,00,00,
8313470,00000143,false,Rx,0,8,63,08,01,A1,43,40,01,A6,
8314068,00000191,false,Rx,0,8,00,AD,01,17,00,00,00,00,
8314084,00000159,false,Rx,0,8,91,0F,45,58,00,02,06,4B,
8314190,000002DD,false,Rx,0,8,2A,07,FF,40,0F,FC,00,00,
8314648,00000304,false,Rx,0,8,00,00,00,00,00,00,00,00,
8315778,000000A3,false,Rx,0,8,C6,02,00,00,00,00,00,00,
8315879,00000066,false,Rx,0,8,00,00,00,00,00,00,00,00,
8316042,00000110,false,Rx,0,8,00,00,00,01,83,60,02,49,
8318001,00000013,false,Rx,0,8,64,FD,00,00,00,00,00,00,
8318017,000000AA,false,Rx,0,8,FE,09,00,FA,3F,FE,3F,FF,
8318131,000002DD,false,Rx,0,8,EF,08,FF,40,0F,FC,00,00,
8319640,00000092,false,Rx,0,8,05,01,00,00,10,00,28,00,
8319655,00000044,false,Rx,0,8,FA,31,08,B9,FF,45,00,00,
8319891,00000063,false,Rx,0,8,00,00,00,00,00,00,00,00,
8320374,00000065,false,Rx,0,8,00,00,00,00,00,00,00,00,
8320391,000000A2,false,Rx,0,8,3C,02,00,00,00,00,24,09,
8320615,000000A4,false,Rx,0,8,00,00,00,00,27,FE,10,00,
8320879,00000072,false,Rx,0,8,00,00,00,00,05,9D,01,A4,
8321103,000000A8,false,Rx,0,8,64,01,00,00,00,00,00,00,
8321607,000001D5,false,Rx,0,8,00,00,00,00,00,00,00,4F,
8321623,000001DF,false,Rx,0,8,00,00,00,00,00,00,00,4E,
8321890,000002B4,false,Rx,0,8,00,00,00,0C,1F,18,3C,FF,
8322664,00000041,false,Rx,0,8,83,0C,01,4C,00,00,00,00,
8322909,0000000D,false,Rx,0,8,2F,04,03,E8,03,E8,00,00,
8325492,000000A3,false,Rx,0,8,DB,03,00,00,00,00,00,00,
8325733,00000066,false,Rx,0,8,00,00,00,00,00,00,00,00,
8325975,000000D9,false,Rx,0,8,00,00,09,A6,01,01,00,00,
8326402,00000088,false,Rx,0,8,4D,07,01,C1,C5,66,C6,D0,
8326428,0000008A,false,Rx,0,8,00,00,03,96,02,93,00,00,
8326678,0000008C,false,Rx,0,8,2F,07,01,51,3A,83,8C,12,
8327308,0000008E,false,Rx,0,8,00,01,03,FF,00,00,00,7C,
8327324,00000090,false,Rx,0,8,00,00,01,A2,00,00,00,00,
8327411,00000096,false,Rx,0,8,04,19,01,A0,00,00,00,00,
8327840,00000098,false,Rx,0,8,2B,47,00,00,07,E8,03,E8,
8327878,00000013,false,Rx,0,8,DE,FE,00,00,00,00,00,00,
8328343,00000036,false,Rx,0,8,9F,31,00,00,00,00,00,00,
8328370,00000050,false,Rx,0,8,23,0F,09,80,00,80,B4,50,
8328637,00000084,false,Rx,0,8,38,58,79,00,00,00,00,00,
8328879,000000AA,false,Rx,0,8,19,0A,00,FA,3F,FE,3F,FF,
8329107,000000C8,false,Rx,0,8,28,07,00,00,00,00,7F,FD,
8329614,000000CA,false,Rx,0,8,FF,01,A1,1D,A1,80,00,22,
8329632,00000065,false,Rx,0,8,00,00,00,00,00,00,00,00,
8329891,00000044,false,Rx,0,8,08,32,09,1D,FF,46,00,00,
8330378,00000063,false,Rx,0,8,00,00,00,00,00,00,00,00,
8330392,000000A2,false,Rx,0,8,21,03,00,00,00,00,24,09,
8330823,000000DB,false,Rx,0,8,00,52,00,00,01,A6,00,00,
8330864,000000EA,false,Rx,0,8,01,57,00,00,00,00,00,00,
8331286,000000EC,false,Rx,0,8,00,00,01,56,01,E7,90,91,
8331306,00000109,false,Rx,0,8,00,00,00,00,00,18,00,02,
8331553,000000F7,false,Rx,0,8,01,A6,00,00,00,00,00,00,
8332241,0000015B,false,Rx,0,8,00,08,00,01,00,6C,00,96,
8332257,00000143,false,Rx,0,8,EC,09,01,A1,43,40,01,A6,
8332265,0000019A,false,Rx,0,8,1A,07,01,A1,00,01,00,00,
8332517,000002DD,false,Rx,0,8,A9,09,FF,40,0F,FC,00,00,
8332751,00000041,false,Rx,0,8,0C,0D,01,4C,00,00,00,00,
8333003,0000000D,false,Rx,0,8,45,05,03,E8,03,E8,00,00,
8333254,00000067,false,Rx,0,8,F8,3E,00,00,00,00,00,00,
8334589,00000104,false,Rx,0,8,00,00,00,04,00,00,00,00,
8335749,000000A3,false,Rx,0,8,88,04,00,00,00,00,00,00,
8335771,00000066,false,Rx,0,8,00,00,00,00,00,00,00,00,
8337248,000001B1,false,Rx,0,8,00,00,10,00,00,00,00,00,
8337264,000001B2,false,Rx,0,8,00,00,00,00,00,00,00,00,
8337997,00000013,false,Rx,0,8,43,FF,00,00,00,00,00,00,
8338014,000000AA,false,Rx,0,8,44,0B,00,FA,3F,FE,3F,FF,
8338131,000002DD,false,Rx,0,8,63,0A,FF,40,0F,FC,00,00,
8339129,0000013B,false,Rx,0,8,00,00,00,00,22,74,B8,25,
8339341,000001A1,false,Rx,0,8,66,0F,26,00,02,82,02,00,
8339999,00000044,false,Rx,0,8,B0,33,09,81,FF,46,00,00,
8340016,00000063,false,Rx,0,8,00,00,00,00,00,00,00,00,
8340057,00000065,false,Rx,0,8,00,00,00,00,00,00,00,00,
8340562,00000092,false,Rx,0,8,89,02,00,00,10,00,28,00,
8340578,000000A2,false,Rx,0,8,72,04,00,00,00,00,24,09,
8340891,00000072,false,Rx,0,8,00,00,00,00,05,9D,01,A4,
8341046,000000A4,false,Rx,0,8,00,00,00,00,27,FE,10,00,
8341317,000000A8,false,Rx,0,8,E8,02,00,00,00,00,00,00,
8341564,000000E8,false,Rx,0,8,00,00,03,9C,00,14,00,00,
8341800,0000012E,false,Rx,0,8,00,00,01,FE,01,FE,00,00,
8342040,00000177,false,Rx,0,8,44,3A,00,00,41,00,3A,6C,
8342286,00000200,false,Rx,0,8,00,00,00,01,7F,4B,FE,32,
8342531,00000522,false,Rx,0,8,01,12,00,1B,00,00,00,00,
8342770,0000000D,false,Rx,0,8,FB,06,03,E8,03,E8,00,00,
8343016,00000041,false,Rx,0,8,80,0E,01,4C,00,00,00,00,
8345514,000000A3,false,Rx,0,8,95,05,00,00,00,00,00,00,
8345765,00000066,false,Rx,0,8,00,00,00,00,00,00,00,00,
8346206,000000D9,false,Rx,0,8,00,00,09,A6,01,01,00,00,
8346226,00000088,false,Rx,0,8,4C,09,01,C1,C5,66,C6,D0,
8346649,0000008A,false,Rx,0,8,00,00,03,96,02,93,00,00,
8346677,0000008C,false,Rx,0,8,2E,09,01,51,3A,83,8C,12,
8347171,0000008E,false,Rx,0,8,00,01,03,FF,00,00,00,7C,
8347191,00000090,false,Rx,0,8,00,00,01,A2,00,00,00,00,
8347439,00000096,false,Rx,0,8,88,1A,01,A0,00,00,00,00,
8347677,00000098,false,Rx,0,8,C4,49,00,00,07,E8,03,E8,
8347927,00000013,false,Rx,0,8,2B,F0,00,00,00,00,00,00,
8348166,00000036,false,Rx,0,8,4B,32,00,00,00,00,00,00,
8348405,00000011,false,Rx,0,8,AD,EF,0C,C4,00,00,00,00,
8348647,00000050,false,Rx,0,8,5F,00,09,80,00,80,B4,50,
8348898,00000084,false,Rx,0,8,A5,59,79,00,00,00,00,00,
8349127,000000AA,false,Rx,0,8,CA,0C,00,FA,3F,FE,3F,FF,
8349372,000000C8,false,Rx,0,8,29,09,00,00,00,00,7F,FD,
8349612,00000044,false,Rx,0,8,46,34,09,E6,FF,45,00,00,
8349892,00000063,false,Rx,0,8,00,00,00,00,00,00,00,00,
8350119,00000065,false,Rx,0,8,00,00,00,00,00,00,00,00,
8350359,000000A2,false,Rx,0,8,6F,05,00,00,00,00,24,09,
8350586,000000CA,false,Rx,0,8,E9,01,A1,25,A1,80,00,24,
8350955,000000DB,false,Rx,0,8,00,53,00,00,01,A6,00,00,
8351157,000000DD,false,Rx,0,8,00,0A,00,0A,FE,0B,03,E6,
8351323,000000FB,false,Rx,0,8,00,05,00,00,00,00,00,00,
8351569,0000015B,false,Rx,0,8,00,08,00,01,00,6C,00,96,
8351785,00000143,false,Rx,0,8,60,0A,01,A1,43,40,01,A6,
8352045,00000206,false,Rx,0,8,00,00,00,00,00,00,01,A6,
8352285,000002DD,false,Rx,0,8,25,0B,FF,40,0F,FC,00,00,
8352673,00000041,false,Rx,0,8,0F,0F,01,4C,00,00,00,00,
8352904,0000000D,false,Rx,0,8,91,07,03,E8,03,E8,00,00,
8353409,00000067,false,Rx,0,8,77,3F,00,00,00,00,00,00,
8354640,0000029E,false,Rx,0,8,00,00,00,00,00,00,00,00,
8354892,00000115,false,Rx,0,8,00,00,00,00,00,00,01,00,
8355118,00000183,false,Rx,0,8,0A,0A,00,5A,40,00,00,8C,
8355365,000001A3,false,Rx,0,8,00,00,00,78,82,01,00,91,
8355610,000000A3,false,Rx,0,8,B2,06,00,00,00,00,00,00,
8355892,00000066,false,Rx,0,8,00,00,00,00,00,00,00,00,
8357753,00000013,false,Rx,0,8,B6,F1,00,00,00,00,00,00,
8357918,000000AA,false,Rx,0,8,97,0D,00,FA,3F,FE,3F,FF,
8358128,000002DD,false,Rx,0,8,EA,0C,FF,40,0F,FC,00,00,
8359372,00000092,false,Rx,0,8,06,03,00,00,10,00,28,00,
8359605,00000044,false,Rx,0,8,E0,35,0A,49,FF,45,00,00,
8359880,00000063,false,Rx,0,8,00,00,00,00,00,00,00,00,
8360107,00000065,false,Rx,0,8,00,00,00,00,00,00,00,00,
8360347,000000A2,false,Rx,0,8,48,06,00,00,00,00,24,09,
8360592,00000072,false,Rx,0,8,00,00,00,00,05,9D,01,A4,
8360881,000000A4,false,Rx,0,8,00,00,00,00,27,FE,10,00,
8361084,000000A8,false,Rx,0,8,67,03,00,00,00,00,00,00,
8362658,00000041,false,Rx,0,8,89,00,01,4C,00,00,00,00,
8362893,0000000D,false,Rx,0,8,ED,08,03,E8,03,E8,00,00,
8365459,000000A3,false,Rx,0,8,AF,07,00,00,00,00,00,00,
8365713,00000066,false,Rx,0,8,00,00,00,00,00,00,00,00,
8365954,000000D9,false,Rx,0,8,00,00,09,A6,01,01,00,00,
8366185,00000088,false,Rx,0,8,F6,0B,01,C1,C5,66,C6,D0,
8366429,0000008A,false,Rx,0,8,00,00,03,96,02,93,00,00,
8366663,0000008C,false,Rx,0,8,94,0B,01,51,3A,83,8C,12,
8366910,0000008E,false,Rx,0,8,00,01,03,FF,00,00,00,7C,
8367155,00000090,false,Rx,0,8,00,00,01,A2,00,00,00,00,
8367400,00000096,false,Rx,0,8,07,1B,01,A0,00,00,00,00,
8367648,00000098,false,Rx,0,8,5C,4B,00,00,07,E8,03,E8,
8367886,00000013,false,Rx,0,8,0C,F2,00,00,00,00,00,00,
8368131,00000036,false,Rx,0,8,07,33,00,00,00,00,00,00,
8368376,00000050,false,Rx,0,8,35,01,09,80,00,80,B4,50,
8368615,00000084,false,Rx,0,8,1F,5A,79,00,00,00,00,00,
8368881,000000AA,false,Rx,0,8,70,0E,00,FA,3F,FE,3F,FF,
8369083,000000C8,false,Rx,0,8,93,0B,00,00,00,00,7F,FD,
8369324,000000CA,false,Rx,0,8,CD,01,A1,2D,A1,80,00,23,
8369570,00000044,false,Rx,0,8,C8,36,0A,AD,FF,45,00,00,
8369882,00000063,false,Rx,0,8,00,00,00,00,00,00,00,00,
8370067,00000065,false,Rx,0,8,00,00,00,00,00,00,00,00,
8370313,000000A2,false,Rx,0,8,55,07,00,00,00,00,24,09,
8370552,000000DB,false,Rx,0,8,00,54,00,00,01,A6,00,00,
8370791,000000EA,false,Rx,0,8,76,5B,00,00,00,00,00,00,
8371035,00000110,false,Rx,0,8,00,00,00,01,83,60,02,49,
8371281,00000130,false,Rx,0,8,00,00,00,20,00,4B,00,00,
8371532,00000132,false,Rx,0,8,00,00,00,00,00,00,00,00,
8371789,00000134,false,Rx,0,8,00,00,00,00,00,00,0F,FF,
8372018,00000143,false,Rx,0,8,EF,0B,01,A1,43,40,01,A6,
8372257,00000146,false,Rx,0,8,00,65,03,FF,03,FF,00,00,
8372490,00000148,false,Rx,0,8,00,00,00,74,C8,74,74,74,
8372735,00000041,false,Rx,0,8,06,01,01,4C,00,00,00,00,
8372976,0000000D,false,Rx,0,8,87,09,03,E8,03,E8,00,00,
8373221,00000067,false,Rx,0,8,F1,30,00,00,00,00,00,00,
8373466,00000149,false,Rx,0,8,00,00,00,00,00,00,08,4D,
8373706,0000014C,false,Rx,0,8,00,00,10,68,0F,15,0F,1F,
8373958,0000014E,false,Rx,0,8,00,00,00,00,00,00,00,00,
8374197,0000015B,false,Rx,0,8,00,08,00,01,00,6C,00,96,
8374443,00000160,false,Rx,0,8,00,00,00,28,1F,D8,0F,FF,
8374694,00000104,false,Rx,0,8,00,00,00,04,00,00,00,00,
8374934,00000162,false,Rx,0,8,00,1C,28,01,12,5E,00,00,
8375180,00000164,false,Rx,0,8,00,00,00,00,00,41,06,49,
8375426,00000166,false,Rx,0,8,00,00,03,C0,00,00,00,00,
8375676,00000066,false,Rx,0,8,00,00,00,00,00,00,00,00,
8375922,000000A3,false,Rx,0,8,14,08,00,00,00,00,00,00,
8376162,00000171,false,Rx,0,8,00,00,07,74,28,01,00,00,
8376395,0000027A,false,Rx,0,8,1A,04,0F,1C,0F,1A,0F,1C,
8376641,0000027E,false,Rx,0,8,1A,10,74,74,00,00,00,00,
8376887,000002DD,false,Rx,0,8,AC,0D,FF,40,0F,FC,00,00,
8377120,00000310,false,Rx,0,8,05,0D,06,DA,06,DA,00,1F,
8377360,000000EC,false,Rx,0,8,00,00,01,56,01,E7,90,91,
8377606,00000318,false,Rx,0,8,00,00,00,00,05,49,01,01,
8377882,00000013,false,Rx,0,8,91,F3,00,00,00,00,00,00,
8378087,000000AA,false,Rx,0,8,2D,0F,00,FA,3F,FE,3F,FF,
8378331,000000F7,false,Rx,0,8,01,A6,00,00,00,00,00,00,
8378576,000002DD,false,Rx,0,8,66,0E,FF,40,0F,FC,00,00,
8378880,00000350,false,Rx,0,8,00,40,00,08,00,74,52,73,
8379048,00000352,false,Rx,0,8,45,01,03,CA,03,C0,00,00,
8379288,000001A1,false,Rx,0,8,6C,03,26,00,02,82,02,00,
8379528,00000044,false,Rx,0,8,FA,37,0B,11,FF,46,00,00,
8379779,00000063,false,Rx,0,8,00,00,00,00,00,00,00,00,
8380029,00000065,false,Rx,0,8,00,00,00,00,00,00,00,00,
8380268,00000092,false,Rx,0,8,8C,04,00,00,10,00,28,00,
8380514,000000A2,false,Rx,0,8,EE,08,00,00,00,00,24,09,
8380759,000000A4,false,Rx,0,8,00,00,00,00,27,FE,10,00,
8381014,000000A8,false,Rx,0,8,ED,04,00,00,00,00,00,00,
8381257,00000400,false,Rx,0,8,1F,00,00,02,00,00,03,00,
8381502,00000072,false,Rx,0,8,00,00,00,00,05,9D,01,A4,
8381747,000000E8,false,Rx,0,8,00,00,03,9C,00,14,00,00,
8382652,00000041,false,Rx,0,8,8A,02,01,4C,00,00,00,00,
8382893,0000000D,false,Rx,0,8,39,0A,03,E8,03,E8,00,00,
8385497,000000A3,false,Rx,0,8,09,09,00,00,00,00,00,00,
8385748,00000066,false,Rx,0,8,00,00,00,00,00,00,00,00,
8385987,000000D9,false,Rx,0,8,00,00,09,A6,01,01,00,00,
8386220,00000088,false,Rx,0,8,25,0D,01,C1,C5,66,C6,D0,
8386444,0000008A,false,Rx,0,8,00,00,03,96,02,93,00,00,
8386693,0000008C,false,Rx,0,8,47,0D,01,51,3A,83,8C,12,
8386940,0000008E,false,Rx,0,8,00,01,03,FF,00,00,00,7C,
8387185,00000090,false,Rx,0,8,00,00,01,A2,00,00,00,00,
8387430,00000096,false,Rx,0,8,8D,1C,01,A0,00,00,00,00,
8387669,00000098,false,Rx,0,8,E9,4D,00,00,07,E8,03,E8,
8387916,00000013,false,Rx,0,8,65,F4,00,00,00,00,00,00,
8388162,00000036,false,Rx,0,8,FE,34,00,00,00,00,00,00,
8388395,00000050,false,Rx,0,8,8B,02,09,80,00,80,B4,50,
8388634,00000011,false,Rx,0,8,D1,E0,0C,C4,00,00,00,00,
8388868,00000084,false,Rx,0,8,82,5B,79,00,00,00,00,00,
8389102,000000AA,false,Rx,0,8,71,00,00,FA,3F,FE,3F,FF,
8389347,000000C8,false,Rx,0,8,13,0D,00,00,00,00,7F,FA,
8389586,00000044,false,Rx,0,8,D0,38,0B,75,FF,46,00,00,
8389868,00000063,false,Rx,0,8,00,00,00,00,00,00,00,00,
8390090,00000065,false,Rx,0,8,00,00,00,00,00,00,00,00,
8390323,000000A2,false,Rx,0,8,F3,09,00,00,00,00,24,09,
8390557,000000CA,false,Rx,0,8,54,01,A1,35,A1,80,00,23,
8390868,000000DB,false,Rx,0,8,00,55,00,00,01,A6,00,00,
8391036,000000DD,false,Rx,0,8,00,0A,00,0A,FE,0B,03,E6,
8391281,000000EF,false,Rx,0,8,00,00,0E,51,F3,00,00,00,
8391527,000000FB,false,Rx,0,8,00,06,00,00,00,00,00,00,
8391772,00000109,false,Rx,0,8,00,00,00,00,00,18,00,02,
8392020,00000135,false,Rx,0,8,4B,16,00,00,00,00,00,00,
8392262,0000013D,false,Rx,0,8,00,00,00,00,00,00,00,00,
8392507,0000015B,false,Rx,0,8,00,08,00,01,00,6C,00,96,
8392766,00000041,false,Rx,0,8,05,03,01,4C,00,00,00,00,
8393014,0000000D,false,Rx,0,8,53,0B,03,E8,03,E8,00,00,
8393252,00000067,false,Rx,0,8,7E,31,00,00,00,00,00,00,
8393503,0000013F,false,Rx,0,8,00,00,00,00,00,00,00,00,
8393735,00000191,false,Rx,0,8,00,AD,01,17,00,00,00,00,
8393963,00000143,false,Rx,0,8,65,0C,01,A1,43,40,01,A6,
8394210,000002DD,false,Rx,0,8,20,0F,FF,40,0F,FC,00,00,
8395521,000000A3,false,Rx,0,8,2E,0A,00,00,00,00,00,00,
8395772,00000066,false,Rx,0,8,00,00,00,00,00,00,00,00,
8397647,00000013,false,Rx,0,8,F8,F5,00,00,00,00,00,00,
8397889,000000AA,false,Rx,0,8,2C,01,00,FA,3F,FE,3F,FF,
8398138,000002DD,false,Rx,0,8,E5,00,FF,40,0F,FC,00,00,
8399004,000001D3,false,Rx,0,8,00,00,00,00,00,00,00,00,
8399345,00000092,false,Rx,0,8,03,05,00,00,10,00,28,00,
8399584,00000044,false,Rx,0,8,67,39,0B,D9,FF,45,00,00,
8399868,00000063,false,Rx,0,8,00,00,00,00,00,00,00,00,
8400083,00000065,false,Rx,0,8,00,00,00,00,00,00,00,00,
8400328,000000A2,false,Rx,0,8,D4,0A,00,00,00,00,24,09,
8400568,00000072,false,Rx,0,8,00,00,00,00,05,9D,01,A4,
8400877,000000A4,false,Rx,0,8,00,00,00,00,27,FE,10,00,
8401091,000000A8,false,Rx,0,8,62,05,00,00,00,00,00,00,
8401313,00000154,false,Rx,0,8,00,00,00,00,80,4E,4E,6F,
8401558,000001D1,false,Rx,0,8,00,00,7F,7F,7F,7F,FF,C0,
8401876,000001D2,false,Rx,0,8,00,00,00,00,00,00,00,00,
8402062,000001D4,false,Rx,0,8,00,00,00,00,00,00,00,00,
8402649,00000041,false,Rx,0,8,8F,04,01,4C,00,00,00,00,
8402880,0000000D,false,Rx,0,8,58,0C,03,E8,03,E8,00,00,
8404554,00000183,false,Rx,0,8,0A,0A,00,5A,40,00,00,8C,
8405478,000000A3,false,Rx,0,8,33,0B,00,00,00,00,00,00,
8405729,00000066,false,Rx,0,8,00,00,00,00,00,00,00,00,
8405971,000000D9,false,Rx,0,8,00,00,09,A6,01,01,00,00,
8406205,00000088,false,Rx,0,8,9F,0F,01,C1,C5,66,C6,D0,
8406449,0000008A,false,Rx,0,8,00,00,03,96,02,93,00,00,
8406682,0000008C,false,Rx,0,8,FD,0F,01,51,3A,83,8C,12,
8406929,0000008E,false,Rx,0,8,00,01,03,FF,00,00,00,7C,
8407175,00000090,false,Rx,0,8,00,00,01,A2,00,00,00,00,
8407414,00000096,false,Rx,0,8,02,1D,01,A0,00,00,00,00,
8407653,00000098,false,Rx,0,8,71,4F,00,00,07,E8,03,E8,
8407900,00000013,false,Rx,0,8,42,F6,00,00,00,00,00,00,
8408139,00000036,false,Rx,0,8,B2,35,00,00,00,00,00,00,
8408378,00000050,false,Rx,0,8,E1,03,09,80,00,80,B4,50,
8408621,00000084,false,Rx,0,8,76,5C,79,00,00,00,00,00,
8408869,000000AA,false,Rx,0,8,CB,02,00,FA,3F,FE,3F,FF,
8409097,000000C8,false,Rx,0,8,FA,0F,00,00,00,00,7F,FD,
8409330,000000CA,false,Rx,0,8,70,01,A1,3D,A1,80,00,24,
8409563,00000044,false,Rx,0,8,BB,3A,0C,3D,FF,45,00,00,
8409868,00000063,false,Rx,0,8,00,00,00,00,00,00,00,00,
8410066,00000065,false,Rx,0,8,00,00,00,00,00,00,00,00,
8410305,000000A2,false,Rx,0,8,C9,0B,00,00,00,00,24,09,
8410544,000000DB,false,Rx,0,8,00,56,00,00,01,A6,00,00,
8410869,000000EA,false,Rx,0,8,5B,5F,00,00,00,00,00,00,
8411015,00000143,false,Rx,0,8,EA,0D,01,A1,43,40,01,A6,
8411258,0000015B,false,Rx,0,8,00,08,00,01,00,6C,00,96,
8411503,00000207,false,Rx,0,8,48,00,00,00,00,00,1C,5A,
8411743,000002DD,false,Rx,0,8,A3,01,FF,40,0F,FC,00,00,
8412651,00000041,false,Rx,0,8,00,05,01,4C,00,00,00,00,
8412892,0000000D,false,Rx,0,8,32,0D,03,E8,03,E8,00,00,
8413138,00000067,false,Rx,0,8,F2,32,00,00,00,00,00,00,
8414577,00000104,false,Rx,0,8,00,00,00,04,00,00,00,00,
8415514,000000A3,false,Rx,0,8,60,0C,00,00,00,00,00,00,
8415753,00000066,false,Rx,0,8,00,00,00,00,00,00,00,00,
8415989,00000110,false,Rx,0,8,00,00,00,01,83,60,02,49,
8417652,00000013,false,Rx,0,8,DF,F7,00,00,00,00,00,00,
8417868,000000AA,false,Rx,0,8,96,03,00,FA,3F,FE,3F,FF,
8418133,000002DD,false,Rx,0,8,69,02,FF,40,0F,FC,00,00,
8419065,0000013B,false,Rx,0,8,00,00,00,00,22,74,B8,26,
8419308,000001A1,false,Rx,0,8,6A,07,26,00,02,82,02,00,
8419543,00000044,false,Rx,0,8,03,3B,0C,A1,FF,45,00,00,
8419799,00000063,false,Rx,0,8,00,00,00,00,00,00,00,00,
8420042,00000065,false,Rx,0,8,00,00,00,00,00,00,00,00,
8420288,00000092,false,Rx,0,8,8F,06,00,00,10,00,28,00,
8420533,000000A2,false,Rx,0,8,9A,0C,00,00,00,00,24,09,
8420778,00000072,false,Rx,0,8,00,00,00,00,05,9D,01,A4,
8421040,000000A4,false,Rx,0,8,00,00,00,00,27,FE,10,00,
8421269,000000A8,false,Rx,0,8,EE,06,00,00,00,00,00,00,
8421514,000000E8,false,Rx,0,8,00,00,03,9C,00,14,00,00,
8422653,00000041,false,Rx,0,8,8C,06,01,4C,00,00,00,00,
8422888,0000000D,false,Rx,0,8,8C,0E,03,E8,03,E8,00,00,
8425478,000000A3,false,Rx,0,8,7D,0D,00,00,00,00,00,00,
8425724,00000066,false,Rx,0,8,00,00,00,00,00,00,00,00,
8425967,000000D9,false,Rx,0,8,00,00,09,A6,01,01,00,00,
8426198,00000088,false,Rx,0,8,9E,01,01,C1,C5,66,C6,D0,
8426434,0000008A,false,Rx,0,8,00,00,03,96,02,93,00,00,
8426675,0000008C,false,Rx,0,8,FC,01,01,51,3A,83,8C,12,
8426920,0000008E,false,Rx,0,8,00,01,03,FF,00,00,00,7C,
8427159,00000090,false,Rx,0,8,00,00,01,A2,00,00,00,00,
8427398,00000096,false,Rx,0,8,8E,1E,01,A0,00,00,00,00,
8427640,00000098,false,Rx,0,8,9E,41,00,00,07,E8,03,E8,
8427900,00000013,false,Rx,0,8,B7,F8,00,00,00,00,00,00,
8428139,00000036,false,Rx,0,8,66,36,00,00,00,00,00,00,
8428378,00000011,false,Rx,0,8,BB,E1,0C,C4,00,00,00,00,
8428613,00000050,false,Rx,0,8,EA,04,09,80,00,80,B4,50,
8428877,00000084,false,Rx,0,8,EB,5D,79,00,00,00,00,00,
8429107,000000AA,false,Rx,0,8,18,04,00,FA,3F,FE,3F,FF,
8429344,000000C8,false,Rx,0,8,FB,01,00,00,00,00,7F,FD,
8429587,00000044,false,Rx,0,8,63,3C,0D,05,FF,45,00,00,
8429886,00000063,false,Rx,0,8,00,00,00,00,00,00,00,00,
8430094,00000065,false,Rx,0,8,00,00,00,00,00,00,00,00,
8430334,000000A2,false,Rx,0,8,87,0D,00,00,00,00,24,09,
8430562,000000CA,false,Rx,0,8,28,01,A1,05,A1,80,00,24,
8430881,000000DB,false,Rx,0,8,00,57,00,00,01,A6,00,00,
8431045,000000DD,false,Rx,0,8,00,0A,00,0A,FE,0B,03,E6,
8431277,000000EC,false,Rx,0,8,00,00,01,56,01,E7,90,91,
8431523,0000015B,false,Rx,0,8,00,08,00,01,00,6C,00,96,
8431768,000000F7,false,Rx,0,8,01,A6,00,00,00,00,00,00,
8432027,0000019A,false,Rx,0,8,46,08,01,A1,00,01,00,00,
8432264,000000FB,false,Rx,0,8,00,07,00,00,00,00,00,00,
8432519,000002DD,false,Rx,0,8,2F,03,FF,40,0F,FC,00,00,
8432771,00000041,false,Rx,0,8,03,07,01,4C,00,00,00,00,
8433001,0000000D,false,Rx,0,8,E6,0F,03,E8,03,E8,00,00,
8433519,00000067,false,Rx,0,8,7D,33,00,00,00,00,00,00,
8433534,00000143,false,Rx,0,8,66,0E,01,A1,43,40,01,A6,
8433724,000002F2,false,Rx,0,8,9F,0E,01,1D,3A,00,00,00,
8434134,00000147,false,Rx,0,8,00,00,00,00,00,00,01,A6,
8435540,000000A3,false,Rx,0,8,5A,0E,00,00,00,00,00,00,
8435784,00000066,false,Rx,0,8,00,00,00,00,00,00,00,00,
8437308,000001B1,false,Rx,0,8,00,00,10,00,00,00,00,00,
8437544,000001B2,false,Rx,0,8,00,00,00,00,00,00,00,00,
8438281,00000013,false,Rx,0,8,2A,F9,00,00,00,00,00,00,
8438298,000000AA,false,Rx,0,8,45,05,00,FA,3F,FE,3F,FF,
8438300,000002DD,false,Rx,0,8,E0,04,FF,40,0F,FC,00,00,
8439572,00000092,false,Rx,0,8,00,07,00,00,10,00,28,00,
8439598,00000044,false,Rx,0,8,F8,3D,0D,6A,FF,46,00,00,
8439882,00000065,false,Rx,0,8,00,00,00,00,00,00,00,00,
8440133,00000063,false,Rx,0,8,00,00,00,00,00,00,00,00,
8440624,000000A2,false,Rx,0,8,A0,0E,00,00,00,00,24,09,
8440641,000000A4,false,Rx,0,8,00,00,00,00,27,FE,10,00,
8440882,00000072,false,Rx,0,8,00,00,00,00,05,9D,01,A4,
8441094,000000A8,false,Rx,0,8,61,07,00,00,00,00,00,00,
8441594,00000177,false,Rx,0,8,44,3A,00,00,41,00,3A,6C,
8441611,000001D5,false,Rx,0,8,00,00,00,00,00,00,00,4F,
8442158,000001DF,false,Rx,0,8,00,00,00,00,00,00,00,4E,
8442174,00000205,false,Rx,0,8,6A,03,1B,FF,3F,FF,3F,FE,
8442314,000002C1,false,Rx,0,8,00,00,28,01,03,E8,50,00,
8442765,00000405,false,Rx,0,8,01,04,22,74,B8,24,FF,FF,
8442785,0000000D,false,Rx,0,8,9A,00,03,E8,03,E8,00,00,
8443048,00000041,false,Rx,0,8,85,08,01,4C,00,00,00,00,
8444016,00000501,false,Rx,0,8,1E,12,00,00,01,00,00,00,
8445703,000000A3,false,Rx,0,8,47,0F,00,00,00,00,00,00,
8445731,00000066,false,Rx,0,8,00,00,00,00,00,00,00,00,
8446379,000000D9,false,Rx,0,8,00,00,09,A6,01,01,00,00,
8446395,00000088,false,Rx,0,8,24,03,01,C1,C5,66,C6,D0,
8446442,0000008A,false,Rx,0,8,00,00,03,96,02,93,00,00,
8446692,0000008C,false,Rx,0,8,46,03,01,51,3A,83,8C,12,
8446945,0000008E,false,Rx,0,8,00,01,03,FF,00,00,00,7C,
8447419,00000090,false,Rx,0,8,00,00,01,A2,00,00,00,00,
8447440,00000096,false,Rx,0,8,01,1F,01,A0,00,00,00,00,
8447689,00000013,false,Rx,0,8,90,FA,00,00,00,00,00,00,
8447930,00000036,false,Rx,0,8,2A,37,00,00,00,00,00,00,
8448169,00000050,false,Rx,0,8,80,05,09,80,00,80,B4,50,
8448409,00000084,false,Rx,0,8,51,5E,79,00,00,00,00,00,
8448649,00000098,false,Rx,0,8,06,43,00,00,07,E8,03,E8,
8448879,000000AA,false,Rx,0,8,A2,06,00,FA,3F,FE,3F,FF,
8449111,000000C8,false,Rx,0,8,41,03,00,00,00,00,7F,FD,
8449375,00000065,false,Rx,0,8,00,00,00,00,00,00,00,00,
8449619,00000044,false,Rx,0,8,B0,3E,0D,CE,FF,46,00,00,
8449866,00000063,false,Rx,0,8,00,00,00,00,00,00,00,00,
8450338,000000A2,false,Rx,0,8,BD,0F,00,00,00,00,24,09,
8450354,000000CA,false,Rx,0,8,5F,01,A1,0D,A1,80,00,24,
8450592,000000DB,false,Rx,0,8,00,58,00,00,01,A6,00,00,
8451407,000000EA,false,Rx,0,8,2C,53,00,00,00,00,00,00,
8451420,00000109,false,Rx,0,8,00,00,00,00,00,18,00,02,
8451422,00000143,false,Rx,0,8,E9,0F,01,A1,43,40,01,A6,
8451552,0000015B,false,Rx,0,8,00,08,00,01,00,6C,00,96,
8451802,00000204,false,Rx,0,8,B0,03,00,00,00,00,00,00,
8452052,000002DD,false,Rx,0,8,A6,05,FF,40,0F,FC,00,00,
8452670,00000041,false,Rx,0,8,0A,09,01,4C,00,00,00,00,
8452917,0000000D,false,Rx,0,8,F0,01,03,E8,03,E8,00,00,
8453164,00000067,false,Rx,0,8,F7,34,00,00,00,00,00,00,
8454967,00000104,false,Rx,0,8,00,00,00,00,00,00,00,00,
8454984,0000029E,false,Rx,0,8,00,00,00,00,00,00,00,00,
8455181,00000115,false,Rx,0,8,00,00,00,00,00,00,01,00,
8455421,00000183,false,Rx,0,8,0A,0A,00,5A,40,00,00,8C,
8455914,00000066,false,Rx,0,8,00,00,00,00,00,00,00,00,
8455931,000000A3,false,Rx,0,8,FC,00,00,00,00,00,00,00,
8456160,000001A3,false,Rx,0,8,00,00,00,78,82,01,00,92,
8456652,000002E2,false,Rx,0,8,01,0A,0A,5A,00,00,00,8C,
8456669,000002E3,false,Rx,0,8,00,00,00,00,00,00,00,00,
8456906,000002E4,false,Rx,0,8,00,00,00,00,00,00,00,00,
8457129,00000316,false,Rx,0,8,00,00,00,00,64,64,64,64,
8457652,00000317,false,Rx,0,8,00,00,00,00,00,5A,8C,88,
8457669,0000031A,false,Rx,0,8,00,00,00,00,00,02,62,E8,
8457888,00000013,false,Rx,0,8,0D,FB,00,00,00,00,00,00,
8458579,000000AA,false,Rx,0,8,FF,07,00,FA,3F,FE,3F,FF,
8458594,000002DD,false,Rx,0,8,6C,06,FF,40,0F,FC,00,00,
8458596,00000348,false,Rx,0,8,00,00,00,00,64,64,64,64,
8459101,00000349,false,Rx,0,8,00,00,00,00,00,5A,8C,88,
8459117,000001A1,false,Rx,0,8,60,0B,26,00,02,82,02,00,
8459390,00000092,false,Rx,0,8,86,08,00,00,10,00,28,00,
8459879,00000044,false,Rx,0,8,6E,3F,0E,31,FF,46,00,00,
8459893,00000063,false,Rx,0,8,00,00,00,00,00,00,00,00,
8460116,00000065,false,Rx,0,8,00,00,00,00,00,00,00,00,
8460697,000000A2,false,Rx,0,8,06,00,00,00,00,00,24,09,
8460714,000000A4,false,Rx,0,8,00,00,00,00,27,FE,10,00,
8460883,000000A8,false,Rx,0,8,E7,08,00,00,00,00,00,00,
8461666,00000072,false,Rx,0,8,00,00,00,00,05,9D,01,A4,
8461688,000000E8,false,Rx,0,8,00,00,03,9C,00,14,00,00,
8462459,0000025F,false,Rx,0,8,00,00,00,00,00,00,00,00,
8462697,00000041,false,Rx,0,8,86,0A,01,4C,00,00,00,00,
8463163,0000000D,false,Rx,0,8,4E,02,03,E8,03,E8,00,00,
8465504,000000A3,false,Rx,0,8,E1,01,00,00,00,00,00,00,
8465738,00000066,false,Rx,0,8,00,00,00,00,00,00,00,00,
8465965,000000D9,false,Rx,0,8,00,00,09,A6,01,01,00,00,
8466195,00000088,false,Rx,0,8,F7,05,01,C1,C5,66,C6,D0,
8466429,0000008A,false,Rx,0,8,00,00,03,96,02,93,00,00,
8466898,0000008C,false,Rx,0,8,95,05,01,51,3A,83,8C,12,
8466920,0000008E,false,Rx,0,8,00,01,03,FF,00,00,00,7C,
8467174,00000090,false,Rx,0,8,00,00,01,A2,00,00,00,00,
8467408,00000096,false,Rx,0,8,87,10,01,A0,00,00,00,00,
8467659,00000098,false,Rx,0,8,B3,45,00,00,07,E8,03,E8,
8467894,00000013,false,Rx,0,8,F9,FC,00,00,00,00,00,00,
8468361,00000036,false,Rx,0,8,89,38,00,00,00,00,00,00,
8468383,00000050,false,Rx,0,8,3E,06,09,80,00,80,B4,50,
8468638,00000011,false,Rx,0,8,05,E2,0C,C4,00,00,00,00,
8468894,00000084,false,Rx,0,8,CC,5F,79,00,00,00,00,00,
8469100,000000AA,false,Rx,0,8,A3,08,00,FA,3F,FE,3F,FF,
8469355,000000C8,false,Rx,0,8,92,05,00,00,00,00,7F,FD,
8469585,00000044,false,Rx,0,8,C3,30,0E,95,FF,45,00,00,
8470274,00000063,false,Rx,0,8,00,00,00,00,00,00,00,00,
8470292,00000065,false,Rx,0,8,00,00,00,00,00,00,00,00,
8470304,000000A2,false,Rx,0,8,1B,01,00,00,00,00,24,09,
8470565,000000CA,false,Rx,0,8,95,01,A1,15,A1,80,00,23,
8470804,000000DB,false,Rx,0,8,00,59,00,00,01,A6,00,00,
8471048,000000DD,false,Rx,0,8,00,0A,00,0A,FE,0B,03,E6,
8471287,000000EF,false,Rx,0,8,00,00,0E,51,F3,00,00,00,
8471544,000000FB,false,Rx,0,8,00,08,00,00,00,00,00,00,
8471782,00000110,false,Rx,0,8,00,00,00,01,83,60,02,49,
8472021,00000130,false,Rx,0,8,00,00,00,20,00,4B,00,00,
8472282,00000132,false,Rx,0,8,00,00,00,00,00,00,00,00,
8472534,00000134,false,Rx,0,8,00,00,00,00,00,00,0F,FF,
8472780,00000041,false,Rx,0,8,09,0B,01,4C,00,00,00,00,
8473023,0000000D,false,Rx,0,8,24,03,03,E8,03,E8,00,00,
8473463,00000067,false,Rx,0,8,78,35,00,00,00,00,00,00,
8473489,00000135,false,Rx,0,8,56,17,00,00,00,00,00,00,
8473963,0000013D,false,Rx,0,8,00,00,00,00,00,00,00,00,
8473983,00000146,false,Rx,0,8,00,65,03,FF,03,FF,00,00,
8474717,0000013F,false,Rx,0,8,00,00,00,00,00,00,00,00,
8474733,00000148,false,Rx,0,8,00,00,00,74,C8,74,74,74,
8474735,00000143,false,Rx,0,8,6F,00,01,A1,43,40,01,A6,
8474954,00000149,false,Rx,0,8,00,00,00,00,00,00,08,4D,
8475194,0000014C,false,Rx,0,8,00,00,10,68,0F,15,0F,1F,
8475667,0000014E,false,Rx,0,8,00,00,00,00,00,00,00,00,
8475683,00000159,false,Rx,0,8,91,0F,45,58,00,02,06,4B,
8475936,00000066,false,Rx,0,8,00,00,00,00,00,00,00,00,
8476519,000000A3,false,Rx,0,8,C6,02,00,00,00,00,00,00,
8476535,0000015B,false,Rx,0,8,00,08,00,01,00,6C,00,96,
8476655,00000160,false,Rx,0,8,00,00,00,28,1F,D8,0F,FF,
8476900,00000162,false,Rx,0,8,00,1C,28,01,12,5E,00,00,
8477145,00000164,false,Rx,0,8,00,00,00,00,00,41,06,49,
8477379,000000EC,false,Rx,0,8,00,00,01,56,01,E7,91,91,
8477631,00000166,false,Rx,0,8,00,00,03,C0,00,00,00,00,
8478385,00000013,false,Rx,0,8,64,FD,00,00,00,00,00,00,
8478401,000000AA,false,Rx,0,8,FE,09,00,FA,3F,FE,3F,FF,
8478403,000000F7,false,Rx,0,8,01,A6,00,00,00,00,00,00,
8478602,00000171,false,Rx,0,8,00,00,07,74,28,01,00,00,
8479002,00000191,false,Rx,0,8,00,AD,01,17,00,00,00,00,
8479053,0000020D,false,Rx,0,8,00,00,00,00,00,00,00,00,
8479537,000002FD,false,Rx,0,8,00,00,00,00,00,01,00,00,
8479563,00000044,false,Rx,0,8,7F,31,0E,FA,FF,45,00,00,
8480102,00000063,false,Rx,0,8,00,00,00,00,00,00,00,00,
8480117,00000065,false,Rx,0,8,00,00,00,00,00,00,00,00,
8480310,00000092,false,Rx,0,8,09,09,00,00,10,00,28,00,
8480564,000000A2,false,Rx,0,8,3C,02,00,00,00,00,24,09,
8480894,000000A4,false,Rx,0,8,00,00,00,00,27,FE,10,00,
8481042,00000072,false,Rx,0,8,00,00,00,00,05,9D,01,A4,
8481296,000000A8,false,Rx,0,8,68,09,00,00,00,00,00,00,
8481866,0000031C,false,Rx,0,8,64,64,FF,FF,AA,50,50,50,
8482665,00000041,false,Rx,0,8,83,0C,01,4C,00,00,00,00,
8482907,0000000D,false,Rx,0,8,2F,04,03,E8,03,E8,00,00,
8483549,000002B4,false,Rx,0,8,00,00,00,0C,1F,18,3C,FF,
8485517,000000A3,false,Rx,0,8,DB,03,00,00,00,00,00,00,
8485747,00000066,false,Rx,0,8,00,00,00,00,00,00,00,00,
8485986,000000D9,false,Rx,0,8,00,00,09,A6,01,01,00,00,
8486220,00000088,false,Rx,0,8,4D,07,01,C1,C5,66,C6,D0,
8486466,0000008A,false,Rx,0,8,00,00,03,96,02,93,00,00,
8486694,0000008C,false,Rx,0,8,2F,07,01,51,3A,83,8C,12,
8486967,0000008E,false,Rx,0,8,00,01,03,FF,00,00,00,7C,
8487212,00000090,false,Rx,0,8,00,00,01,A2,00,00,00,00,
8487458,00000096,false,Rx,0,8,08,11,01,A0,00,00,00,00,
8487709,00000013,false,Rx,0,8,DE,FE,00,00,00,00,00,00,
8487949,00000036,false,Rx,0,8,C5,39,00,00,00,00,00,00,
8488188,00000050,false,Rx,0,8,54,07,09,80,00,80,B4,50,
8488434,00000084,false,Rx,0,8,A4,50,79,00,00,00,00,00,
8488673,00000098,false,Rx,0,8,2B,47,00,00,07,E8,03,E8,
8488908,000000AA,false,Rx,0,8,19,0A,00,FA,3F,FE,3F,FF,
8489154,000000C8,false,Rx,0,8,28,07,00,00,00,00,7F,FD,
8489389,00000044,false,Rx,0,8,AA,32,0F,5E,FF,45,00,00,
8489644,00000063,false,Rx,0,8,00,00,00,00,00,00,00,00,
8489896,00000065,false,Rx,0,8,00,00,00,00,00,00,00,00,
8490135,000000A2,false,Rx,0,8,21,03,00,00,00,00,24,09,
8490368,000000CA,false,Rx,0,8,B1,01,A1,1D,A1,80,00,24,
8490608,000000DB,false,Rx,0,8,00,5A,00,00,01,A6,00,00,
8490897,000000EA,false,Rx,0,8,01,57,00,00,00,00,00,00,
8491099,00000143,false,Rx,0,8,E0,01,01,A1,43,40,01,A6,
8491329,0000015B,false,Rx,0,8,00,08,00,01,00,6C,00,96,
8491562,000002DD,false,Rx,0,8,A9,09,FF,40,0F,FC,00,00,
8491884,00000400,false,Rx,0,8,20,01,01,01,00,01,01,02,
8492659,00000041,false,Rx,0,8,0C,0D,01,4C,00,00,00,00,
8492899,0000000D,false,Rx,0,8,45,05,03,E8,03,E8,00,00,
8493147,00000067,false,Rx,0,8,F4,36,00,00,00,00,00,00,
8494586,00000104,false,Rx,0,8,00,00,00,04,00,00,00,00,
8495512,000000A3,false,Rx,0,8,88,04,00,00,00,00,00,00,
8495763,00000066,false,Rx,0,8,00,00,00,00,00,00,00,00,
8497907,00000013,false,Rx,0,8,43,FF,00,00,00,00,00,00,
8497924,000000AA,false,Rx,0,8,44,0B,00,FA,3F,FE,3F,FF,
8498126,000002DD,false,Rx,0,8,63,0A,FF,40,0F,FC,00,00,
8499281,0000013B,false,Rx,0,8,00,00,00,00,22,74,B8,27,
8499306,000001A1,false,Rx,0,8,66,0F,26,00,02,82,02,00,
8499559,00000044,false,Rx,0,8,35,33,0F,C2,FF,46,00,00,
8500120,00000065,false,Rx,0,8,00,00,00,00,00,00,00,00,
8500135,00000063,false,Rx,0,8,00,00,00,00,00,00,00,00,
8500309,00000092,false,Rx,0,8,85,0A,00,00,10,00,28,00,
8500553,000000A2,false,Rx,0,8,72,04,00,00,00,00,24,09,
8500798,000000A4,false,Rx,0,8,00,00,00,00,27,FE,10,00,
8501082,00000072,false,Rx,0,8,00,00,00,00,05,9D,01,A4,
8501283,000000A8,false,Rx,0,8,E4,0A,00,00,00,00,00,00,
8501533,000000E8,false,Rx,0,8,00,00,03,9C,00,14,00,00,
8501778,0000012E,false,Rx,0,8,00,00,01,FE,01,FE,00,00,
8502019,00000154,false,Rx,0,8,00,00,00,00,80,4E,4E,6F,
8502271,00000217,false,Rx,0,8,00,00,00,02,00,03,00,04,
8502516,00000230,false,Rx,0,8,00,00,00,00,01,01,01,00,
8502756,0000000D,false,Rx,0,8,FB,06,03,E8,03,E8,00,00,
8503003,00000041,false,Rx,0,8,80,0E,01,4C,00,00,00,00,
8503247,0000031B,false,Rx,0,8,00,00,00,00,00,00,07,FF,
8503487,0000031E,false,Rx,0,8,00,00,00,00,00,00,00,00,
8504608,00000183,false,Rx,0,8,0A,0A,00,5A,40,00,00,8C,
8505499,000000A3,false,Rx,0,8,95,05,00,00,00,00,00,00,
8505739,00000066,false,Rx,0,8,00,00,00,00,00,00,00,00,
8505954,00000088,false,Rx,0,8,4C,09,01,C1,C5,66,C6,D0,
8506223,0000008A,false,Rx,0,8,00,00,03,96,02,93,00,00,
8506457,0000008C,false,Rx,0,8,2E,09,01,51,3A,83,8C,12,
8506706,0000008E,false,Rx,0,8,00,01,03,FF,00,00,00,7C,
8507367,00000090,false,Rx,0,8,00,00,01,A2,00,00,00,00,
8507389,00000098,false,Rx,0,8,C4,49,00,00,07,E8,03,E8,
8507396,00000096,false,Rx,0,8,84,12,01,A0,00,00,00,00,
8507945,000000C8,false,Rx,0,8,7A,09,00,00,00,00,7F,FA,
8507960,00000013,false,Rx,0,8,2B,F0,00,00,00,00,00,00,
8508177,00000036,false,Rx,0,8,11,3A,00,00,00,00,00,00,
8508409,00000011,false,Rx,0,8,6F,E3,0C,C4,00,00,00,00,
8508655,00000050,false,Rx,0,8,28,08,09,80,00,80,B4,50,
8508895,00000084,false,Rx,0,8,39,51,79,00,00,00,00,00,
8509127,000000AA,false,Rx,0,8,CA,0C,00,FA,3F,FE,3F,FF,
8509386,00000065,false,Rx,0,8,00,00,00,00,00,00,00,00,
8509922,00000044,false,Rx,0,8,4C,34,00,25,FF,46,00,00,
8509939,00000063,false,Rx,0,8,00,00,00,00,00,00,00,00,
8510105,000000A2,false,Rx,0,8,6F,05,00,00,00,00,24,09,
8510338,000000CA,false,Rx,0,8,3B,01,A1,25,A1,80,00,2E,
8510811,000000D9,false,Rx,0,8,00,00,09,A6,01,01,00,00,
8510858,000000DB,false,Rx,0,8,00,5B,00,00,01,A6,00,00,
8511075,000000DD,false,Rx,0,8,00,0A,00,0A,FE,0B,03,E6,
8511661,000000FB,false,Rx,0,8,00,09,00,00,00,00,00,00,
8511676,00000109,false,Rx,0,8,00,00,00,00,00,18,00,02,
8511788,00000143,false,Rx,0,8,6C,02,01,A1,43,40,01,A6,
8512269,0000015B,false,Rx,0,8,00,08,00,01,00,6C,00,96,
8512286,000002DD,false,Rx,0,8,25,0B,FF,40,0F,FC,00,00,
8512670,00000041,false,Rx,0,8,0F,0F,01,4C,00,00,00,00,
8512901,0000000D,false,Rx,0,8,91,07,03,E8,03,E8,00,00,
8513155,00000067,false,Rx,0,8,7B,37,00,00,00,00,00,00,
8515757,000000A3,false,Rx,0,8,B2,06,00,00,00,00,00,00,
8515783,00000066,false,Rx,0,8,00,00,00,00,00,00,00,00,
8516051,00000110,false,Rx,0,8,00,00,00,01,83,60,02,49,
8517215,000001D3,false,Rx,0,8,00,00,00,00,00,00,00,00,
8517655,00000013,false,Rx,0,8,B6,F1,00,00,00,00,00,00,
8517887,000000AA,false,Rx,0,8,97,0D,00,FA,3F,FE,3F,FF,
8518137,000001D1,false,Rx,0,8,00,00,7F,7F,7F,7F,FF,C0,
8518387,000001D2,false,Rx,0,8,00,00,00,00,00,00,00,00,
8518627,000002DD,false,Rx,0,8,EA,0C,FF,40,0F,FC,00,00,
8518921,000001D4,false,Rx,0,8,00,00,00,00,00,00,00,00,
8519380,00000092,false,Rx,0,8,0A,0B,00,00,10,00,28,00,
8519794,00000044,false,Rx,0,8,DC,35,00,89,FF,46,00,00,
8519863,00000063,false,Rx,0,8,00,00,00,00,00,00,00,00,
8520101,00000065,false,Rx,0,8,00,00,00,00,00,00,00,00,
8520735,000000A2,false,Rx,0,8,48,06,00,00,00,00,24,09,
8520752,00000072,false,Rx,0,8,00,00,00,00,05,9D,01,A4,
8520884,000000A4,false,Rx,0,8,00,00,00,00,27,FE,10,00,
8521079,000000A8,false,Rx,0,8,6B,0B,00,00,00,00,00,00,
8522873,00000041,false,Rx,0,8,89,00,01,4C,00,00,00,00,
8522895,0000000D,false,Rx,0,8,ED,08,03,E8,03,E8,00,00,
8525696,000000A3,false,Rx,0,8,AF,07,00,00,00,00,00,00,
8525723,00000066,false,Rx,0,8,00,00,00,00,00,00,00,00,
8525985,000000D9,false,Rx,0,8,00,00,09,A6,01,01,00,00,
8526206,00000088,false,Rx,0,8,F6,0B,01,C1,C5,66,C6,D0,
8526706,0000008A,false,Rx,0,8,00,00,03,96,02,93,00,00,
8526723,0000008C,false,Rx,0,8,94,0B,01,51,3A,83,8C,12,
8526924,0000008E,false,Rx,0,8,00,01,03,FF,00,00,00,7C,
8527508,00000090,false,Rx,0,8,00,00,01,A2,00,00,00,00,
8527524,00000096,false,Rx,0,8,0B,13,01,A0,00,00,00,00,
8527662,00000098,false,Rx,0,8,5C,4B,00,00,07,E8,03,E8,
8528144,00000013,false,Rx,0,8,0C,F2,00,00,00,00,00,00,
8528161,00000036,false,Rx,0,8,5D,3B,00,00,00,00,00,00,
8528399,00000050,false,Rx,0,8,42,09,09,80,00,80,B4,50,
8528644,00000084,false,Rx,0,8,83,52,79,00,00,00,00,00,
8528897,000000AA,false,Rx,0,8,70,0E,00,FA,3F,FE,3F,FF,
8529112,000000C8,false,Rx,0,8,C0,0B,00,00,00,00,7F,FA,
8529357,000000CA,false,Rx,0,8,B9,01,A1,2D,A1,80,00,27,
8529596,00000044,false,Rx,0,8,9F,36,00,EE,FF,45,00,00,
8529896,00000063,false,Rx,0,8,00,00,00,00,00,00,00,00,
8530086,00000065,false,Rx,0,8,00,00,00,00,00,00,00,00,
8530564,000000A2,false,Rx,0,8,55,07,00,00,00,00,24,09,
8530580,000000DB,false,Rx,0,8,00,5C,00,00,01,A6,00,00,
8531047,000000EA,false,Rx,0,8,76,5B,00,00,00,00,00,00,
8531061,000000EC,false,Rx,0,8,00,00,01,57,01,E6,91,91,
8531492,0000015B,false,Rx,0,8,00,08,00,01,00,6C,00,96,
8531518,000000F7,false,Rx,0,8,01,A6,00,00,00,00,00,00,
8531975,0000019A,false,Rx,0,8,1B,09,01,A1,00,01,00,00,
8531996,00000143,false,Rx,0,8,E3,03,01,A1,43,40,01,A6,
8532249,00000206,false,Rx,0,8,00,00,00,00,00,00,01,A6,
8532505,000002DD,false,Rx,0,8,AC,0D,FF,40,0F,FC,00,00,
8532749,00000041,false,Rx,0,8,06,01,01,4C,00,00,00,00,
8532985,0000000D,false,Rx,0,8,87,09,03,E8,03,E8,00,00,
8533240,00000067,false,Rx,0,8,FD,38,00,00,00,00,00,00,
8534902,00000104,false,Rx,0,8,00,00,00,04,00,00,00,00,
8535721,000000A3,false,Rx,0,8,14,08,00,00,00,00,00,00,
8535772,00000066,false,Rx,0,8,00,00,00,00,00,00,00,00,
8537595,000001B1,false,Rx,0,8,00,00,10,00,00,00,00,00,
8537611,0000059F,false,Rx,0,8,9F,00,FF,FF,FF,FF,FF,FF,
8538441,00000013,false,Rx,0,8,91,F3,00,00,00,00,00,00,
8538457,000000AA,false,Rx,0,8,2D,0F,00,FA,3F,FE,3F,FF,
8538458,000002DD,false,Rx,0,8,66,0E,FF,40,0F,FC,00,00,
8539345,000001A1,false,Rx,0,8,6C,03,26,00,02,82,02,00,
8539362,000001B2,false,Rx,0,8,00,00,00,00,00,00,00,00,
8539555,00000044,false,Rx,0,8,06,37,01,51,FF,45,00,00,
8540032,00000063,false,Rx,0,8,00,00,00,00,00,00,00,00,
8540055,00000065,false,Rx,0,8,00,00,00,00,00,00,00,00,
8540307,00000092,false,Rx,0,8,80,0C,00,00,10,00,28,00,
8540547,000000A2,false,Rx,0,8,EE,08,00,00,00,00,24,09,
8540782,00000072,false,Rx,0,8,00,00,00,00,05,9D,01,A4,
8541041,000000A4,false,Rx,0,8,00,00,00,00,27,FE,10,00,
8541284,000000A8,false,Rx,0,8,E1,0C,00,00,00,00,00,00,
8541530,000000E8,false,Rx,0,8,00,00,03,9C,00,14,00,00,
8541764,00000177,false,Rx,0,8,44,3A,00,00,41,00,3A,6C,
8542418,00000200,false,Rx,0,8,00,00,00,01,7F,4B,FE,32,
8542950,00000041,false,Rx,0,8,8A,02,01,4C,00,00,00,00,
8542964,0000000D,false,Rx,0,8,39,0A,03,E8,03,E8,00,00,
8545506,000000A3,false,Rx,0,8,09,09,00,00,00,00,00,00,
8545744,00000066,false,Rx,0,8,00,00,00,00,00,00,00,00,
8546414,000000D9,false,Rx,0,8,00,00,09,A6,01,01,00,00,
8546435,00000088,false,Rx,0,8,25,0D,01,C1,C5,66,C6,D0,
8546442,0000008A,false,Rx,0,8,00,00,03,96,02,93,00,00,
8546680,0000008C,false,Rx,0,8,47,0D,01,51,3A,83,8C,12,
8547379,0000008E,false,Rx,0,8,00,01,03,FF,00,00,00,7C,
8547401,00000090,false,Rx,0,8,00,00,01,A2,00,00,00,00,
8547408,00000096,false,Rx,0,8,81,14,01,A0,00,00,00,00,
8547667,00000098,false,Rx,0,8,E9,4D,00,00,07,E8,03,E8,
8548159,00000013,false,Rx,0,8,65,F4,00,00,00,00,00,00,
8548175,00000036,false,Rx,0,8,A4,3C,00,00,00,00,00,00,
8548385,00000050,false,Rx,0,8,FC,0A,09,80,00,80,B4,50,
8548640,00000011,false,Rx,0,8,64,E4,0C,C4,00,00,00,00,
8548886,00000084,false,Rx,0,8,1E,53,79,00,00,00,00,00,
8549125,000000AA,false,Rx,0,8,71,00,00,FA,3F,FE,3F,FF,
8549591,000000C8,false,Rx,0,8,40,0D,00,00,00,00,7F,FD,
8549606,00000044,false,Rx,0,8,60,38,01,B6,FF,45,00,00,
8550096,00000063,false,Rx,0,8,00,00,00,00,00,00,00,00,
8550110,00000065,false,Rx,0,8,00,00,00,00,00,00,00,00,
8550347,000000A2,false,Rx,0,8,F3,09,00,00,00,00,24,09,
8550579,000000CA,false,Rx,0,8,07,01,A1,35,A1,80,00,24,
8550896,000000DB,false,Rx,0,8,00,5D,00,00,01,A6,00,00,
8551085,000000DD,false,Rx,0,8,00,0A,00,0A,FE,0B,03,E6,
8551294,000000EF,false,Rx,0,8,00,00,0E,51,F3,00,00,00,
8551549,000000FB,false,Rx,0,8,00,0A,00,00,00,00,00,00,
8551799,00000135,false,Rx,0,8,ED,18,00,00,00,00,00,00,
8552039,0000013D,false,Rx,0,8,00,00,00,00,00,00,00,00,
8552284,0000015B,false,Rx,0,8,00,08,00,01,00,6C,00,96,
8552535,0000013F,false,Rx,0,8,00,00,00,00,00,00,00,00,
8552780,00000041,false,Rx,0,8,05,03,01,4C,00,00,00,00,
8553026,0000000D,false,Rx,0,8,53,0B,03,E8,03,E8,00,00,
8553266,00000067,false,Rx,0,8,72,39,00,00,00,00,00,00,
8553482,00000143,false,Rx,0,8,69,04,01,A1,43,40,01,A6,
8553982,00000191,false,Rx,0,8,00,AD,01,17,00,00,00,00,
8554000,000002DD,false,Rx,0,8,20,0F,FF,40,0F,FC,00,00,
8554205,0000051E,false,Rx,0,8,22,02,00,1B,00,00,00,00,
8554722,0000029E,false,Rx,0,8,00,00,00,00,00,00,00,00,
8554886,00000115,false,Rx,0,8,00,00,00,00,00,00,01,00,
8555285,00000183,false,Rx,0,8,0A,0A,00,5A,40,00,00,8C,
8555301,000001A3,false,Rx,0,8,00,00,00,78,82,01,00,92,
8555549,000000A3,false,Rx,0,8,2E,0A,00,00,00,00,00,00,
8556048,00000066,false,Rx,0,8,00,00,00,00,00,00,00,00,
8557873,00000013,false,Rx,0,8,F8,F5,00,00,00,00,00,00,
8557896,000000AA,false,Rx,0,8,2C,01,00,FA,3F,FE,3F,FF,
8558125,000002DD,false,Rx,0,8,E5,00,FF,40,0F,FC,00,00,
8559585,00000092,false,Rx,0,8,0F,0D,00,00,10,00,28,00,
8559606,00000044,false,Rx,0,8,4A,39,02,1A,FF,45,00,00,
8559896,00000063,false,Rx,0,8,00,00,00,00,00,00,00,00,
8560468,00000065,false,Rx,0,8,00,00,00,00,00,00,00,00,
8560484,000000A2,false,Rx,0,8,D4,0A,00,00,00,00,24,09,
8560598,000000A4,false,Rx,0,8,00,00,00,00,27,FE,10,00,
8560885,00000072,false,Rx,0,8,00,00,00,00,05,9D,01,A4,
8561085,000000A8,false,Rx,0,8,6E,0D,00,00,00,00,00,00,
8561576,000001D5,false,Rx,0,8,00,00,00,00,00,00,00,4F,
8561593,000001DF,false,Rx,0,8,00,00,00,00,00,00,00,4E,
8562674,00000041,false,Rx,0,8,8F,04,01,4C,00,00,00,00,
8562886,0000000D,false,Rx,0,8,58,0C,03,E8,03,E8,00,00,
8565507,000000A3,false,Rx,0,8,33,0B,00,00,00,00,00,00,
8565731,00000066,false,Rx,0,8,00,00,00,00,00,00,00,00,
8565964,000000D9,false,Rx,0,8,00,00,09,A6,01,01,00,00,
8566213,00000088,false,Rx,0,8,9F,0F,01,C1,C5,66,C6,D0,
8566458,0000008A,false,Rx,0,8,00,00,03,96,02,93,00,00,
8566685,0000008C,false,Rx,0,8,FD,0F,01,51,3A,83,8C,12,
8566927,0000008E,false,Rx,0,8,00,01,03,FF,00,00,00,7C,
8567183,00000090,false,Rx,0,8,00,00,01,A2,00,00,00,00,
8567430,00000096,false,Rx,0,8,0E,15,01,A0,00,00,00,00,
8567669,00000098,false,Rx,0,8,71,4F,00,00,07,E8,03,E8,
8567909,00000013,false,Rx,0,8,42,F6,00,00,00,00,00,00,
8568154,00000036,false,Rx,0,8,E8,3D,00,00,00,00,00,00,
8568567,00000050,false,Rx,0,8,96,0B,09,80,00,80,B4,50,
8568607,00000084,false,Rx,0,8,EA,54,79,00,00,00,00,00,
8568900,000000AA,false,Rx,0,8,CB,02,00,FA,3F,FE,3F,FF,
8569104,000000C8,false,Rx,0,8,A9,0F,00,00,00,00,7F,FA,
8569629,000000CA,false,Rx,0,8,70,01,A1,3D,A1,80,00,24,
8569645,00000044,false,Rx,0,8,85,3A,02,7E,FF,46,00,00,
8569897,00000063,false,Rx,0,8,00,00,00,00,00,00,00,00,
8570089,00000065,false,Rx,0,8,00,00,00,00,00,00,00,00,
8570311,000000A2,false,Rx,0,8,C9,0B,00,00,00,00,24,09,
8570785,000000DB,false,Rx,0,8,00,5E,00,00,01,A6,00,00,
8570802,000000EA,false,Rx,0,8,5B,5F,00,00,00,00,00,00,
8571057,00000109,false,Rx,0,8,00,00,00,00,00,18,00,02,
8571638,00000110,false,Rx,0,8,00,00,00,01,83,60,02,49,
8571653,00000130,false,Rx,0,8,00,00,00,20,00,4B,00,00,
8571787,00000132,false,Rx,0,8,00,00,00,00,00,00,00,00,
8572211,00000134,false,Rx,0,8,00,00,00,00,00,00,0F,FF,
8572252,00000143,false,Rx,0,8,E6,05,01,A1,43,40,01,A6,
8572524,00000146,false,Rx,0,8,00,65,03,FF,03,FF,00,00,
8572770,00000041,false,Rx,0,8,00,05,01,4C,00,00,00,00,
8573004,0000000D,false,Rx,0,8,32,0D,03,E8,03,E8,00,00,
8573611,00000067,false,Rx,0,8,FE,3A,00,00,00,00,00,00,
8573626,00000148,false,Rx,0,8,00,00,00,74,C8,74,74,74,
8573735,00000149,false,Rx,0,8,00,00,00,00,00,00,08,4D,
8574107,0000014C,false,Rx,0,8,00,00,10,68,0F,15,0F,1F,
8574221,0000014E,false,Rx,0,8,00,00,00,00,00,00,00,00,
8574477,0000015B,false,Rx,0,8,00,08,00,01,00,6C,00,96,
8574728,00000104,false,Rx,0,8,00,00,00,04,00,00,00,00,
8574975,00000160,false,Rx,0,8,00,00,00,28,1F,D8,0F,FF,
8575208,00000162,false,Rx,0,8,00,1C,28,01,12,5E,00,00,
8575636,00000164,false,Rx,0,8,00,00,00,00,00,41,06,49,
8575677,00000166,false,Rx,0,8,00,00,03,C0,00,00,00,00,
8576176,00000066,false,Rx,0,8,00,00,00,00,00,00,00,00,
8576193,000000A3,false,Rx,0,8,60,0C,00,00,00,00,00,00,
8576428,00000171,false,Rx,0,8,00,00,07,74,28,01,00,00,
8576680,00000207,false,Rx,0,8,48,00,00,00,00,00,1C,5A,
8576922,000002DD,false,Rx,0,8,A3,01,FF,40,0F,FC,00,00,
8577172,0000030B,false,Rx,0,8,00,00,00,00,00,00,00,00,
8577405,000000EC,false,Rx,0,8,00,00,01,57,01,E6,91,92,
8577657,00000013,false,Rx,0,8,DF,F7,00,00,00,00,00,00,
8577897,000000AA,false,Rx,0,8,96,03,00,FA,3F,FE,3F,FF,
8578145,000000F7,false,Rx,0,8,01,A6,00,00,00,00,00,00,
8578383,000002DD,false,Rx,0,8,69,02,FF,40,0F,FC,00,00,
8579109,0000013B,false,Rx,0,8,00,00,00,00,22,74,B8,28,
8579344,000001A1,false,Rx,0,8,6A,07,26,00,02,82,02,00,
8579589,00000044,false,Rx,0,8,3D,3B,02,E2,FF,46,00,00,
8579886,00000063,false,Rx,0,8,00,00,00,00,00,00,00,00,
8580089,00000065,false,Rx,0,8,00,00,00,00,00,00,00,00,
8580328,00000092,false,Rx,0,8,83,0E,00,00,10,00,28,00,
8580580,000000A2,false,Rx,0,8,9A,0C,00,00,00,00,24,09,
8580887,00000072,false,Rx,0,8,00,00,00,00,05,9D,01,A4,
8581085,000000A4,false,Rx,0,8,00,00,00,00,27,FE,10,00,
8581318,000000A8,false,Rx,0,8,E2,0E,00,00,00,00,00,00,
8581546,000000E8,false,Rx,0,8,00,00,03,9C,00,14,00,00,
8582665,00000041,false,Rx,0,8,8C,06,01,4C,00,00,00,00,
8582897,0000000D,false,Rx,0,8,8C,0E,03,E8,03,E8,00,00,
8585550,000000A3,false,Rx,0,8,7D,0D,00,00,00,00,00,00,
8585774,00000066,false,Rx,0,8,00,00,00,00,00,00,00,00,
8586021,000000D9,false,Rx,0,8,00,00,09,A6,01,01,00,00,
8586245,00000088,false,Rx,0,8,9E,01,01,C1,C5,66,C6,D0,
8586494,0000008A,false,Rx,0,8,00,00,03,96,02,93,00,00,
8586727,0000008C,false,Rx,0,8,FC,01,01,51,3A,83,8C,12,
8586980,0000008E,false,Rx,0,8,00,01,03,FF,00,00,00,7C,
8587600,00000090,false,Rx,0,8,00,00,01,A2,00,00,00,00,
8587615,00000096,false,Rx,0,8,82,16,01,A0,00,00,00,00,
8587678,00000013,false,Rx,0,8,B7,F8,00,00,00,00,00,00,
8588120,00000036,false,Rx,0,8,3C,3E,00,00,00,00,00,00,
8588165,00000050,false,Rx,0,8,9D,0C,09,80,00,80,B4,50,
8588628,00000011,false,Rx,0,8,0E,E5,0C,C4,00,00,00,00,
8588654,00000084,false,Rx,0,8,77,55,79,00,00,00,00,00,
8588922,00000098,false,Rx,0,8,9E,41,00,00,07,E8,03,E8,
8589168,000000AA,false,Rx,0,8,18,04,00,FA,3F,FE,3F,FF,
8589693,000000C8,false,Rx,0,8,FB,01,00,00,00,00,7F,FD,
8589710,00000044,false,Rx,0,8,7A,3C,03,46,FF,45,00,00,
8589894,00000063,false,Rx,0,8,00,00,00,00,00,00,00,00,
8590371,00000065,false,Rx,0,8,00,00,00,00,00,00,00,00,
8590387,000000A2,false,Rx,0,8,87,0D,00,00,00,00,24,09,
8590621,000000CA,false,Rx,0,8,7B,01,A1,05,A1,80,00,23,
8591096,000000DB,false,Rx,0,8,00,5F,00,00,01,A6,00,00,
8591113,000000DD,false,Rx,0,8,00,0A,00,0A,FE,0B,03,E6,
8591364,000000FB,false,Rx,0,8,00,0B,00,00,00,00,00,00,
8591599,0000015B,false,Rx,0,8,00,08,00,01,00,6C,00,96,
8592105,00000143,false,Rx,0,8,6A,06,01,A1,43,40,01,A6,
8592120,000002DD,false,Rx,0,8,2F,03,FF,40,0F,FC,00,00,
8592930,00000041,false,Rx,0,8,03,07,01,4C,00,00,00,00,
8592946,0000000D,false,Rx,0,8,E6,0F,03,E8,03,E8,00,00,
8593131,00000067,false,Rx,0,8,71,3B,00,00,00,00,00,00,
8595532,000000A3,false,Rx,0,8,5A,0E,00,00,00,00,00,00,
8595777,00000066,false,Rx,0,8,00,00,00,00,00,00,00,00,
8597875,00000013,false,Rx,0,8,2A,F9,00,00,00,00,00,00,
8597891,000000AA,false,Rx,0,8,45,05,00,FA,3F,FE,3F,FF,
8598137,000002DD,false,Rx,0,8,E0,04,FF,40,0F,FC,00,00,
8599637,00000092,false,Rx,0,8,0C,0F,00,00,10,00,28,00,
8599653,00000044,false,Rx,0,8,06,3D,03,A9,FF,45,00,00,
8599886,00000063,false,Rx,0,8,00,00,00,00,00,00,00,00,
8600137,00000065,false,Rx,0,8,00,00,00,00,00,00,00,00,
8600604,00000072,false,Rx,0,8,00,00,00,00,05,9D,01,A4,
8600625,000000A2,false,Rx,0,8,A0,0E,00,00,00,00,24,09,
8600899,000000A4,false,Rx,0,8,00,00,00,00,27,FE,10,00,
8601092,000000A8,false,Rx,0,8,6D,0F,00,00,00,00,00,00,
8601364,00000154,false,Rx,0,8,00,00,00,00,80,4E,4E,6F,
8601604,00000205,false,Rx,0,8,E4,04,1B,FF,3F,FF,3F,FE,
8602850,00000041,false,Rx,0,8,85,08,01,4C,00,00,00,00,
8602876,0000000D,false,Rx,0,8,9A,00,03,E8,03,E8,00,00,
8604782,00000183,false,Rx,0,8,0A,0A,00,5A,40,00,00,8C,
8605625,000000A3,false,Rx,0,8,47,0F,00,00,00,00,00,00,
8605735,00000066,false,Rx,0,8,00,00,00,00,00,00,00,00,
8606159,000000D9,false,Rx,0,8,00,00,09,A6,01,01,00,00,
8606184,00000088,false,Rx,0,8,24,03,01,C1,C5,66,C6,D0,
8606465,0000008A,false,Rx,0,8,00,00,03,96,02,93,00,00,
8606693,0000008C,false,Rx,0,8,46,03,01,51,3A,83,8C,12,
8606945,0000008E,false,Rx,0,8,00,01,03,FF,00,00,00,7C,
8607194,00000090,false,Rx,0,8,00,00,01,A2,00,00,00,00,
8607420,00000096,false,Rx,0,8,0D,17,01,A0,00,00,00,00,
8607664,00000098,false,Rx,0,8,06,43,00,00,07,E8,03,E8,
8607906,00000013,false,Rx,0,8,90,FA,00,00,00,00,00,00,
8608151,00000036,false,Rx,0,8,70,3F,00,00,00,00,00,00,
8608384,00000050,false,Rx,0,8,F7,0D,09,80,00,80,B4,50,
8608630,00000084,false,Rx,0,8,CD,56,79,00,00,00,00,00,
8608888,000000AA,false,Rx,0,8,A2,06,00,FA,3F,FE,3F,FF,
8609110,000000C8,false,Rx,0,8,41,03,00,00,00,00,7F,FD,
8609343,000000CA,false,Rx,0,8,5F,01,A1,0D,A1,80,00,24,
8609582,00000044,false,Rx,0,8,BA,3E,04,0D,FF,45,00,00,
8609888,00000063,false,Rx,0,8,00,00,00,00,00,00,00,00,
8610085,00000065,false,Rx,0,8,00,00,00,00,00,00,00,00,
8610324,000000A2,false,Rx,0,8,BD,0F,00,00,00,00,24,09,
8610570,000000DB,false,Rx,0,8,00,50,00,00,01,A6,00,00,
8610887,000000EA,false,Rx,0,8,2C,53,00,00,00,00,00,00,
8611039,00000143,false,Rx,0,8,E5,07,01,A1,43,40,01,A6,
8611283,0000015B,false,Rx,0,8,00,08,00,01,00,6C,00,96,
8611529,000002DD,false,Rx,0,8,A6,05,FF,40,0F,FC,00,00,
8612658,00000041,false,Rx,0,8,0A,09,01,4C,00,00,00,00,
8612899,0000000D,false,Rx,0,8,F0,01,03,E8,03,E8,00,00,
8613145,00000067,false,Rx,0,8,FB,3C,00,00,00,00,00,00,
8614652,00000104,false,Rx,0,8,00,00,00,04,00,00,00,00,
8615520,000000A3,false,Rx,0,8,FC,00,00,00,00,00,00,00,
8615771,00000066,false,Rx,0,8,00,00,00,00,00,00,00,00,
8616013,00000110,false,Rx,0,8,00,00,00,01,83,60,02,4A,
8616250,00000400,false,Rx,0,8,21,01,00,01,02,35,00,02,
8617651,00000013,false,Rx,0,8,0D,FB,00,00,00,00,00,00,
8617888,000000AA,false,Rx,0,8,FF,07,00,FA,3F,FE,3F,FF,
8618129,000002DD,false,Rx,0,8,6C,06,FF,40,0F,FC,00,00,
8619047,000001A1,false,Rx,0,8,60,0B,26,00,02,82,02,00,
8619363,00000092,false,Rx,0,8,8A,00,00,00,10,00,28,00,
8619605,00000044,false,Rx,0,8,B5,3F,04,71,FF,46,00,00,
8619888,00000063,false,Rx,0,8,00,00,00,00,00,00,00,00,
8620102,00000065,false,Rx,0,8,00,00,00,00,00,00,00,00,
8620349,000000A2,false,Rx,0,8,06,00,00,00,00,00,24,09,
8620599,000000A4,false,Rx,0,8,00,00,00,00,27,FE,10,00,
8620888,00000072,false,Rx,0,8,00,00,00,00,05,9D,01,A4,
8621087,000000A8,false,Rx,0,8,EB,00,00,00,00,00,00,00,
8621336,000000E8,false,Rx,0,8,00,00,03,9C,00,14,00,00,
8622191,0000025F,false,Rx,0,8,00,00,00,00,00,00,00,00,
8622642,00000041,false,Rx,0,8,86,0A,01,4C,00,00,00,00,
8622888,0000000D,false,Rx,0,8,4E,02,03,E8,03,E8,00,00,
8625482,000000A3,false,Rx,0,8,E1,01,00,00,00,00,00,00,
8625747,00000066,false,Rx,0,8,00,00,00,00,00,00,00,00,
8625988,000000D9,false,Rx,0,8,00,00,09,A6,01,01,00,00,
8626220,00000088,false,Rx,0,8,F7,05,01,C1,C5,66,C6,D0,
8626462,0000008A,false,Rx,0,8,00,00,03,96,02,93,00,00,
8626693,0000008C,false,Rx,0,8,95,05,01,51,3A,83,8C,12,
8626941,0000008E,false,Rx,0,8,00,01,03,FF,00,00,00,7C,
8627190,00000090,false,Rx,0,8,00,00,01,A2,00,00,00,00,
8627432,00000096,false,Rx,0,8,8B,18,01,A0,00,00,00,00,
8627677,00000013,false,Rx,0,8,F9,FC,00,00,00,00,00,00,
8627924,00000036,false,Rx,0,8,D3,30,00,00,00,00,00,00,
8628157,00000050,false,Rx,0,8,49,0E,09,80,00,80,B4,50,
8628402,00000084,false,Rx,0,8,50,57,79,00,00,00,00,00,
8628642,00000011,false,Rx,0,8,B0,E6,0C,C4,00,00,00,00,
8628888,00000098,false,Rx,0,8,B3,45,00,00,07,E8,03,E8,
8629122,000000AA,false,Rx,0,8,A3,08,00,FA,3F,FE,3F,FF,
8629361,000000C8,false,Rx,0,8,92,05,00,00,00,00,7F,FD,
8629618,00000063,false,Rx,0,8,00,00,00,00,00,00,00,00,
8629888,00000044,false,Rx,0,8,B3,30,04,D6,FF,46,00,00,
8630104,00000065,false,Rx,0,8,00,00,00,00,00,00,00,00,
8630343,000000A2,false,Rx,0,8,1B,01,00,00,00,00,24,09,
8630576,000000CA,false,Rx,0,8,95,01,A1,15,A1,80,00,23,
8630888,000000DB,false,Rx,0,8,00,51,00,00,01,A6,00,00,
8631059,000000DD,false,Rx,0,8,00,0A,00,0A,FE,0B,03,E6,
8631296,000000EC,false,Rx,0,8,00,00,01,57,01,E6,91,92,
8631535,000000EF,false,Rx,0,8,00,00,0E,51,F3,00,00,00,
8631780,000000F7,false,Rx,0,8,01,A6,00,00,00,00,00,00,
8632030,00000109,false,Rx,0,8,00,00,00,00,00,18,00,02,
8632281,000000FB,false,Rx,0,8,00,0C,00,00,00,00,00,00,
8632520,00000135,false,Rx,0,8,F0,19,00,00,00,00,00,00,
8632765,00000041,false,Rx,0,8,09,0B,01,4C,00,00,00,00,
8633006,0000000D,false,Rx,0,8,24,03,03,E8,03,E8,00,00,
8633252,00000067,false,Rx,0,8,74,3D,00,00,00,00,00,00,
8633502,0000013D,false,Rx,0,8,00,00,00,00,00,00,00,00,
8633742,0000015B,false,Rx,0,8,00,08,00,01,00,6C,00,96,
8633994,0000013F,false,Rx,0,8,00,00,00,00,00,00,00,00,
8634240,00000191,false,Rx,0,8,00,AD,01,17,00,00,00,00,
8634467,00000143,false,Rx,0,8,63,08,01,A1,43,40,01,A6,
8634712,0000019A,false,Rx,0,8,FC,0A,01,A1,00,01,00,00,
8634959,00000147,false,Rx,0,8,00,00,00,00,00,00,01,A6,
8635205,00000204,false,Rx,0,8,63,05,00,00,00,00,00,00,
8635437,00000159,false,Rx,0,8,91,0E,65,60,00,02,07,4B,
8635688,00000066,false,Rx,0,8,00,00,00,00,00,00,00,00,
8635930,000000A3,false,Rx,0,8,C6,02,00,00,00,00,00,00,
8636176,000002DD,false,Rx,0,8,2A,07,FF,40,0F,FC,00,00,
8636426,00000304,false,Rx,0,8,00,00,00,00,00,00,00,00,
8637642,00000013,false,Rx,0,8,64,FD,00,00,00,00,00,00,
8637889,000000AA,false,Rx,0,8,FE,09,00,FA,3F,FE,3F,FF,
8638122,000002DD,false,Rx,0,8,EF,08,FF,40,0F,FC,00,00,
8638941,000001B1,false,Rx,0,8,00,00,10,00,00,00,00,00,
8639194,000001D3,false,Rx,0,8,00,00,00,00,00,00,00,00,
8639431,00000044,false,Rx,0,8,52,31,05,39,FF,46,00,00,
8639682,00000065,false,Rx,0,8,00,00,00,00,00,00,00,00,
8639930,00000063,false,Rx,0,8,00,00,00,00,00,00,00,00,
8640174,00000092,false,Rx,0,8,05,01,00,00,10,00,28,00,
8640413,000000A2,false,Rx,0,8,3C,02,00,00,00,00,24,09,
8640665,000000A4,false,Rx,0,8,00,00,00,00,27,FE,10,00,
8640911,00000072,false,Rx,0,8,00,00,00,00,05,9D,01,A4,
8641150,000000A8,false,Rx,0,8,64,01,00,00,00,00,00,00,
8641386,00000177,false,Rx,0,8,44,3A,00,00,41,00,3A,6C,
8641636,000001B2,false,Rx,0,8,00,00,00,00,00,00,00,00,
8642642,00000041,false,Rx,0,8,83,0C,01,4C,00,00,00,00,
8642888,0000000D,false,Rx,0,8,2F,04,03,E8,03,E8,00,00,
8643359,000001D1,false,Rx,0,8,00,00,7F,7F,7F,7F,FF,C0,
8643610,000001D2,false,Rx,0,8,00,00,00,00,00,00,00,00,
8644107,000001D4,false,Rx,0,8,00,00,00,00,00,00,00,00,
8645504,000000A3,false,Rx,0,8,DB,03,00,00,00,00,00,00,
8645755,00000066,false,Rx,0,8,00,00,00,00,00,00,00,00,
8645996,000000D9,false,Rx,0,8,00,00,09,A6,01,01,00,00,
8646227,00000088,false,Rx,0,8,4D,07,01,C1,C5,66,C6,D0,
8646462,0000008A,false,Rx,0,8,00,00,03,96,02,93,00,00,
8646699,0000008C,false,Rx,0,8,2F,07,01,51,3A,83,8C,12,
8646952,0000008E,false,Rx,0,8,00,01,03,FF,00,00,00,7C,
8647189,00000090,false,Rx,0,8,00,00,01,A2,00,00,00,00,
8647433,00000096,false,Rx,0,8,04,19,01,A0,00,00,00,00,
8647679,00000013,false,Rx,0,8,DE,FE,00,00,00,00,00,00,
8647919,00000036,false,Rx,0,8,9F,31,00,00,00,00,00,00,
8648185,00000050,false,Rx,0,8,23,0F,09,80,00,80,B4,50,
8648413,00000084,false,Rx,0,8,38,58,79,00,00,00,00,00,
8648653,00000098,false,Rx,0,8,2B,47,00,00,07,E8,03,E8,
8648894,000000AA,false,Rx,0,8,19,0A,00,FA,3F,FE,3F,FF,
8649118,000000C8,false,Rx,0,8,28,07,00,00,00,00,7F,FD,
8649368,000000CA,false,Rx,0,8,B1,01,A1,1D,A1,80,00,24,
8649612,00000044,false,Rx,0,8,3D,32,05,9D,FF,45,00,00,
8649889,00000063,false,Rx,0,8,00,00,00,00,00,00,00,00,
8650115,00000065,false,Rx,0,8,00,00,00,00,00,00,00,00,
8650356,000000A2,false,Rx,0,8,21,03,00,00,00,00,24,09,
8650594,000000DB,false,Rx,0,8,00,52,00,00,01,A6,00,00,
8650889,000000EA,false,Rx,0,8,01,57,00,00,00,00,00,00,
8651058,00000143,false,Rx,0,8,EC,09,01,A1,43,40,01,A6,
8651309,0000015B,false,Rx,0,8,00,08,00,01,00,6C,00,96,
8651560,000002B4,false,Rx,0,8,00,00,00,0C,1F,18,3C,FF,
8651798,000002C1,false,Rx,0,8,00,00,28,01,03,E8,50,00,
8652043,000002DD,false,Rx,0,8,A9,09,FF,40,0F,FC,00,00,
8652650,00000041,false,Rx,0,8,0C,0D,01,4C,00,00,00,00,
8652900,0000000D,false,Rx,0,8,45,05,03,E8,03,E8,00,00,
8653150,00000067,false,Rx,0,8,F8,3E,00,00,00,00,00,00,
8654576,00000104,false,Rx,0,8,00,00,00,00,00,00,00,00,
8654888,00000115,false,Rx,0,8,00,00,00,00,00,00,01,00,
8655063,00000183,false,Rx,0,8,0A,0A,00,5A,40,00,00,8C,
8655301,000001A3,false,Rx,0,8,00,00,00,78,82,01,00,91,
8655545,000000A3,false,Rx,0,8,88,04,00,00,00,00,00,00,
8655796,00000066,false,Rx,0,8,00,00,00,00,00,00,00,00,
8656041,0000029E,false,Rx,0,8,00,00,00,00,00,00,00,00,
8657626,00000013,false,Rx,0,8,43,FF,00,00,00,00,00,00,
8657889,000000AA,false,Rx,0,8,44,0B,00,FA,3F,FE,3F,FF,
8658124,000002DD,false,Rx,0,8,63,0A,FF,40,0F,FC,00,00,
8659107,0000013B,false,Rx,0,8,00,00,00,00,22,74,B8,28,
8659346,000001A1,false,Rx,0,8,66,0F,26,00,02,82,02,00,
8659585,00000044,false,Rx,0,8,B3,33,06,02,FF,45,00,00,
