Time Stamp,ID,Extended,Dir,Bus,LEN,D1,D2,D3,D4,D5,D6,D7,D8
6394789,0000019A,false,Rx,0,8,A5,00,01,A2,00,00,00,00,
6394994,000002F2,false,Rx,0,8,5A,0C,01,1D,45,00,00,00,
6395263,00000013,false,Rx,0,8,4C,08,00,00,C0,00,00,00,
6395509,00000036,false,Rx,0,8,89,38,00,00,00,00,00,00,
6395748,00000050,false,Rx,0,8,28,08,09,80,00,80,B4,50,
6395994,00000011,false,Rx,0,8,BE,EB,0C,00,00,00,00,00,
6396232,00000044,false,Rx,0,8,2D,3B,07,C6,FF,4F,00,00,
6396480,00000063,false,Rx,0,8,00,00,00,00,00,00,00,00,
6396723,00000065,false,Rx,0,8,00,00,00,00,00,00,00,00,
6396975,00000084,false,Rx,0,8,AD,56,39,00,00,00,00,00,
6397207,00000088,false,Rx,0,8,8A,01,01,C1,C5,66,C8,98,
6397447,0000008A,false,Rx,0,8,00,00,03,96,02,39,00,00,
6397670,0000008C,false,Rx,0,8,F6,01,01,51,3C,5D,90,49,
6397927,0000008E,false,Rx,0,8,00,00,03,FF,00,00,00,45,
6398172,00000090,false,Rx,0,8,00,00,01,A2,00,00,00,00,
6398418,00000098,false,Rx,0,8,9E,41,00,00,07,E8,03,E8,
6398658,000000A2,false,Rx,0,8,D4,0A,00,00,00,00,24,09,
6398899,000000AA,false,Rx,0,8,2C,01,00,FA,3F,FE,3F,FF,
6399231,000000C8,false,Rx,0,8,9F,01,00,06,00,06,7F,FD,
6399383,00000096,false,Rx,0,8,9F,16,01,A1,00,00,00,00,
6399611,000000CA,false,Rx,0,8,59,01,A2,05,A1,80,00,2B,
6399840,000000EC,false,Rx,0,8,00,00,01,4F,01,E1,8A,8B,
6400167,000000EF,false,Rx,0,8,00,00,0E,4F,F4,00,00,00,
6400335,00000041,false,Rx,0,8,46,08,00,00,00,00,00,00,
6400587,0000000D,false,Rx,0,8,E6,0F,03,E8,03,E8,00,00,
6400827,00000067,false,Rx,0,8,74,3D,00,00,00,00,00,00,
6401081,000000F7,false,Rx,0,8,01,A6,00,00,00,00,00,00,
6401304,00000146,false,Rx,0,8,00,4E,02,B7,03,49,00,00,
6401560,000000FB,false,Rx,0,8,00,03,00,00,00,00,00,00,
6401824,00000066,false,Rx,0,8,00,00,00,00,00,00,00,00,
6402054,000000A3,false,Rx,0,8,33,0B,00,00,00,00,00,00,
6402310,000000D9,false,Rx,0,8,00,00,09,A6,01,01,00,00,
6402534,000000DB,false,Rx,0,8,00,5E,00,00,01,A6,00,00,
6402778,00000143,false,Rx,0,8,6A,06,01,A1,4D,40,01,A6,
6402997,00000148,false,Rx,0,8,00,00,00,81,C8,82,80,81,
6403257,00000147,false,Rx,0,8,00,00,00,00,00,00,01,A6,
6403508,0000014C,false,Rx,0,8,00,00,10,68,0F,1A,0F,24,
6403760,0000014E,false,Rx,0,8,00,00,00,00,00,00,00,00,
6404006,00000072,false,Rx,0,8,00,00,00,00,05,9D,01,A5,
6404244,0000015B,false,Rx,0,8,00,08,00,01,00,6C,00,96,
6404491,00000171,false,Rx,0,8,00,00,07,7F,24,00,00,00,
6404730,000002DD,false,Rx,0,8,69,02,FF,40,0F,FC,00,00,
6404970,00000310,false,Rx,0,8,05,17,06,DA,06,DA,00,1F,
6405215,00000013,false,Rx,0,8,D1,09,00,00,C0,00,00,00,
6405438,000000AA,false,Rx,0,8,CB,02,00,FA,3F,FE,3F,FF,
6405701,000002DD,false,Rx,0,8,2F,03,FF,40,0F,FC,00,00,
6405935,000000A2,false,Rx,0,8,C9,0B,00,00,00,00,24,09,
6406179,00000044,false,Rx,0,8,58,3C,08,29,FF,4F,00,00,
6406431,00000063,false,Rx,0,8,00,00,00,00,00,00,00,00,
6406683,00000065,false,Rx,0,8,00,00,00,00,00,00,00,00,
6406904,00000092,false,Rx,0,8,4E,07,00,06,10,00,28,00,
6407281,000000A4,false,Rx,0,8,00,00,00,00,27,FE,10,00,
6407374,000000A8,false,Rx,0,8,32,07,00,07,00,00,00,00,
6407623,00000177,false,Rx,0,8,41,43,00,00,4A,00,43,69,
6407875,00000205,false,Rx,0,8,B9,05,1B,FF,3F,FF,3F,FE,
6408167,00000318,false,Rx,0,8,00,00,00,00,05,19,01,0A,
6410159,00000041,false,Rx,0,8,C9,09,00,00,00,00,00,00,
6410319,0000000D,false,Rx,0,8,9A,00,03,E8,03,E8,00,00,
6411192,000001D3,false,Rx,0,8,00,00,00,00,00,00,00,00,
6411437,000001D1,false,Rx,0,8,00,00,7F,7F,7F,7F,FF,C0,
6411683,000000A3,false,Rx,0,8,60,0C,00,00,00,00,00,00,
6411922,00000066,false,Rx,0,8,00,00,00,00,00,00,00,00,
6412173,000001D2,false,Rx,0,8,00,00,00,00,00,00,00,00,
6412424,000001D4,false,Rx,0,8,00,00,00,00,00,00,00,00,
6415206,00000013,false,Rx,0,8,6B,0A,00,00,C0,00,00,00,
6415317,00000036,false,Rx,0,8,C5,39,00,00,00,00,00,00,
6415588,00000050,false,Rx,0,8,42,09,09,80,00,80,B4,50,
6415833,00000084,false,Rx,0,8,30,57,39,00,00,00,00,00,
6416073,00000044,false,Rx,0,8,48,3D,08,8E,FF,4F,00,00,
6416318,00000063,false,Rx,0,8,00,00,00,00,00,00,00,00,
6416574,00000065,false,Rx,0,8,00,00,00,00,00,00,00,00,
6416797,000000A2,false,Rx,0,8,9A,0C,00,00,00,00,24,09,
6417047,00000088,false,Rx,0,8,30,03,01,C1,C5,66,C8,98,
6417285,0000008A,false,Rx,0,8,00,00,03,96,02,39,00,00,
6417513,0000008C,false,Rx,0,8,4C,03,01,51,3C,5D,90,49,
6417765,0000008E,false,Rx,0,8,00,00,03,FF,00,00,00,45,
6418011,00000090,false,Rx,0,8,00,00,01,A2,00,00,00,00,
6418250,00000098,false,Rx,0,8,06,43,00,00,07,E8,03,E8,
6418490,000000AA,false,Rx,0,8,96,03,00,FA,3F,FE,3F,FF,
6418720,000000C8,false,Rx,0,8,25,03,00,06,00,06,7F,FD,
6418980,000000CA,false,Rx,0,8,2E,01,A2,0D,A1,80,00,2B,
6419197,000000EA,false,Rx,0,8,2C,53,00,00,00,00,00,00,
6419454,00000096,false,Rx,0,8,10,17,01,A1,00,00,00,00,
6419705,00000104,false,Rx,0,8,00,00,00,00,00,00,00,00,
6420017,00000109,false,Rx,0,8,00,00,00,00,00,0D,00,01,
6420187,00000041,false,Rx,0,8,45,0A,00,00,00,00,00,00,
6420442,0000000D,false,Rx,0,8,F0,01,03,E8,03,E8,00,00,
6420696,00000067,false,Rx,0,8,F8,3E,00,00,00,00,00,00,
6420941,00000115,false,Rx,0,8,00,00,00,00,00,00,01,00,
6421185,00000143,false,Rx,0,8,E5,07,01,A1,4D,40,01,A6,
6421425,00000183,false,Rx,0,8,0A,0A,00,5A,40,00,00,8C,
6421659,000001A3,false,Rx,0,8,00,00,00,78,82,01,00,8A,
6421892,000000A3,false,Rx,0,8,7D,0D,00,00,00,00,00,00,
6422167,00000066,false,Rx,0,8,00,00,00,00,00,00,00,00,
6422383,000000D9,false,Rx,0,8,00,00,09,A6,01,01,00,00,
6422629,000000DB,false,Rx,0,8,00,5F,00,00,01,A6,00,00,
6422868,000000DD,false,Rx,0,8,00,0A,00,0A,FE,0B,03,E6,
6423161,0000015B,false,Rx,0,8,00,08,00,01,00,6C,00,96,
6423353,00000207,false,Rx,0,8,49,00,00,00,00,00,1C,8F,
6423599,00000072,false,Rx,0,8,00,00,00,00,05,9D,01,A5,
6423858,000000E8,false,Rx,0,8,00,00,03,A4,00,14,00,00,
6424097,000001A1,false,Rx,0,8,6F,01,26,00,02,82,02,00,
6424340,0000029E,false,Rx,0,8,00,00,00,00,00,00,00,00,
6424587,000002DD,false,Rx,0,8,E0,04,FF,40,0F,FC,00,00,
6424816,000002E2,false,Rx,0,8,01,0A,0A,5A,00,00,00,8C,
6425059,000002E3,false,Rx,0,8,00,00,00,00,00,00,00,00,
6425292,00000013,false,Rx,0,8,F6,0B,00,00,C0,00,00,00,
6425543,000000AA,false,Rx,0,8,18,04,00,FA,3F,FE,3F,FF,
6425778,000000A2,false,Rx,0,8,87,0D,00,00,00,00,24,09,
6426018,00000044,false,Rx,0,8,B4,3E,08,F2,FF,4F,00,00,
6426274,00000063,false,Rx,0,8,00,00,00,00,00,00,00,00,
6426519,00000065,false,Rx,0,8,00,00,00,00,00,00,00,00,
6426766,00000092,false,Rx,0,8,C8,08,00,06,10,00,28,00,
6427101,000000A4,false,Rx,0,8,00,00,00,00,27,FE,10,00,
6427258,000000A8,false,Rx,0,8,B4,08,00,07,00,00,00,00,
6427497,000002DD,false,Rx,0,8,A6,05,FF,40,0F,FC,00,00,
6427760,000002E4,false,Rx,0,8,00,00,00,00,00,00,00,00,
6428000,00000316,false,Rx,0,8,00,00,00,00,64,64,64,64,
6428238,00000317,false,Rx,0,8,00,00,00,00,00,5A,8C,88,
6428478,0000031A,false,Rx,0,8,00,00,00,00,00,01,50,DE,
6428718,00000348,false,Rx,0,8,00,00,00,00,64,64,64,64,
6428958,00000349,false,Rx,0,8,00,00,00,00,00,5A,8C,88,
6429203,00000501,false,Rx,0,8,1E,02,01,81,01,00,00,00,
6430179,00000041,false,Rx,0,8,CA,0B,00,00,00,00,00,00,
6430332,0000000D,false,Rx,0,8,4E,02,03,E8,03,E8,00,00,
6431649,000000A3,false,Rx,0,8,5A,0E,00,00,00,00,00,00,
6431900,00000066,false,Rx,0,8,00,00,00,00,00,00,00,00,
6432179,00000110,false,Rx,0,8,00,00,00,01,83,60,02,6D,
6435180,00000013,false,Rx,0,8,02,0C,00,00,C0,00,00,00,
6435360,00000036,false,Rx,0,8,11,3A,00,00,00,00,00,00,
6435599,00000050,false,Rx,0,8,FC,0A,09,80,00,80,B4,50,
6435839,00000011,false,Rx,0,8,B5,EC,0C,00,00,00,00,00,
6436079,00000044,false,Rx,0,8,39,3F,09,55,FF,4F,00,00,
6436328,00000063,false,Rx,0,8,00,00,00,00,00,00,00,00,
6436579,00000065,false,Rx,0,8,00,00,00,00,00,00,00,00,
6436827,00000084,false,Rx,0,8,58,58,39,00,00,00,00,00,
6437059,00000088,false,Rx,0,8,E3,05,01,C1,C5,66,C8,98,
6437298,0000008A,false,Rx,0,8,00,00,03,96,02,39,00,00,
6437520,0000008C,false,Rx,0,8,9F,05,01,51,3C,5D,90,49,
6437768,0000008E,false,Rx,0,8,00,00,03,FF,00,00,00,45,
6438011,00000090,false,Rx,0,8,00,00,01,A2,00,00,00,00,
6438250,00000098,false,Rx,0,8,B3,45,00,00,07,E8,03,E8,
6438495,000000A2,false,Rx,0,8,A0,0E,00,00,00,00,24,09,
6438730,000000AA,false,Rx,0,8,45,05,00,FA,3F,FE,3F,FF,
6438971,000000C8,false,Rx,0,8,F6,05,00,06,00,06,7F,FD,
6439202,000000CA,false,Rx,0,8,B7,01,A2,15,A1,80,00,2B,
6439442,00000096,false,Rx,0,8,96,18,01,A1,00,00,00,00,
6439677,000002DD,false,Rx,0,8,6C,06,FF,40,0F,FC,00,00,
6439934,000000FB,false,Rx,0,8,00,04,00,00,00,00,00,00,
6440184,00000041,false,Rx,0,8,40,0C,00,00,00,00,00,00,
6440430,0000000D,false,Rx,0,8,24,03,03,E8,03,E8,00,00,
6440670,00000067,false,Rx,0,8,77,3F,00,00,00,00,00,00,
6440934,0000013D,false,Rx,0,8,00,00,00,00,00,00,00,00,
6441179,0000027A,false,Rx,0,8,40,04,0F,21,0F,22,0F,20,
6441419,0000013F,false,Rx,0,8,00,00,00,00,00,00,00,00,
6441659,000000A3,false,Rx,0,8,47,0F,00,00,00,00,00,00,
6441899,00000066,false,Rx,0,8,00,00,00,00,00,00,00,00,
6442179,000000D9,false,Rx,0,8,00,00,09,A6,01,01,00,00,
6442395,000000DB,false,Rx,0,8,00,50,00,00,01,A6,00,00,
6442623,00000143,false,Rx,0,8,63,08,01,A1,4D,40,01,A6,
6442856,0000015B,false,Rx,0,8,00,08,00,01,00,6C,00,96,
6443084,00000159,false,Rx,0,8,8B,0F,0D,3C,00,02,08,54,
6443327,0000027E,false,Rx,0,8,40,10,82,82,00,00,00,00,
6443751,00000072,false,Rx,0,8,00,00,00,00,05,9D,01,A5,
6445179,00000013,false,Rx,0,8,9F,0D,00,00,C0,00,00,00,
6445332,000000AA,false,Rx,0,8,A2,06,00,FA,3F,FE,3F,FF,
6445593,000002DD,false,Rx,0,8,2A,07,FF,40,0F,FC,00,00,
6445828,000000A2,false,Rx,0,8,BD,0F,00,00,00,00,24,09,
6446062,00000044,false,Rx,0,8,DF,30,09,B9,FF,4F,00,00,
6446313,00000063,false,Rx,0,8,00,00,00,00,00,00,00,00,
6446567,00000065,false,Rx,0,8,00,00,00,00,00,00,00,00,
6446802,00000092,false,Rx,0,8,47,09,00,06,10,00,28,00,
6447040,000000A4,false,Rx,0,8,00,00,00,00,27,FE,10,00,
6447292,000000A8,false,Rx,0,8,3B,09,00,07,00,00,00,00,
6447544,000001D5,false,Rx,0,8,00,00,00,00,00,00,00,57,
6447790,000001DF,false,Rx,0,8,00,00,00,00,00,00,00,57,
6449304,000000F7,false,Rx,0,8,01,A6,00,00,00,00,00,00,
6449543,000000EC,false,Rx,0,8,00,00,01,4F,01,E1,89,8B,
6450179,00000041,false,Rx,0,8,CF,0D,00,00,00,00,00,00,
6450342,0000000D,false,Rx,0,8,2F,04,03,E8,03,E8,00,00,
6451663,000000A3,false,Rx,0,8,FC,00,00,00,00,00,00,00,
6451896,00000066,false,Rx,0,8,00,00,00,00,00,00,00,00,
6455168,00000013,false,Rx,0,8,25,0E,00,00,C0,00,00,00,
6455382,00000036,false,Rx,0,8,5D,3B,00,00,00,00,00,00,
6455576,00000050,false,Rx,0,8,96,0B,09,80,00,80,B4,50,
6455816,00000084,false,Rx,0,8,C5,59,39,00,00,00,00,00,
6456050,00000044,false,Rx,0,8,F9,31,0A,1D,FF,4F,00,00,
6456304,00000063,false,Rx,0,8,00,00,00,00,00,00,00,00,
6456556,00000065,false,Rx,0,8,00,00,00,00,00,00,00,00,
6456802,000000A2,false,Rx,0,8,06,00,00,00,00,00,24,09,
6457030,00000088,false,Rx,0,8,59,07,01,C1,C5,66,C8,98,
6457274,0000008A,false,Rx,0,8,00,00,03,96,02,39,00,00,
6457510,0000008C,false,Rx,0,8,25,07,01,51,3C,5D,90,49,
6457741,0000008E,false,Rx,0,8,00,00,03,FF,00,00,00,45,
6457987,00000090,false,Rx,0,8,00,00,01,A2,00,00,00,00,
6458226,00000098,false,Rx,0,8,2B,47,00,00,07,E8,03,E8,
6458467,000000AA,false,Rx,0,8,FF,07,00,FA,3F,FE,3F,FF,
6458713,000000C8,false,Rx,0,8,76,07,00,06,00,06,7F,FF,
6458947,000000CA,false,Rx,0,8,C0,01,A2,1D,A1,80,00,2B,
6459191,000000EA,false,Rx,0,8,01,57,00,00,00,00,00,00,
6459431,00000096,false,Rx,0,8,19,19,01,A1,00,00,00,00,
6459682,00000104,false,Rx,0,8,00,00,00,04,00,00,00,00,
6459911,00000143,false,Rx,0,8,EC,09,01,A1,4D,40,01,A6,
6460161,00000041,false,Rx,0,8,43,0E,00,00,00,00,00,00,
6460401,0000000D,false,Rx,0,8,45,05,03,E8,03,E8,00,00,
6460647,00000067,false,Rx,0,8,F1,30,00,00,00,00,00,00,
6460899,000002DD,false,Rx,0,8,EF,08,FF,40,0F,FC,00,00,
6461637,000000A3,false,Rx,0,8,E1,01,00,00,00,00,00,00,
6461883,00000066,false,Rx,0,8,00,00,00,00,00,00,00,00,
6462168,000000D9,false,Rx,0,8,00,00,09,A6,01,01,00,00,
6462366,000000DB,false,Rx,0,8,00,51,00,00,01,A6,00,00,
6462612,000000DD,false,Rx,0,8,00,0A,00,0A,FE,0B,03,E6,
6462839,00000135,false,Rx,0,8,F0,19,00,00,00,00,00,00,
6463156,0000015B,false,Rx,0,8,00,08,00,01,00,6C,00,96,
6463324,00000191,false,Rx,0,8,00,AB,01,13,00,00,00,00,
6463570,00000072,false,Rx,0,8,00,00,00,00,05,9D,01,A5,
6463809,000000E8,false,Rx,0,8,00,00,03,A4,00,14,00,00,
6464055,0000012E,false,Rx,0,8,00,00,01,FE,01,FE,00,00,
6464292,0000013B,false,Rx,0,8,00,00,00,00,22,6A,1C,F3,
6464532,00000154,false,Rx,0,8,00,00,00,00,80,6E,6E,70,
6464790,000001A1,false,Rx,0,8,69,05,26,00,02,82,02,00,
6465036,00000206,false,Rx,0,8,00,00,00,00,00,00,01,A6,
6465280,00000013,false,Rx,0,8,B8,0F,00,00,C0,00,00,00,
6465518,000000AA,false,Rx,0,8,A3,08,00,FA,3F,FE,3F,FF,
6465741,000000A2,false,Rx,0,8,1B,01,00,00,00,00,24,09,
6465987,00000044,false,Rx,0,8,19,32,0A,82,FF,4F,00,00,
6466238,00000063,false,Rx,0,8,00,00,00,00,00,00,00,00,
6466490,00000065,false,Rx,0,8,00,00,00,00,00,00,00,00,
6466724,00000092,false,Rx,0,8,CB,0A,00,06,10,00,28,00,
6466970,000000A4,false,Rx,0,8,00,00,00,00,27,FE,10,00,
6467215,000000A8,false,Rx,0,8,B7,0A,00,07,00,00,00,00,
6467466,00000217,false,Rx,0,8,00,00,00,02,00,02,00,03,
6467726,00000230,false,Rx,0,8,00,0F,00,00,01,00,01,02,
6467965,000002DD,false,Rx,0,8,A9,09,FF,40,0F,FC,00,00,
6469209,00000183,false,Rx,0,8,0A,0A,00,5A,40,00,00,8C,
6469836,000001B1,false,Rx,0,8,00,00,10,00,00,00,00,00,
6470168,00000041,false,Rx,0,8,CC,0F,00,00,00,00,00,00,
6470336,0000000D,false,Rx,0,8,FB,06,03,E8,03,E8,00,00,
6470588,000001B2,false,Rx,0,8,00,00,00,00,00,00,00,00,
6471697,000000A3,false,Rx,0,8,C6,02,00,00,00,00,00,00,
6471948,00000066,false,Rx,0,8,00,00,00,00,00,00,00,00,
6475168,00000013,false,Rx,0,8,D0,00,00,00,C0,00,00,00,
6475342,00000036,false,Rx,0,8,A4,3C,00,00,00,00,00,00,
6475582,00000050,false,Rx,0,8,9D,0C,09,80,00,80,B4,50,
6475822,00000084,false,Rx,0,8,7F,5A,39,00,00,00,00,00,
6476062,00000011,false,Rx,0,8,DF,ED,0C,00,00,00,00,00,
6476298,00000044,false,Rx,0,8,AA,33,0A,E7,FF,4F,00,00,
6476550,00000063,false,Rx,0,8,00,00,00,00,00,00,00,00,
6476802,00000065,false,Rx,0,8,00,00,00,00,00,00,00,00,
6477036,00000088,false,Rx,0,8,58,09,01,C1,C5,66,C8,98,
6477274,0000008A,false,Rx,0,8,00,00,03,96,02,39,00,00,
6477510,0000008C,false,Rx,0,8,24,09,01,51,3C,5D,90,49,
6477743,0000008E,false,Rx,0,8,00,00,03,FF,00,00,00,45,
6477987,00000090,false,Rx,0,8,00,00,01,A2,00,00,00,00,
6478227,00000098,false,Rx,0,8,C4,49,00,00,07,E8,03,E8,
6478472,000000A2,false,Rx,0,8,3C,02,00,00,00,00,24,09,
6478714,000000AA,false,Rx,0,8,FE,09,00,FA,3F,FE,3F,FF,
6478947,000000C8,false,Rx,0,8,4D,09,00,06,00,06,7F,FD,
6479173,000000CA,false,Rx,0,8,99,01,A2,25,A2,80,00,24,
6479413,00000096,false,Rx,0,8,95,1A,01,A1,00,00,00,00,
6479658,000000EF,false,Rx,0,8,00,00,0E,4F,F4,00,00,00,
6479917,000000FB,false,Rx,0,8,00,05,00,00,00,00,00,00,
6480168,00000109,false,Rx,0,8,00,00,00,00,00,0D,00,01,
6480408,0000000D,false,Rx,0,8,91,07,03,E8,03,E8,00,00,
6480653,00000041,false,Rx,0,8,4A,00,00,00,00,00,00,00,
6480893,00000067,false,Rx,0,8,7E,31,00,00,00,00,00,00,
6481155,00000143,false,Rx,0,8,60,0A,01,A1,4D,40,01,A6,
6481371,00000204,false,Rx,0,8,D8,09,00,00,00,00,00,00,
6481611,000002DD,false,Rx,0,8,63,0A,FF,40,0F,FC,00,00,
6481857,000000A3,false,Rx,0,8,DB,03,00,00,00,00,00,00,
6482155,00000066,false,Rx,0,8,00,00,00,00,00,00,00,00,
6482347,000000D9,false,Rx,0,8,00,00,09,A6,01,01,00,00,
6482587,000000DB,false,Rx,0,8,00,52,00,00,01,A6,00,00,
6482840,00000110,false,Rx,0,8,00,00,00,01,83,60,02,6D,
6483168,00000130,false,Rx,0,8,00,00,00,20,00,4B,00,00,
6483342,00000132,false,Rx,0,8,00,00,00,00,00,00,00,00,
6483582,00000072,false,Rx,0,8,00,00,00,00,05,9D,01,A5,
6483823,00000134,false,Rx,0,8,00,00,00,00,00,00,0F,FF,
6484073,00000149,false,Rx,0,8,00,00,00,00,00,00,08,46,
6484315,0000015B,false,Rx,0,8,00,08,00,01,00,6C,00,96,
6484555,00000160,false,Rx,0,8,00,00,00,28,1F,D8,0F,FF,
6484795,00000162,false,Rx,0,8,00,1C,28,01,28,73,00,00,
6485042,00000164,false,Rx,0,8,00,00,00,00,00,3D,0A,6D,
6485280,00000013,false,Rx,0,8,4D,01,00,00,C0,00,00,00,
6485521,000000AA,false,Rx,0,8,19,0A,00,FA,3F,FE,3F,FF,
6485772,00000166,false,Rx,0,8,00,00,03,C0,00,00,00,00,
6486004,00000044,false,Rx,0,8,49,34,0B,4A,FF,4F,00,00,
6486246,00000063,false,Rx,0,8,00,00,00,00,00,00,00,00,
6486498,00000065,false,Rx,0,8,00,00,00,00,00,00,00,00,
6486738,00000092,false,Rx,0,8,44,0B,00,06,10,00,28,00,
6486987,000000A2,false,Rx,0,8,21,03,00,00,00,00,24,09,
6487238,000000A4,false,Rx,0,8,00,00,00,00,27,FE,10,00,
6487496,000000A8,false,Rx,0,8,38,0B,00,07,00,00,00,00,
6487737,000002DD,false,Rx,0,8,25,0B,FF,40,0F,FC,00,00,
6487963,00000400,false,Rx,0,8,62,51,91,33,05,09,29,45,
6488209,00000595,false,Rx,0,8,95,00,FF,FF,FF,FF,FF,FF,
6490167,00000041,false,Rx,0,8,C5,01,00,00,00,00,00,00,
6490335,0000000D,false,Rx,0,8,ED,08,03,E8,03,E8,00,00,
6491672,000000A3,false,Rx,0,8,88,04,00,00,00,00,00,00,
6491918,00000066,false,Rx,0,8,00,00,00,00,00,00,00,00,
6494774,0000019A,false,Rx,0,8,77,01,01,A2,00,01,00,00,
6495168,00000013,false,Rx,0,8,F7,02,00,00,C0,00,00,00,
6495336,00000036,false,Rx,0,8,E8,3D,00,00,00,00,00,00,
6495572,00000050,false,Rx,0,8,F7,0D,09,80,00,80,B4,50,
6495810,00000084,false,Rx,0,8,E2,5B,39,00,00,00,00,00,
6496047,00000044,false,Rx,0,8,B5,35,0B,AE,FF,4F,00,00,
6496298,00000063,false,Rx,0,8,00,00,00,00,00,00,00,00,
6496549,00000065,false,Rx,0,8,00,00,00,00,00,00,00,00,
6496789,000000A2,false,Rx,0,8,72,04,00,00,00,00,24,09,
6497024,00000088,false,Rx,0,8,E2,0B,01,C1,C5,66,C8,98,
6497262,0000008A,false,Rx,0,8,00,00,03,96,02,39,00,00,
6497490,0000008C,false,Rx,0,8,9E,0B,01,51,3C,5D,90,49,
6497742,0000008E,false,Rx,0,8,00,00,03,FF,00,00,00,45,
6497976,00000090,false,Rx,0,8,00,00,01,A2,00,00,00,00,
6498214,00000098,false,Rx,0,8,5C,4B,00,00,07,E8,03,E8,
6498454,000000AA,false,Rx,0,8,44,0B,00,FA,3F,FE,3F,FF,
6498695,000000C8,false,Rx,0,8,F7,0B,00,06,00,06,7F,FD,
6498929,000000CA,false,Rx,0,8,07,01,A2,2D,A1,80,00,23,
6499173,000000EA,false,Rx,0,8,76,5B,00,00,00,00,00,00,
6499413,00000096,false,Rx,0,8,1A,1B,01,A1,00,00,00,00,
6499664,00000104,false,Rx,0,8,00,00,00,04,00,00,00,00,
6499911,000000EC,false,Rx,0,8,00,00,01,4E,01,DE,89,8B,
6500167,00000041,false,Rx,0,8,49,02,00,00,00,00,00,00,
6500395,0000000D,false,Rx,0,8,87,09,03,E8,03,E8,00,00,
6500641,00000067,false,Rx,0,8,F2,32,00,00,00,00,00,00,
6500874,000000F7,false,Rx,0,8,01,A6,00,00,00,00,00,00,
6501155,00000146,false,Rx,0,8,00,4E,02,B7,03,49,00,00,
6501341,00000143,false,Rx,0,8,EF,0B,01,A1,4D,40,01,A6,
6501581,00000148,false,Rx,0,8,00,00,00,81,C8,82,80,81,
6501833,00000066,false,Rx,0,8,00,00,00,00,00,00,00,00,
6502146,000000A3,false,Rx,0,8,95,05,00,00,00,00,00,00,
6502308,000000D9,false,Rx,0,8,00,00,09,A6,01,01,00,00,
6502553,000000DB,false,Rx,0,8,00,53,00,00,01,A6,00,00,
6502804,000000DD,false,Rx,0,8,00,0A,00,0A,FE,0B,03,E6,
6503041,0000014C,false,Rx,0,8,00,00,10,68,0F,1A,0F,24,
6503291,0000014E,false,Rx,0,8,00,00,00,00,00,00,00,00,
6503537,0000015B,false,Rx,0,8,00,08,00,01,00,6C,00,96,
6503777,00000171,false,Rx,0,8,00,00,07,7F,24,00,00,00,
6504023,00000072,false,Rx,0,8,00,00,00,00,05,9D,01,A5,
6504268,000000E8,false,Rx,0,8,00,00,03,A4,00,14,00,00,
6504502,000001A1,false,Rx,0,8,63,09,26,00,02,82,02,00,
6504746,00000200,false,Rx,0,8,00,00,00,01,80,42,FE,38,
6505006,0000025F,false,Rx,0,8,00,00,00,00,00,00,00,00,
6505251,00000013,false,Rx,0,8,6A,03,00,00,C0,00,00,00,
6505491,000000AA,false,Rx,0,8,CA,0C,00,FA,3F,FE,3F,FF,
6505743,0000030B,false,Rx,0,8,00,00,00,00,00,00,00,00,
6505982,00000063,false,Rx,0,8,00,00,00,00,00,00,00,00,
6506220,00000044,false,Rx,0,8,1D,36,0C,12,FF,4F,00,00,
6506472,00000065,false,Rx,0,8,00,00,00,00,00,00,00,00,
6506712,00000092,false,Rx,0,8,CE,0C,00,06,10,00,28,00,
6506961,000000A2,false,Rx,0,8,6F,05,00,00,00,00,24,09,
6507196,000000A4,false,Rx,0,8,00,00,00,00,27,FE,10,00,
6507442,000000A8,false,Rx,0,8,B2,0C,00,07,00,00,00,00,
6507679,00000177,false,Rx,0,8,41,43,00,00,4A,00,43,69,
6507940,00000304,false,Rx,0,8,00,00,00,00,00,00,00,00,
6509536,0000059F,false,Rx,0,8,9F,00,FF,FF,FF,FF,FF,FF,
6510168,00000041,false,Rx,0,8,C6,03,00,00,00,00,00,00,
6510348,0000000D,false,Rx,0,8,39,0A,03,E8,03,E8,00,00,
6511667,000000A3,false,Rx,0,8,B2,06,00,00,00,00,00,00,
6511918,00000066,false,Rx,0,8,00,00,00,00,00,00,00,00,
6515158,00000013,false,Rx,0,8,9E,04,00,00,C0,00,00,00,
6515333,00000036,false,Rx,0,8,3C,3E,00,00,00,00,00,00,
6515582,00000050,false,Rx,0,8,49,0E,09,80,00,80,B4,50,
6515821,00000011,false,Rx,0,8,61,EE,0C,00,00,00,00,00,
6516061,00000044,false,Rx,0,8,21,37,0C,76,FF,4F,00,00,
6516309,00000063,false,Rx,0,8,00,00,00,00,00,00,00,00,
6516558,00000065,false,Rx,0,8,00,00,00,00,00,00,00,00,
6516796,00000084,false,Rx,0,8,16,5C,39,00,00,00,00,00,
6517030,00000088,false,Rx,0,8,31,0D,01,C1,C5,66,C8,98,
6517269,0000008A,false,Rx,0,8,00,00,03,96,02,39,00,00,
6517501,0000008C,false,Rx,0,8,4D,0D,01,51,3C,5D,90,49,
6517753,0000008E,false,Rx,0,8,00,00,03,FF,00,00,00,45,
6517987,00000090,false,Rx,0,8,00,00,01,A2,00,00,00,00,
6518226,00000098,false,Rx,0,8,E9,4D,00,00,07,E8,03,E8,
6518461,000000A2,false,Rx,0,8,48,06,00,00,00,00,24,09,
6518686,000000AA,false,Rx,0,8,97,0D,00,FA,3F,FE,3F,FF,
6518940,000000C8,false,Rx,0,8,24,0D,00,06,00,06,7F,FD,
6519172,000000CA,false,Rx,0,8,F7,01,A2,35,A1,80,00,26,
6519423,00000096,false,Rx,0,8,90,1C,01,A1,00,00,00,00,
6519669,00000115,false,Rx,0,8,00,00,00,00,00,00,01,00,
6519914,000000FB,false,Rx,0,8,00,06,00,00,00,00,00,00,
6520165,00000041,false,Rx,0,8,4C,04,00,00,00,00,00,00,
6520405,0000000D,false,Rx,0,8,53,0B,03,E8,03,E8,00,00,
6520651,00000067,false,Rx,0,8,7D,33,00,00,00,00,00,00,
6520897,0000013D,false,Rx,0,8,00,00,00,00,00,00,00,00,
6521166,00000183,false,Rx,0,8,0A,0A,00,5A,40,00,00,8C,
6521394,0000013F,false,Rx,0,8,00,00,00,00,00,00,00,00,
6521634,000001A3,false,Rx,0,8,00,00,00,78,82,01,00,8B,
6521874,000000A3,false,Rx,0,8,AF,07,00,00,00,00,00,00,
6522167,00000066,false,Rx,0,8,00,00,00,00,00,00,00,00,
6522371,000000D9,false,Rx,0,8,00,00,09,A6,01,01,00,00,
6522623,000000DB,false,Rx,0,8,00,54,00,00,01,A6,00,00,
6522851,00000143,false,Rx,0,8,65,0C,01,A1,4D,40,01,A6,
6523091,0000015B,false,Rx,0,8,00,08,00,01,00,6C,00,96,
6523323,0000029E,false,Rx,0,8,00,00,00,00,00,00,00,00,
6523578,000002DD,false,Rx,0,8,66,0E,FF,40,0F,FC,00,00,
6523878,00000072,false,Rx,0,8,00,00,00,00,05,9D,01,A5,
6525179,00000013,false,Rx,0,8,03,05,00,00,C0,00,00,00,
6525332,000000AA,false,Rx,0,8,70,0E,00,FA,3F,FE,3F,FF,
6525588,000002DD,false,Rx,0,8,20,0F,FF,40,0F,FC,00,00,
6525827,000000A2,false,Rx,0,8,55,07,00,00,00,00,24,09,
6526067,00000044,false,Rx,0,8,2B,38,0C,D9,FF,4F,00,00,
6526321,00000063,false,Rx,0,8,00,00,00,00,00,00,00,00,
6526572,00000065,false,Rx,0,8,00,00,00,00,00,00,00,00,
6526792,00000092,false,Rx,0,8,41,0D,00,06,10,00,28,00,
6527045,000000A4,false,Rx,0,8,00,00,00,00,27,FE,10,00,
6527303,000000A8,false,Rx,0,8,3D,0D,00,07,00,00,00,00,
6529731,000001D3,false,Rx,0,8,00,00,00,00,00,00,00,00,
6529970,000001D4,false,Rx,0,8,00,00,00,00,00,00,00,00,
6530221,0000000D,false,Rx,0,8,58,0C,03,E8,03,E8,00,00,
6530466,00000041,false,Rx,0,8,C3,05,00,00,00,00,00,00,
6530712,0000051E,false,Rx,0,8,22,02,00,3F,00,00,00,00,
6531620,000000A3,false,Rx,0,8,14,08,00,00,00,00,00,00,
6531861,00000066,false,Rx,0,8,00,00,00,00,00,00,00,00,
6532146,00000110,false,Rx,0,8,00,00,00,01,83,60,02,6D,
6532674,000001D1,false,Rx,0,8,00,00,7F,7F,7F,7F,FF,C0,
6532939,000001D2,false,Rx,0,8,00,00,00,00,00,00,00,00,
6534191,000002B4,false,Rx,0,8,00,00,00,0C,1F,18,3C,FF,
6535185,00000013,false,Rx,0,8,B9,06,00,00,C0,00,00,00,
6535338,00000036,false,Rx,0,8,70,3F,00,00,00,00,00,00,
6535589,00000050,false,Rx,0,8,23,0F,09,80,00,80,B4,50,
6535827,00000084,false,Rx,0,8,8B,5D,39,00,00,00,00,00,
6536067,00000044,false,Rx,0,8,4A,39,0D,3D,FF,4F,00,00,
6536317,00000063,false,Rx,0,8,00,00,00,00,00,00,00,00,
6536567,00000065,false,Rx,0,8,00,00,00,00,00,00,00,00,
6536807,000000A2,false,Rx,0,8,EE,08,00,00,00,00,24,09,
6537041,00000088,false,Rx,0,8,8B,0F,01,C1,C5,66,C8,98,
6537272,0000008A,false,Rx,0,8,00,00,03,96,02,39,00,00,
6537508,0000008C,false,Rx,0,8,F7,0F,01,51,3C,5D,90,49,
6537760,0000008E,false,Rx,0,8,00,00,03,FF,00,00,00,45,
6538007,00000090,false,Rx,0,8,00,00,01,A2,00,00,00,00,
6538231,00000098,false,Rx,0,8,71,4F,00,00,07,E8,03,E8,
6538466,000000AA,false,Rx,0,8,2D,0F,00,FA,3F,FE,3F,FF,
6538712,000000C8,false,Rx,0,8,9E,0F,00,06,00,06,7F,FD,
6538940,000000CA,false,Rx,0,8,E9,01,A2,3D,A1,80,00,23,
6539184,000000EA,false,Rx,0,8,5B,5F,00,00,00,00,00,00,
6539418,00000096,false,Rx,0,8,1F,1D,01,A1,00,00,00,00,
6539681,00000104,false,Rx,0,8,00,00,00,04,00,00,00,00,
6539927,00000109,false,Rx,0,8,00,00,00,00,00,0D,00,01,
6540184,00000041,false,Rx,0,8,4F,06,00,00,00,00,00,00,
6540424,0000000D,false,Rx,0,8,32,0D,03,E8,03,E8,00,00,
6540670,00000067,false,Rx,0,8,F7,34,00,00,00,00,00,00,
6540904,00000143,false,Rx,0,8,EA,0D,01,A1,4D,40,01,A6,
6541166,000002DD,false,Rx,0,8,E5,00,FF,40,0F,FC,00,00,
6541644,000000A3,false,Rx,0,8,09,09,00,00,00,00,00,00,
6541907,00000066,false,Rx,0,8,00,00,00,00,00,00,00,00,
6542166,000000D9,false,Rx,0,8,00,00,09,A6,01,01,00,00,
6542388,000000DB,false,Rx,0,8,00,55,00,00,01,A6,00,00,
6542634,000000DD,false,Rx,0,8,00,0A,00,0A,FE,0B,03,E6,
6542880,00000135,false,Rx,0,8,D7,1A,00,00,00,00,00,00,
6543179,0000015B,false,Rx,0,8,00,08,00,01,00,6C,00,96,
6543377,00000191,false,Rx,0,8,00,AB,01,13,00,00,00,00,
6543607,00000072,false,Rx,0,8,00,00,00,00,05,9D,01,A5,
6543842,000000E8,false,Rx,0,8,00,00,03,A4,00,14,00,00,
6544178,0000013B,false,Rx,0,8,00,00,00,00,22,6A,1C,F4,
6544325,000001A1,false,Rx,0,8,65,0D,26,00,02,82,02,00,
6545179,00000013,false,Rx,0,8,24,07,00,00,C0,00,00,00,
6545325,000000AA,false,Rx,0,8,71,00,00,FA,3F,FE,3F,FF,
6545587,000002DD,false,Rx,0,8,A3,01,FF,40,0F,FC,00,00,
6545821,000000A2,false,Rx,0,8,F3,09,00,00,00,00,24,09,
6546050,00000044,false,Rx,0,8,26,3A,0D,A1,FF,4F,00,00,
6546314,00000063,false,Rx,0,8,00,00,00,00,00,00,00,00,
6546560,00000065,false,Rx,0,8,00,00,00,00,00,00,00,00,
6546794,00000092,false,Rx,0,8,CD,0E,00,06,10,00,28,00,
6547032,000000A4,false,Rx,0,8,00,00,00,00,27,FE,10,00,
6547274,000000A8,false,Rx,0,8,B1,0E,00,07,00,00,00,00,
6549303,000000F7,false,Rx,0,8,01,A6,00,00,00,00,00,00,
6549543,000000EC,false,Rx,0,8,00,00,01,4D,01,E4,8A,8A,
6550171,00000041,false,Rx,0,8,C0,07,00,00,00,00,00,00,
6550337,0000000D,false,Rx,0,8,8C,0E,03,E8,03,E8,00,00,
6551660,000000A3,false,Rx,0,8,2E,0A,00,00,00,00,00,00,
6551916,00000066,false,Rx,0,8,00,00,00,00,00,00,00,00,
6554701,00000405,false,Rx,0,8,10,00,00,00,00,53,41,44,
6555179,00000013,false,Rx,0,8,4C,08,00,00,C0,00,00,00,
6555335,00000036,false,Rx,0,8,D3,30,00,00,00,00,00,00,
6555587,00000050,false,Rx,0,8,5F,00,09,80,00,80,B4,50,
6555827,00000084,false,Rx,0,8,31,5E,39,00,00,00,00,00,
6556064,00000011,false,Rx,0,8,0B,EF,0C,00,00,00,00,00,
6556315,00000044,false,Rx,0,8,8C,3B,0E,06,FF,4F,00,00,
6556566,00000063,false,Rx,0,8,00,00,00,00,00,00,00,00,
6556812,00000065,false,Rx,0,8,00,00,00,00,00,00,00,00,
6557046,00000088,false,Rx,0,8,8A,01,01,C1,C5,66,C8,98,
6557281,0000008A,false,Rx,0,8,00,00,03,96,02,39,00,00,
6557519,0000008C,false,Rx,0,8,F6,01,01,51,3C,5D,90,49,
6557766,0000008E,false,Rx,0,8,00,00,03,FF,00,00,00,45,
6558010,00000090,false,Rx,0,8,00,00,01,A2,00,00,00,00,
6558243,00000098,false,Rx,0,8,9E,41,00,00,07,E8,03,E8,
6558482,000000A2,false,Rx,0,8,D4,0A,00,00,00,00,24,09,
6558723,000000AA,false,Rx,0,8,2C,01,00,FA,3F,FE,3F,FF,
6558970,000000C8,false,Rx,0,8,9F,01,00,06,00,06,7F,FD,
6559196,000000CA,false,Rx,0,8,E2,01,A2,05,A1,80,00,24,
6559433,00000096,false,Rx,0,8,93,1E,01,A1,00,00,00,00,
6559681,000000EF,false,Rx,0,8,00,00,0E,4F,F4,00,00,00,
6559933,000000FB,false,Rx,0,8,00,07,00,00,00,00,00,00,
6560169,000002DD,false,Rx,0,8,69,02,FF,40,0F,FC,00,00,
6560424,0000000D,false,Rx,0,8,E6,0F,03,E8,03,E8,00,00,
6560672,00000041,false,Rx,0,8,46,08,00,00,00,00,00,00,
6560922,00000067,false,Rx,0,8,78,35,00,00,00,00,00,00,
6561166,00000143,false,Rx,0,8,66,0E,01,A1,4D,40,01,A6,
6561704,000000A3,false,Rx,0,8,33,0B,00,00,00,00,00,00,
6561955,00000066,false,Rx,0,8,00,00,00,00,00,00,00,00,
6562196,000000D9,false,Rx,0,8,00,00,09,A6,01,01,00,00,
6562435,000000DB,false,Rx,0,8,00,56,00,00,01,A6,00,00,
6562666,0000015B,false,Rx,0,8,00,08,00,01,00,6C,00,96,
6563689,00000072,false,Rx,0,8,00,00,00,00,05,9D,01,A5,
6563931,00000154,false,Rx,0,8,00,00,00,00,80,6D,6D,70,
6565178,00000013,false,Rx,0,8,D1,09,00,00,C0,00,00,00,
6565318,000000AA,false,Rx,0,8,CB,02,00,FA,3F,FE,3F,FF,
6565587,000002DD,false,Rx,0,8,2F,03,FF,40,0F,FC,00,00,
6565821,000000A2,false,Rx,0,8,C9,0B,00,00,00,00,24,09,
6566050,00000044,false,Rx,0,8,DD,3C,0E,6A,FF,4F,00,00,
6566309,00000063,false,Rx,0,8,00,00,00,00,00,00,00,00,
6566561,00000065,false,Rx,0,8,00,00,00,00,00,00,00,00,
6566801,00000092,false,Rx,0,8,42,0F,00,06,10,00,28,00,
6567045,000000A4,false,Rx,0,8,00,00,00,00,27,FE,10,00,
6567297,000000A8,false,Rx,0,8,3E,0F,00,07,00,00,00,00,
6567532,000001D5,false,Rx,0,8,00,00,00,00,00,00,00,57,
6567795,000001DF,false,Rx,0,8,00,00,00,00,00,00,00,57,
6568029,00000205,false,Rx,0,8,5E,06,1B,FF,3F,FF,3F,FE,
6569207,00000183,false,Rx,0,8,0A,0A,00,5A,40,00,00,8C,
6570178,00000041,false,Rx,0,8,C9,09,00,00,00,00,00,00,
6570331,0000000D,false,Rx,0,8,9A,00,03,E8,03,E8,00,00,
6571196,000001B1,false,Rx,0,8,00,00,10,00,00,00,00,00,
6571627,000000A3,false,Rx,0,8,60,0C,00,00,00,00,00,00,
6571890,00000066,false,Rx,0,8,00,00,00,00,00,00,00,00,
6572178,000001B2,false,Rx,0,8,00,00,00,00,00,00,00,00,
6573772,000002C1,false,Rx,0,8,00,00,28,01,03,E8,50,00,
6575179,00000013,false,Rx,0,8,6B,0A,00,00,C0,00,00,00,
6575323,00000036,false,Rx,0,8,9F,31,00,00,00,00,00,00,
6575581,00000050,false,Rx,0,8,35,01,09,80,00,80,B4,50,
6575821,00000084,false,Rx,0,8,AC,5F,39,00,00,00,00,00,
6576051,00000044,false,Rx,0,8,5C,3D,0E,CE,FF,4E,00,00,
6576315,00000063,false,Rx,0,8,00,00,00,00,00,00,00,00,
6576562,00000065,false,Rx,0,8,00,00,00,00,00,00,00,00,
6576799,000000A2,false,Rx,0,8,9A,0C,00,00,00,00,24,09,
6577040,00000088,false,Rx,0,8,30,03,01,C1,C5,66,C8,98,
6577277,0000008A,false,Rx,0,8,00,00,03,96,02,39,00,00,
6577507,0000008C,false,Rx,0,8,4C,03,01,51,3C,5D,90,49,
6577753,0000008E,false,Rx,0,8,00,00,03,FF,00,00,00,45,
6577998,00000090,false,Rx,0,8,00,00,01,A2,00,00,00,00,
6578232,00000098,false,Rx,0,8,06,43,00,00,07,E8,03,E8,
6578477,000000AA,false,Rx,0,8,96,03,00,FA,3F,FE,3F,FF,
6578723,000000C8,false,Rx,0,8,25,03,00,06,00,06,7F,FD,
6578958,000000CA,false,Rx,0,8,7D,01,A2,0D,A1,80,00,2C,
6579214,000000EA,false,Rx,0,8,2C,53,00,00,00,00,00,00,
6579438,00000096,false,Rx,0,8,1C,1F,01,A1,00,00,00,00,
6579705,00000104,false,Rx,0,8,00,00,00,04,00,00,00,00,
6579934,00000143,false,Rx,0,8,E9,0F,01,A1,4D,40,01,A6,
6580184,00000041,false,Rx,0,8,45,0A,00,00,00,00,00,00,
6580424,0000000D,false,Rx,0,8,F0,01,03,E8,03,E8,00,00,
6580670,00000067,false,Rx,0,8,F4,36,00,00,00,00,00,00,
6580910,00000207,false,Rx,0,8,49,00,00,00,00,00,1C,8F,
6581178,000002DD,false,Rx,0,8,E0,04,FF,40,0F,FC,00,00,
6581668,000000A3,false,Rx,0,8,7D,0D,00,00,00,00,00,00,
6581919,00000066,false,Rx,0,8,00,00,00,00,00,00,00,00,
6582178,000000D9,false,Rx,0,8,00,00,09,A6,01,01,00,00,
6582400,000000DB,false,Rx,0,8,00,57,00,00,01,A6,00,00,
6582640,000000DD,false,Rx,0,8,00,0A,00,0A,FE,0B,03,E6,
6582886,00000110,false,Rx,0,8,00,00,00,01,83,60,02,6D,
6583178,00000130,false,Rx,0,8,00,00,00,20,00,4B,00,00,
6583364,00000072,false,Rx,0,8,00,00,00,00,05,9D,01,A5,
6583610,000000E8,false,Rx,0,8,00,00,03,A4,00,14,00,00,
6583855,00000132,false,Rx,0,8,00,00,00,00,00,00,00,00,
6584166,00000134,false,Rx,0,8,00,00,00,00,00,00,0F,FF,
6584358,00000149,false,Rx,0,8,00,00,00,00,00,00,08,46,
6584598,0000015B,false,Rx,0,8,00,08,00,01,00,6C,00,96,
6584844,00000160,false,Rx,0,8,00,00,00,28,1F,D8,0F,FF,
6585084,00000162,false,Rx,0,8,00,1C,28,01,27,73,00,00,
6585325,00000013,false,Rx,0,8,F6,0B,00,00,C0,00,00,00,
6585572,000000AA,false,Rx,0,8,18,04,00,FA,3F,FE,3F,FF,
6585811,00000164,false,Rx,0,8,00,00,00,00,00,3D,0A,6D,
6586049,00000044,false,Rx,0,8,6C,3E,0F,31,FF,4F,00,00,
6586315,00000063,false,Rx,0,8,00,00,00,00,00,00,00,00,
6586566,00000065,false,Rx,0,8,00,00,00,00,00,00,00,00,
6586806,00000092,false,Rx,0,8,C4,00,00,06,10,00,28,00,
6587051,000000A2,false,Rx,0,8,87,0D,00,00,00,00,24,09,
6587279,000000A4,false,Rx,0,8,00,00,00,00,27,FE,10,00,
6587524,000000A8,false,Rx,0,8,A5,00,00,06,00,00,00,00,
6587776,00000166,false,Rx,0,8,00,00,03,C0,00,00,00,00,
6588011,000001A1,false,Rx,0,8,6F,01,26,00,02,82,02,00,
6588251,0000020D,false,Rx,0,8,00,00,00,00,00,00,00,00,
6588507,000002DD,false,Rx,0,8,A6,05,FF,40,0F,FC,00,00,
6588741,0000031C,false,Rx,0,8,64,64,FF,FF,AA,50,50,50,
6590178,00000041,false,Rx,0,8,CA,0B,00,00,00,00,00,00,
6590325,0000000D,false,Rx,0,8,4E,02,03,E8,03,E8,00,00,
6591694,000000A3,false,Rx,0,8,5A,0E,00,00,00,00,00,00,
6591948,00000066,false,Rx,0,8,00,00,00,00,00,00,00,00,
6594790,0000019A,false,Rx,0,8,1F,02,01,A2,00,00,00,00,
6595182,00000013,false,Rx,0,8,02,0C,00,00,C0,00,00,00,
6595327,00000036,false,Rx,0,8,4B,32,00,00,00,00,00,00,
6595580,00000050,false,Rx,0,8,8B,02,09,80,00,80,B4,50,
6595828,00000011,false,Rx,0,8,77,E0,0C,00,00,00,00,00,
6596055,00000044,false,Rx,0,8,7C,3F,0F,96,FF,4F,00,00,
6596321,00000063,false,Rx,0,8,00,00,00,00,00,00,00,00,
6596573,00000065,false,Rx,0,8,00,00,00,00,00,00,00,00,
6596812,00000084,false,Rx,0,8,C4,50,39,00,00,00,00,00,
6597046,00000088,false,Rx,0,8,E3,05,01,C1,C5,66,C8,98,
6597278,0000008A,false,Rx,0,8,00,00,03,96,02,39,00,00,
6597506,0000008C,false,Rx,0,8,9F,05,01,51,3C,5D,90,49,
6597758,0000008E,false,Rx,0,8,00,00,03,FF,00,00,00,45,
6598003,00000090,false,Rx,0,8,00,00,01,A2,00,00,00,00,
6598231,00000098,false,Rx,0,8,B3,45,00,00,07,E8,03,E8,
6598482,000000A2,false,Rx,0,8,A0,0E,00,00,00,00,24,09,
6598723,000000AA,false,Rx,0,8,45,05,00,FA,3F,FE,3F,FF,
6598964,000000C8,false,Rx,0,8,F6,05,00,06,00,06,7F,FD,
6599195,000000CA,false,Rx,0,8,B5,01,A2,15,A1,80,00,30,
6599432,00000096,false,Rx,0,8,9A,10,01,A1,00,00,00,00,
6599675,00000109,false,Rx,0,8,00,00,00,00,00,0D,00,01,
6599916,000000EC,false,Rx,0,8,00,00,01,4F,01,E0,8A,8A,
6600179,00000041,false,Rx,0,8,40,0C,00,00,00,00,00,00,
6600415,0000000D,false,Rx,0,8,24,03,03,E8,03,E8,00,00,
6600664,00000067,false,Rx,0,8,7B,37,00,00,00,00,00,00,
6600910,000000F7,false,Rx,0,8,01,A6,00,00,00,00,00,00,
6601165,00000146,false,Rx,0,8,00,4E,02,B7,03,49,00,00,
6601387,000000FB,false,Rx,0,8,00,08,00,00,00,00,00,00,
6601627,00000148,false,Rx,0,8,00,00,00,81,C8,82,80,81,
6601873,000000A3,false,Rx,0,8,47,0F,00,00,00,00,00,00,
6602166,00000066,false,Rx,0,8,00,00,00,00,00,00,00,00,
6602364,000000D9,false,Rx,0,8,00,00,09,A6,01,01,00,00,
6602604,000000DB,false,Rx,0,8,00,58,00,00,01,A6,00,00,
6602856,0000013D,false,Rx,0,8,00,00,00,00,00,00,00,00,
6603166,0000014C,false,Rx,0,8,00,00,10,68,0F,1A,0F,25,
6603352,0000013F,false,Rx,0,8,00,00,00,00,00,00,00,00,
6603604,00000072,false,Rx,0,8,00,00,00,00,05,9D,01,A5,
6603827,00000143,false,Rx,0,8,6F,00,01,A1,4D,40,01,A6,
6604084,0000014E,false,Rx,0,8,00,00,00,00,00,00,00,00,
6604333,00000147,false,Rx,0,8,00,00,00,00,00,00,01,A6,
6604572,0000015B,false,Rx,0,8,00,08,00,01,00,6C,00,96,
6604806,00000159,false,Rx,0,8,89,0E,8D,3C,00,02,09,54,
6605046,00000171,false,Rx,0,8,00,00,07,7F,24,00,00,00,
6605278,00000013,false,Rx,0,8,9F,0D,00,00,C0,00,00,00,
6605519,000000AA,false,Rx,0,8,A2,06,00,FA,3F,FE,3F,FF,
6605754,000000A2,false,Rx,0,8,BD,0F,00,00,00,00,24,09,
6605982,00000044,false,Rx,0,8,5A,30,0F,FA,FF,4F,00,00,
6606255,00000063,false,Rx,0,8,00,00,00,00,00,00,00,00,
6606507,00000065,false,Rx,0,8,00,00,00,00,00,00,00,00,
6606747,00000092,false,Rx,0,8,4B,01,00,06,10,00,28,00,
6606993,000000A4,false,Rx,0,8,00,00,00,00,27,FE,10,00,
6607237,000000A8,false,Rx,0,8,2A,01,00,06,00,00,00,00,
6607471,00000177,false,Rx,0,8,41,43,00,00,4A,00,43,69,
6607705,00000312,false,Rx,0,8,00,00,43,69,00,44,82,4B,
6607928,00000400,false,Rx,0,8,B0,22,6A,1C,F3,37,04,FF,
6610162,00000041,false,Rx,0,8,CF,0D,00,00,00,00,00,00,
6610365,0000000D,false,Rx,0,8,2F,04,03,E8,03,E8,00,00,
6611678,000000A3,false,Rx,0,8,FC,00,00,00,00,00,00,00,
6611930,00000066,false,Rx,0,8,00,00,00,00,00,00,00,00,
6615177,00000013,false,Rx,0,8,25,0E,00,00,C0,00,00,00,
6615336,00000036,false,Rx,0,8,07,33,00,00,00,00,00,00,
6615580,00000050,false,Rx,0,8,E1,03,09,80,00,80,B4,50,
6615820,00000084,false,Rx,0,8,59,51,39,00,00,00,00,00,
6616060,00000044,false,Rx,0,8,AE,31,00,5E,FF,4F,00,00,
6616315,00000063,false,Rx,0,8,00,00,00,00,00,00,00,00,
6616560,00000065,false,Rx,0,8,00,00,00,00,00,00,00,00,
6616807,000000A2,false,Rx,0,8,06,00,00,00,00,00,24,09,
6617029,00000088,false,Rx,0,8,59,07,01,C1,C5,66,C8,98,
6617279,0000008A,false,Rx,0,8,00,00,03,96,02,39,00,00,
6617513,0000008C,false,Rx,0,8,25,07,01,51,3C,5D,90,49,
6617762,0000008E,false,Rx,0,8,00,00,03,FF,00,00,00,45,
6618010,00000090,false,Rx,0,8,00,00,01,A2,00,00,00,00,
6618237,00000098,false,Rx,0,8,2B,47,00,00,07,E8,03,E8,
6618477,000000AA,false,Rx,0,8,FF,07,00,FA,3F,FE,3F,FF,
6618717,000000C8,false,Rx,0,8,4C,07,00,06,00,06,7F,FD,
6618945,000000CA,false,Rx,0,8,A9,01,A2,1D,A1,80,00,2E,
6619195,000000EA,false,Rx,0,8,01,57,00,00,00,00,00,00,
6619435,00000096,false,Rx,0,8,15,11,01,A1,00,00,00,00,
6619686,00000104,false,Rx,0,8,00,00,00,00,00,00,00,00,
6619932,00000115,false,Rx,0,8,00,00,00,00,00,00,01,00,
6620177,00000041,false,Rx,0,8,43,0E,00,00,00,00,00,00,
6620423,0000000D,false,Rx,0,8,45,05,03,E8,03,E8,00,00,
6620675,00000067,false,Rx,0,8,FD,38,00,00,00,00,00,00,
6620903,00000143,false,Rx,0,8,E0,01,01,A1,4D,40,01,A6,
6621179,00000183,false,Rx,0,8,0A,0A,00,5A,40,00,00,8C,
6621394,000001A3,false,Rx,0,8,00,00,00,78,82,01,00,8B,
6621646,0000029E,false,Rx,0,8,00,00,00,00,00,00,00,00,
6621885,000000A3,false,Rx,0,8,E1,01,00,00,00,00,00,00,
6622178,00000066,false,Rx,0,8,00,00,00,00,00,00,00,00,
6622364,000000D9,false,Rx,0,8,00,00,09,A6,01,01,00,00,
6622592,000000DB,false,Rx,0,8,00,59,00,00,01,A6,00,00,
6622850,000000DD,false,Rx,0,8,00,0A,00,0A,FE,0B,03,E6,
6623166,00000135,false,Rx,0,8,CA,1B,00,00,00,00,00,00,
6623312,0000015B,false,Rx,0,8,00,08,00,01,00,6C,00,96,
6623574,00000072,false,Rx,0,8,00,00,00,00,05,9D,01,A5,
6623821,000000E8,false,Rx,0,8,00,00,03,A4,00,14,00,00,
6624060,0000012E,false,Rx,0,8,00,00,01,FE,01,FE,00,00,
6624302,0000013B,false,Rx,0,8,00,00,00,00,22,6A,1C,F5,
6624555,00000191,false,Rx,0,8,00,AB,01,13,00,00,00,00,
6624783,000001A1,false,Rx,0,8,69,05,26,00,02,82,02,00,
6625035,000002DD,false,Rx,0,8,EF,08,FF,40,0F,FC,00,00,
6625279,00000013,false,Rx,0,8,B8,0F,00,00,C0,00,00,00,
6625513,000000AA,false,Rx,0,8,A3,08,00,FA,3F,FE,3F,FF,
6625761,000000A2,false,Rx,0,8,1B,01,00,00,00,00,24,09,
6625993,00000044,false,Rx,0,8,C2,32,00,C2,FF,4F,00,00,
6626237,00000063,false,Rx,0,8,00,00,00,00,00,00,00,00,
6626488,00000065,false,Rx,0,8,00,00,00,00,00,00,00,00,
6626723,00000092,false,Rx,0,8,C7,02,00,06,10,00,28,00,
6626957,000000A4,false,Rx,0,8,00,00,00,00,27,FE,10,00,
6627231,000000A8,false,Rx,0,8,A6,02,00,06,00,00,00,00,
6627478,00000346,false,Rx,0,8,00,00,00,00,00,00,00,00,
6627729,00000347,false,Rx,0,8,00,00,00,00,00,00,00,00,
6627976,0000059E,false,Rx,0,8,9E,10,FF,FF,FF,FF,FF,FF,
6630090,00000041,false,Rx,0,8,CC,0F,00,00,00,00,00,00,
6630330,0000000D,false,Rx,0,8,FB,06,03,E8,03,E8,00,00,
6631671,000000A3,false,Rx,0,8,C6,02,00,00,00,00,00,00,
6631923,00000066,false,Rx,0,8,00,00,00,00,00,00,00,00,
6632178,00000110,false,Rx,0,8,00,00,00,01,83,60,02,6D,
6635170,00000013,false,Rx,0,8,D0,00,00,00,C0,00,00,00,
6635326,00000036,false,Rx,0,8,FE,34,00,00,00,00,00,00,
6635585,00000050,false,Rx,0,8,EA,04,09,80,00,80,B4,50,
6635826,00000084,false,Rx,0,8,E3,52,39,00,00,00,00,00,
6636067,00000011,false,Rx,0,8,1D,E1,0C,00,00,00,00,00,
6636303,00000044,false,Rx,0,8,A3,33,01,26,FF,4F,00,00,
6636555,00000063,false,Rx,0,8,00,00,00,00,00,00,00,00,
6636807,00000065,false,Rx,0,8,00,00,00,00,00,00,00,00,
6637052,000000A2,false,Rx,0,8,3C,02,00,00,00,00,24,09,
6637285,00000088,false,Rx,0,8,58,09,01,C1,C5,66,C8,98,
6637525,0000008A,false,Rx,0,8,00,00,03,96,02,39,00,00,
6637755,0000008C,false,Rx,0,8,24,09,01,51,3C,5D,90,49,
6638004,0000008E,false,Rx,0,8,00,00,03,FF,00,00,00,45,
6638249,00000090,false,Rx,0,8,00,00,01,A2,00,00,00,00,
6638489,00000098,false,Rx,0,8,C4,49,00,00,07,E8,03,E8,
6638723,000000AA,false,Rx,0,8,FE,09,00,FA,3F,FE,3F,FF,
6638965,000000C8,false,Rx,0,8,4D,09,00,06,00,06,7F,FD,
6639179,000000CA,false,Rx,0,8,CB,01,A2,25,A1,80,00,2C,
6639430,00000096,false,Rx,0,8,99,12,01,A1,00,00,00,00,
6639670,000000EF,false,Rx,0,8,00,00,0E,4F,F4,00,00,00,
6639921,000000FB,false,Rx,0,8,00,09,00,00,00,00,00,00,
6640178,000002DD,false,Rx,0,8,63,0A,FF,40,0F,FC,00,00,
6640400,0000000D,false,Rx,0,8,91,07,03,E8,03,E8,00,00,
6640652,00000041,false,Rx,0,8,4A,00,00,00,00,00,00,00,
6640892,00000067,false,Rx,0,8,72,39,00,00,00,00,00,00,
6641178,00000143,false,Rx,0,8,6C,02,01,A1,4D,40,01,A6,
6641353,00000522,false,Rx,0,8,01,12,00,3F,00,00,00,00,
6641675,000000A3,false,Rx,0,8,DB,03,00,00,00,00,00,00,
6641927,00000066,false,Rx,0,8,00,00,00,00,00,00,00,00,
6642178,000000D9,false,Rx,0,8,00,00,09,A6,01,01,00,00,
6642406,000000DB,false,Rx,0,8,00,5A,00,00,01,A6,00,00,
6642651,0000015B,false,Rx,0,8,00,08,00,01,00,6C,00,96,
6642897,00000206,false,Rx,0,8,00,00,00,00,00,00,01,A6,
6643873,00000072,false,Rx,0,8,00,00,00,00,05,9D,01,A5,
6645093,00000013,false,Rx,0,8,4D,01,00,00,C0,00,00,00,
6645333,000000AA,false,Rx,0,8,19,0A,00,FA,3F,FE,3F,FF,
6645573,000002DD,false,Rx,0,8,25,0B,FF,40,0F,FC,00,00,
6645807,000000A2,false,Rx,0,8,21,03,00,00,00,00,24,09,
6646042,00000044,false,Rx,0,8,52,34,01,8A,FF,4F,00,00,
6646308,00000063,false,Rx,0,8,00,00,00,00,00,00,00,00,
6646560,00000065,false,Rx,0,8,00,00,00,00,00,00,00,00,
6646794,00000092,false,Rx,0,8,48,03,00,06,10,00,28,00,
6647030,000000A4,false,Rx,0,8,00,00,00,00,27,FE,10,00,
6647273,000000A8,false,Rx,0,8,29,03,00,06,00,00,00,00,
6649303,000000F7,false,Rx,0,8,01,A6,00,00,00,00,00,00,
6649552,000000EC,false,Rx,0,8,00,00,01,4F,01,E1,8A,8B,
6650178,00000041,false,Rx,0,8,C5,01,00,00,00,00,00,00,
6650324,0000000D,false,Rx,0,8,ED,08,03,E8,03,E8,00,00,
6650586,000001D3,false,Rx,0,8,00,00,00,00,00,00,00,00,
6650903,000001D1,false,Rx,0,8,00,00,7F,7F,7F,7F,FF,C0,
6651178,000001D2,false,Rx,0,8,00,00,00,00,00,00,00,00,
6651412,000001D4,false,Rx,0,8,00,00,00,00,00,00,00,00,
6651664,000000A3,false,Rx,0,8,88,04,00,00,00,00,00,00,
6651915,00000066,false,Rx,0,8,00,00,00,00,00,00,00,00,
6655178,00000013,false,Rx,0,8,F7,02,00,00,C0,00,00,00,
6655326,00000036,false,Rx,0,8,B2,35,00,00,00,00,00,00,
6655574,00000050,false,Rx,0,8,80,05,09,80,00,80,B4,50,
6655810,00000084,false,Rx,0,8,7E,53,39,00,00,00,00,00,
6656060,00000044,false,Rx,0,8,E2,35,01,ED,FF,4F,00,00,
6656308,00000063,false,Rx,0,8,00,00,00,00,00,00,00,00,
6656560,00000065,false,Rx,0,8,00,00,00,00,00,00,00,00,
6656805,000000A2,false,Rx,0,8,72,04,00,00,00,00,24,09,
6657033,00000088,false,Rx,0,8,E2,0B,01,C1,C5,66,C8,98,
6657273,0000008A,false,Rx,0,8,00,00,03,96,02,39,00,00,
6657501,0000008C,false,Rx,0,8,9E,0B,01,51,3C,5D,90,49,
6657753,0000008E,false,Rx,0,8,00,00,03,FF,00,00,00,45,
6657987,00000090,false,Rx,0,8,00,00,01,A2,00,00,00,00,
6658243,00000098,false,Rx,0,8,5C,4B,00,00,07,E8,03,E8,
6658483,000000AA,false,Rx,0,8,44,0B,00,FA,3F,FE,3F,FF,
6658723,000000C8,false,Rx,0,8,F7,0B,00,06,00,06,7F,FD,
6658959,000000CA,false,Rx,0,8,BC,01,A2,2D,A1,80,00,2C,
6659182,000000EA,false,Rx,0,8,76,5B,00,00,00,00,00,00,
6659435,00000096,false,Rx,0,8,16,13,01,A1,00,00,00,00,
6659687,00000104,false,Rx,0,8,00,00,00,04,00,00,00,00,
6659933,00000109,false,Rx,0,8,00,00,00,00,00,0D,00,01,
6660166,00000041,false,Rx,0,8,49,02,00,00,00,00,00,00,
6660417,0000000D,false,Rx,0,8,87,09,03,E8,03,E8,00,00,
6660669,00000067,false,Rx,0,8,FE,3A,00,00,00,00,00,00,
6660897,00000143,false,Rx,0,8,E3,03,01,A1,4D,40,01,A6,
6661178,00000204,false,Rx,0,8,62,0B,00,00,00,00,00,00,
6661400,0000025F,false,Rx,0,8,00,00,00,00,00,00,00,00,
6661640,000002DD,false,Rx,0,8,EA,0C,FF,40,0F,FC,00,00,
6661880,000000A3,false,Rx,0,8,95,05,00,00,00,00,00,00,
6662177,00000066,false,Rx,0,8,00,00,00,00,00,00,00,00,
6662359,000000D9,false,Rx,0,8,00,00,09,A6,01,01,00,00,
6662610,000000DB,false,Rx,0,8,00,5B,00,00,01,A6,00,00,
6662856,000000DD,false,Rx,0,8,00,0A,00,0A,FE,0B,03,E6,
6663084,0000015B,false,Rx,0,8,00,08,00,01,00,6C,00,96,
6663397,00000072,false,Rx,0,8,00,00,00,00,05,9D,01,A5,
6663643,000000E8,false,Rx,0,8,00,00,03,A4,00,14,00,00,
6663883,00000154,false,Rx,0,8,00,00,00,00,80,6D,6D,70,
6664178,000001A1,false,Rx,0,8,63,09,26,00,02,82,02,00,
6664370,00000217,false,Rx,0,8,00,00,00,02,00,02,00,03,
6664586,00000230,false,Rx,0,8,00,0E,00,00,01,00,01,02,
6665178,00000013,false,Rx,0,8,6A,03,00,00,C0,00,00,00,
6665331,000000AA,false,Rx,0,8,CA,0C,00,FA,3F,FE,3F,FF,
6665593,000002DD,false,Rx,0,8,AC,0D,FF,40,0F,FC,00,00,
6665833,000000A2,false,Rx,0,8,6F,05,00,00,00,00,24,09,
6666067,00000044,false,Rx,0,8,04,36,02,51,FF,4F,00,00,
6666320,00000063,false,Rx,0,8,00,00,00,00,00,00,00,00,
6666572,00000065,false,Rx,0,8,00,00,00,00,00,00,00,00,
6666800,00000092,false,Rx,0,8,C2,04,00,06,10,00,28,00,
6667053,000000A4,false,Rx,0,8,00,00,00,00,27,FE,10,00,
6667291,000000A8,false,Rx,0,8,A3,04,00,06,00,00,00,00,
6669267,00000183,false,Rx,0,8,0A,0A,00,5A,40,00,00,8C,
6670177,00000041,false,Rx,0,8,C6,03,00,00,00,00,00,00,
6670330,0000000D,false,Rx,0,8,39,0A,03,E8,03,E8,00,00,
6670598,000001B1,false,Rx,0,8,00,00,10,00,00,00,00,00,
6670844,000001B2,false,Rx,0,8,00,00,00,00,00,00,00,00,
6671665,000000A3,false,Rx,0,8,B2,06,00,00,00,00,00,00,
6671917,00000066,false,Rx,0,8,00,00,00,00,00,00,00,00,
6675093,00000013,false,Rx,0,8,9E,04,00,00,C0,00,00,00,
6675338,00000036,false,Rx,0,8,66,36,00,00,00,00,00,00,
6675578,00000050,false,Rx,0,8,3E,06,09,80,00,80,B4,50,
6675824,00000011,false,Rx,0,8,A3,E2,0C,00,00,00,00,00,
6676064,00000044,false,Rx,0,8,F8,37,02,B5,FF,4F,00,00,
6676314,00000063,false,Rx,0,8,00,00,00,00,00,00,00,00,
6676566,00000065,false,Rx,0,8,00,00,00,00,00,00,00,00,
6676800,00000084,false,Rx,0,8,8A,54,39,00,00,00,00,00,
6677040,00000088,false,Rx,0,8,31,0D,01,C1,C5,66,C8,98,
6677279,0000008A,false,Rx,0,8,00,00,03,96,02,39,00,00,
6677506,0000008C,false,Rx,0,8,4D,0D,01,51,3C,5D,90,49,
6677758,0000008E,false,Rx,0,8,00,00,03,FF,00,00,00,45,
6678004,00000090,false,Rx,0,8,00,00,01,A2,00,00,00,00,
6678243,00000098,false,Rx,0,8,E9,4D,00,00,07,E8,03,E8,
6678483,000000A2,false,Rx,0,8,48,06,00,00,00,00,24,09,
6678717,000000AA,false,Rx,0,8,97,0D,00,FA,3F,FE,3F,FF,
6679172,000000C8,false,Rx,0,8,24,0D,00,06,00,06,7F,FD,
6679185,000000CA,false,Rx,0,8,25,01,A2,35,A1,80,00,2C,
6679424,00000096,false,Rx,0,8,9C,14,01,A1,00,00,00,00,
6679664,000002DD,false,Rx,0,8,66,0E,FF,40,0F,FC,00,00,
6679910,000000FB,false,Rx,0,8,00,0A,00,00,00,00,00,00,
6680166,00000041,false,Rx,0,8,4C,04,00,00,00,00,00,00,
6680402,0000000D,false,Rx,0,8,53,0B,03,E8,03,E8,00,00,
6680633,00000067,false,Rx,0,8,71,3B,00,00,00,00,00,00,
6680892,0000013D,false,Rx,0,8,00,00,00,00,00,00,00,00,
6681173,0000013F,false,Rx,0,8,00,00,00,00,00,00,00,00,
6681412,00000143,false,Rx,0,8,69,04,01,A1,4D,40,01,A6,
6681670,000000A3,false,Rx,0,8,AF,07,00,00,00,00,00,00,
6681922,00000066,false,Rx,0,8,00,00,00,00,00,00,00,00,
6682467,000000D9,false,Rx,0,8,00,00,09,A6,01,01,00,00,
6682498,000000DB,false,Rx,0,8,00,5C,00,00,01,A6,00,00,
6682625,00000110,false,Rx,0,8,00,00,00,01,83,60,02,6D,
6682909,00000130,false,Rx,0,8,00,00,00,20,00,4B,00,00,
6683179,00000132,false,Rx,0,8,00,00,00,00,00,00,00,00,
6683411,00000134,false,Rx,0,8,00,00,00,00,00,00,0F,FF,
6683646,00000072,false,Rx,0,8,00,00,00,00,05,9D,01,A5,
6683903,00000149,false,Rx,0,8,00,00,00,00,00,00,08,46,
6684181,0000015B,false,Rx,0,8,00,08,00,01,00,6C,00,96,
6684388,00000160,false,Rx,0,8,00,00,00,28,1F,D8,0F,FF,
6684611,00000162,false,Rx,0,8,00,1C,28,01,28,73,00,00,
6684867,00000164,false,Rx,0,8,00,00,00,00,00,3D,0A,6D,
6685177,00000166,false,Rx,0,8,00,00,03,C0,00,00,00,00,
6685367,00000013,false,Rx,0,8,03,05,00,00,C0,00,00,00,
6685604,000000AA,false,Rx,0,8,70,0E,00,FA,3F,FE,3F,FF,
6685832,000000A2,false,Rx,0,8,55,07,00,00,00,00,24,09,
6686078,00000044,false,Rx,0,8,6F,38,03,1A,FF,4F,00,00,
6686332,00000063,false,Rx,0,8,00,00,00,00,00,00,00,00,
6686584,00000065,false,Rx,0,8,00,00,00,00,00,00,00,00,
6686817,00000092,false,Rx,0,8,4D,05,00,06,10,00,28,00,
6687052,000000A4,false,Rx,0,8,00,00,00,00,27,FE,10,00,
6687308,000000A8,false,Rx,0,8,2C,05,00,06,00,00,00,00,
6687543,000001D5,false,Rx,0,8,00,00,00,00,00,00,00,57,
6687806,000001DF,false,Rx,0,8,00,00,00,00,00,00,00,57,
6688041,000002DD,false,Rx,0,8,20,0F,FF,40,0F,FC,00,00,
6690098,00000041,false,Rx,0,8,C3,05,00,00,00,00,00,00,
6690326,0000000D,false,Rx,0,8,58,0C,03,E8,03,E8,00,00,
6691864,000000A3,false,Rx,0,8,14,08,00,00,00,00,00,00,
6691922,00000066,false,Rx,0,8,00,00,00,00,00,00,00,00,
6692852,000002B4,false,Rx,0,8,00,00,00,0C,1F,18,3C,FF,
6695005,0000019A,false,Rx,0,8,42,03,01,A2,00,00,00,00,
6695062,00000013,false,Rx,0,8,B9,06,00,00,C0,00,00,00,
6695327,00000036,false,Rx,0,8,2A,37,00,00,00,00,00,00,
6695801,00000050,false,Rx,0,8,54,07,09,80,00,80,B4,50,
6695828,00000084,false,Rx,0,8,17,55,39,00,00,00,00,00,
6696058,00000044,false,Rx,0,8,53,39,03,7E,FF,4F,00,00,
6696692,00000063,false,Rx,0,8,00,00,00,00,00,00,00,00,
6696719,00000065,false,Rx,0,8,00,00,00,00,00,00,00,00,
6696764,000000A2,false,Rx,0,8,EE,08,00,00,00,00,24,09,
6697227,00000088,false,Rx,0,8,8B,0F,01,C1,C5,66,C8,98,
6697371,0000008A,false,Rx,0,8,00,00,03,96,02,39,00,00,
6697489,0000008C,false,Rx,0,8,F7,0F,01,51,3C,5D,90,49,
6697973,0000008E,false,Rx,0,8,00,00,03,FF,00,00,00,45,
6697989,00000090,false,Rx,0,8,00,00,01,A2,00,00,00,00,
6698220,00000098,false,Rx,0,8,71,4F,00,00,07,E8,03,E8,
6698829,000000AA,false,Rx,0,8,2D,0F,00,FA,3F,FE,3F,FF,
6698846,000000C8,false,Rx,0,8,A4,0F,00,06,00,06,7F,FF,
6698934,000000CA,false,Rx,0,8,01,01,A2,3D,A1,80,00,2B,
6699178,000000EA,false,Rx,0,8,5B,5F,00,00,00,00,00,00,
6699632,00000096,false,Rx,0,8,13,15,01,A1,00,00,00,00,
6699659,00000104,false,Rx,0,8,00,00,00,04,00,00,00,00,
6699921,000000EC,false,Rx,0,8,00,00,01,4F,01,E1,8A,8B,
6700547,00000041,false,Rx,0,8,4F,06,00,00,00,00,00,00,
6700564,0000000D,false,Rx,0,8,32,0D,03,E8,03,E8,00,00,
6700626,00000067,false,Rx,0,8,FB,3C,00,00,00,00,00,00,
6701103,000000F7,false,Rx,0,8,01,A6,00,00,00,00,00,00,
6701144,00000146,false,Rx,0,8,00,4E,02,B7,03,49,00,00,
6701370,00000143,false,Rx,0,8,E6,05,01,A1,4D,40,01,A6,
6701861,00000148,false,Rx,0,8,00,00,00,81,C8,82,80,81,
6701879,00000066,false,Rx,0,8,00,00,00,00,00,00,00,00,
6702166,000000A3,false,Rx,0,8,09,09,00,00,00,00,00,00,
6702335,000000D9,false,Rx,0,8,00,00,09,A6,01,01,00,00,
6702575,000000DB,false,Rx,0,8,00,5D,00,00,01,A6,00,00,
6702815,000000DD,false,Rx,0,8,00,0A,00,0A,FE,0B,03,E6,
6703061,00000135,false,Rx,0,8,99,1C,00,00,00,00,00,00,
6703303,0000014C,false,Rx,0,8,00,00,10,68,0F,1A,0F,25,
6703548,0000014E,false,Rx,0,8,00,00,00,00,00,00,00,00,
6703794,00000072,false,Rx,0,8,00,00,00,00,05,9D,01,A5,
6704040,000000E8,false,Rx,0,8,00,00,03,A4,00,14,00,00,
6704281,0000013B,false,Rx,0,8,00,00,00,00,22,6A,1C,F5,
6704519,0000015B,false,Rx,0,8,00,08,00,01,00,6C,00,96,
6704759,00000171,false,Rx,0,8,00,00,07,7F,24,00,00,00,
6705005,00000191,false,Rx,0,8,00,AB,01,13,00,00,00,00,
6705249,00000013,false,Rx,0,8,24,07,00,00,C0,00,00,00,
6705490,000000AA,false,Rx,0,8,71,00,00,FA,3F,FE,3F,FF,
6705728,000000A2,false,Rx,0,8,F3,09,00,00,00,00,24,09,
6705975,00000063,false,Rx,0,8,00,00,00,00,00,00,00,00,
6706220,00000044,false,Rx,0,8,B3,3A,03,E1,FF,4F,00,00,
6706471,00000065,false,Rx,0,8,00,00,00,00,00,00,00,00,
6706711,00000092,false,Rx,0,8,C1,06,00,06,10,00,28,00,
6706972,000000A4,false,Rx,0,8,00,00,00,00,27,FE,10,00,
6707205,000000A8,false,Rx,0,8,A0,06,00,06,00,00,00,00,
6707442,00000177,false,Rx,0,8,41,43,00,00,4A,00,43,69,
6707676,000001A1,false,Rx,0,8,65,0D,26,00,02,82,02,00,
6707921,00000200,false,Rx,0,8,00,00,00,01,80,42,FE,38,
6710391,00000041,false,Rx,0,8,C0,07,00,00,00,00,00,00,
6710399,0000000D,false,Rx,0,8,8C,0E,03,E8,03,E8,00,00,
6711713,000000A3,false,Rx,0,8,2E,0A,00,00,00,00,00,00,
6711965,00000066,false,Rx,0,8,00,00,00,00,00,00,00,00,
6715103,00000013,false,Rx,0,8,4C,08,00,00,C0,00,00,00,
6715326,00000036,false,Rx,0,8,89,38,00,00,00,00,00,00,
6715572,00000050,false,Rx,0,8,28,08,09,80,00,80,B4,50,
6715812,00000084,false,Rx,0,8,AD,56,39,00,00,00,00,00,
6716051,00000011,false,Rx,0,8,C9,E3,0C,00,00,00,00,00,
6716291,00000044,false,Rx,0,8,57,3B,04,46,FF,4F,00,00,
6716542,00000063,false,Rx,0,8,00,00,00,00,00,00,00,00,
6716794,00000065,false,Rx,0,8,00,00,00,00,00,00,00,00,
6717029,00000088,false,Rx,0,8,8A,01,01,C1,C5,66,C8,98,
6717267,0000008A,false,Rx,0,8,00,00,03,96,02,39,00,00,
6717495,0000008C,false,Rx,0,8,F6,01,01,51,3C,5D,90,49,
6717747,0000008E,false,Rx,0,8,00,00,03,FF,00,00,00,45,
6717993,00000090,false,Rx,0,8,00,00,01,A2,00,00,00,00,
6718238,00000098,false,Rx,0,8,9E,41,00,00,07,E8,03,E8,
6718477,000000A2,false,Rx,0,8,D4,0A,00,00,00,00,24,09,
6718717,000000AA,false,Rx,0,8,2C,01,00,FA,3F,FE,3F,FF,
6718970,000000C8,false,Rx,0,8,9F,01,00,06,00,06,7F,FD,
6719193,000000CA,false,Rx,0,8,59,01,A2,05,A1,80,00,2B,
6719430,00000096,false,Rx,0,8,9F,16,01,A1,00,00,00,00,
6719679,000000EF,false,Rx,0,8,00,00,0E,4F,F4,00,00,00,
6719927,000000FB,false,Rx,0,8,00,0B,00,00,00,00,00,00,
6720172,00000109,false,Rx,0,8,00,00,00,00,00,0D,00,01,
6720418,0000000D,false,Rx,0,8,E6,0F,03,E8,03,E8,00,00,
6720664,00000041,false,Rx,0,8,46,08,00,00,00,00,00,00,
6720909,00000067,false,Rx,0,8,74,3D,00,00,00,00,00,00,
6721166,00000115,false,Rx,0,8,00,00,00,00,00,00,01,00,
6721382,00000143,false,Rx,0,8,6A,06,01,A1,4D,40,01,A6,
6721628,00000183,false,Rx,0,8,0A,0A,00,5A,40,00,00,8C,
6721874,00000066,false,Rx,0,8,00,00,00,00,00,00,00,00,
6722166,000000A3,false,Rx,0,8,33,0B,00,00,00,00,00,00,
6722359,000000D9,false,Rx,0,8,00,00,09,A6,01,01,00,00,
6722599,000000DB,false,Rx,0,8,00,5E,00,00,01,A6,00,00,
6722838,0000015B,false,Rx,0,8,00,08,00,01,00,6C,00,96,
6723074,000001A3,false,Rx,0,8,00,00,00,78,82,01,00,8B,
6723327,0000029E,false,Rx,0,8,00,00,00,00,00,00,00,00,
6723572,00000072,false,Rx,0,8,00,00,00,00,05,9D,01,A5,
6723813,000002DD,false,Rx,0,8,69,02,FF,40,0F,FC,00,00,
6725081,00000013,false,Rx,0,8,D1,09,00,00,C0,00,00,00,
6725311,000000AA,false,Rx,0,8,CB,02,00,FA,3F,FE,3F,FF,
6725567,000002DD,false,Rx,0,8,2F,03,FF,40,0F,FC,00,00,
6725803,000000A2,false,Rx,0,8,C9,0B,00,00,00,00,24,09,
6726041,00000044,false,Rx,0,8,C6,3C,04,AA,FF,4F,00,00,
6726291,00000063,false,Rx,0,8,00,00,00,00,00,00,00,00,
6726543,00000065,false,Rx,0,8,00,00,00,00,00,00,00,00,
6726777,00000092,false,Rx,0,8,4E,07,00,06,10,00,28,00,
6727024,000000A4,false,Rx,0,8,00,00,00,00,27,FE,10,00,
6727267,000000A8,false,Rx,0,8,2F,07,00,06,00,00,00,00,
6727513,00000205,false,Rx,0,8,03,07,1B,FF,3F,FF,3F,FE,
6729761,00000400,false,Rx,0,8,63,06,92,13,A1,01,30,4B,
6730083,00000041,false,Rx,0,8,C9,09,00,00,00,00,00,00,
6730326,0000000D,false,Rx,0,8,9A,00,03,E8,03,E8,00,00,
6731617,000000A3,false,Rx,0,8,60,0C,00,00,00,00,00,00,
6731869,00000066,false,Rx,0,8,00,00,00,00,00,00,00,00,
6732166,00000110,false,Rx,0,8,00,00,00,01,83,60,02,6D,
6735102,00000013,false,Rx,0,8,6B,0A,00,00,C0,00,00,00,
6735320,00000036,false,Rx,0,8,C5,39,00,00,00,00,00,00,
6735555,00000050,false,Rx,0,8,42,09,09,80,00,80,B4,50,
6735806,00000084,false,Rx,0,8,30,57,39,00,00,00,00,00,
6736040,00000044,false,Rx,0,8,C7,3D,05,0E,FF,4F,00,00,
6736291,00000063,false,Rx,0,8,00,00,00,00,00,00,00,00,
6736543,00000065,false,Rx,0,8,00,00,00,00,00,00,00,00,
6736788,000000A2,false,Rx,0,8,9A,0C,00,00,00,00,24,09,
6737028,00000088,false,Rx,0,8,30,03,01,C1,C5,66,C8,98,
6737269,0000008A,false,Rx,0,8,00,00,03,96,02,39,00,00,
6737495,0000008C,false,Rx,0,8,4C,03,01,51,3C,5D,90,49,
6737746,0000008E,false,Rx,0,8,00,00,03,FF,00,00,00,45,
6737993,00000090,false,Rx,0,8,00,00,01,A2,00,00,00,00,
6738232,00000098,false,Rx,0,8,06,43,00,00,07,E8,03,E8,
6738471,000000AA,false,Rx,0,8,96,03,00,FA,3F,FE,3F,FF,
6738711,000000C8,false,Rx,0,8,25,03,00,06,00,06,7F,FD,
6738964,000000CA,false,Rx,0,8,7D,01,A2,0D,A1,80,00,2C,
6739189,000000EA,false,Rx,0,8,2C,53,00,00,00,00,00,00,
6739435,00000096,false,Rx,0,8,10,17,01,A1,00,00,00,00,
6739687,00000104,false,Rx,0,8,00,00,00,04,00,00,00,00,
6739921,00000143,false,Rx,0,8,E5,07,01,A1,4D,40,01,A6,
6740162,00000041,false,Rx,0,8,45,0A,00,00,00,00,00,00,
6740407,0000000D,false,Rx,0,8,F0,01,03,E8,03,E8,00,00,
6740654,00000067,false,Rx,0,8,F8,3E,00,00,00,00,00,00,
6740894,00000207,false,Rx,0,8,49,00,00,00,00,00,1C,8F,
6741157,0000027A,false,Rx,0,8,42,04,0F,22,0F,20,0F,22,
6741376,0000027E,false,Rx,0,8,42,10,82,82,00,00,00,00,
6741618,000002DD,false,Rx,0,8,E0,04,FF,40,0F,FC,00,00,
6741871,00000066,false,Rx,0,8,00,00,00,00,00,00,00,00,
6742166,000000A3,false,Rx,0,8,7D,0D,00,00,00,00,00,00,
6742357,000000D9,false,Rx,0,8,00,00,09,A6,01,01,00,00,
6742603,000000DB,false,Rx,0,8,00,5F,00,00,01,A6,00,00,
6742844,000000DD,false,Rx,0,8,00,0A,00,0A,FE,0B,03,E6,
6743084,0000015B,false,Rx,0,8,00,08,00,01,00,6C,00,96,
6743648,000001A1,false,Rx,0,8,6F,01,26,00,02,82,02,00,
6743889,00000072,false,Rx,0,8,00,00,00,00,05,9D,01,A5,
6744162,000000E8,false,Rx,0,8,00,00,03,A4,00,14,00,00,
6745073,00000013,false,Rx,0,8,F6,0B,00,00,C0,00,00,00,
6745320,000000AA,false,Rx,0,8,18,04,00,FA,3F,FE,3F,FF,
6745560,000002DD,false,Rx,0,8,A6,05,FF,40,0F,FC,00,00,
6745801,000000A2,false,Rx,0,8,87,0D,00,00,00,00,24,09,
6746042,00000044,false,Rx,0,8,3B,3E,05,72,FF,4F,00,00,
6746272,00000063,false,Rx,0,8,00,00,00,00,00,00,00,00,
6746545,00000065,false,Rx,0,8,00,00,00,00,00,00,00,00,
6746781,00000092,false,Rx,0,8,C8,08,00,06,10,00,28,00,
6747010,000000A4,false,Rx,0,8,00,00,00,00,27,FE,10,00,
6747267,000000A8,false,Rx,0,8,A9,08,00,06,00,00,00,00,
6748279,00000501,false,Rx,0,8,1E,02,01,81,01,00,00,00,
6749302,000000F7,false,Rx,0,8,01,A6,00,00,00,00,00,00,
6749548,000000EC,false,Rx,0,8,00,00,01,4F,01,E1,8A,8B,
6750080,00000041,false,Rx,0,8,CA,0B,00,00,00,00,00,00,
6750308,0000000D,false,Rx,0,8,4E,02,03,E8,03,E8,00,00,
6751629,000000A3,false,Rx,0,8,5A,0E,00,00,00,00,00,00,
6751880,00000066,false,Rx,0,8,00,00,00,00,00,00,00,00,
6755250,00000013,false,Rx,0,8,02,0C,00,00,C0,00,00,00,
6755302,00000036,false,Rx,0,8,11,3A,00,00,00,00,00,00,
6755566,00000050,false,Rx,0,8,FC,0A,09,80,00,80,B4,50,
6755806,00000011,false,Rx,0,8,C2,E4,0C,00,00,00,00,00,
6756046,00000044,false,Rx,0,8,A7,3F,05,D6,FF,4F,00,00,
6756297,00000063,false,Rx,0,8,00,00,00,00,00,00,00,00,
6756539,00000065,false,Rx,0,8,00,00,00,00,00,00,00,00,
6756779,00000084,false,Rx,0,8,58,58,39,00,00,00,00,00,
6757023,00000088,false,Rx,0,8,E3,05,01,C1,C5,66,C8,98,
6757266,0000008A,false,Rx,0,8,00,00,03,96,02,39,00,00,
6757500,0000008C,false,Rx,0,8,9F,05,01,51,3C,5D,90,49,
6757746,0000008E,false,Rx,0,8,00,00,03,FF,00,00,00,45,
6757992,00000090,false,Rx,0,8,00,00,01,A2,00,00,00,00,
6758222,00000098,false,Rx,0,8,B3,45,00,00,07,E8,03,E8,
6758459,000000A2,false,Rx,0,8,A0,0E,00,00,00,00,24,09,
6758699,000000AA,false,Rx,0,8,45,05,00,FA,3F,FE,3F,FF,
6758939,000000C8,false,Rx,0,8,F6,05,00,06,00,06,7F,FD,
6759177,000000CA,false,Rx,0,8,B7,01,A2,15,A1,80,00,2B,
6759411,000002DD,false,Rx,0,8,6C,06,FF,40,0F,FC,00,00,
6759651,00000096,false,Rx,0,8,96,18,01,A1,00,00,00,00,
6759915,000000FB,false,Rx,0,8,00,0C,00,00,00,00,00,00,
6760160,00000041,false,Rx,0,8,40,0C,00,00,00,00,00,00,
6760406,0000000D,false,Rx,0,8,24,03,03,E8,03,E8,00,00,
6760651,00000067,false,Rx,0,8,77,3F,00,00,00,00,00,00,
6760897,0000013D,false,Rx,0,8,00,00,00,00,00,00,00,00,
6761171,0000013F,false,Rx,0,8,00,00,00,00,00,00,00,00,
6761411,00000143,false,Rx,0,8,63,08,01,A1,4D,40,01,A6,
6761651,000000A3,false,Rx,0,8,47,0F,00,00,00,00,00,00,
6761903,00000066,false,Rx,0,8,00,00,00,00,00,00,00,00,
6762149,000000D9,false,Rx,0,8,00,00,09,A6,01,01,00,00,
6762387,000000DB,false,Rx,0,8,00,50,00,00,01,A6,00,00,
6762621,00000159,false,Rx,0,8,8A,0E,D5,3C,00,02,09,54,
6762861,0000015B,false,Rx,0,8,00,08,00,01,00,6C,00,96,
6763510,00000072,false,Rx,0,8,00,00,00,00,05,9D,01,A5,
6763749,00000154,false,Rx,0,8,00,00,00,00,80,6D,6D,70,
6765594,00000013,false,Rx,0,8,9F,0D,00,00,C0,00,00,00,
6765608,000000AA,false,Rx,0,8,A2,06,00,FA,3F,FE,3F,FF,
6765610,000002DD,false,Rx,0,8,2A,07,FF,40,0F,FC,00,00,
6765800,000000A2,false,Rx,0,8,BD,0F,00,00,00,00,24,09,
6766040,00000044,false,Rx,0,8,FB,30,06,3A,FF,4F,00,00,
6766285,00000063,false,Rx,0,8,00,00,00,00,00,00,00,00,
6766530,00000065,false,Rx,0,8,00,00,00,00,00,00,00,00,
6766764,00000092,false,Rx,0,8,47,09,00,06,10,00,28,00,
6766994,000000A4,false,Rx,0,8,00,00,00,00,27,FE,10,00,
6767246,000000A8,false,Rx,0,8,26,09,00,06,00,00,00,00,
6769373,00000183,false,Rx,0,8,0A,0A,00,5A,40,00,00,8C,
6770200,000001B1,false,Rx,0,8,00,00,10,00,00,00,00,00,
6770228,00000041,false,Rx,0,8,CF,0D,00,00,00,00,00,00,
6770327,0000000D,false,Rx,0,8,2F,04,03,E8,03,E8,00,00,
6770614,000001B2,false,Rx,0,8,00,00,00,00,00,00,00,00,
6770860,000001D3,false,Rx,0,8,00,00,00,00,00,00,00,00,
6771875,000000A3,false,Rx,0,8,FC,00,00,00,00,00,00,00,
6771979,00000066,false,Rx,0,8,00,00,00,00,00,00,00,00,
6773844,000001D1,false,Rx,0,8,00,00,7F,7F,7F,7F,FF,C0,
6774078,000001D2,false,Rx,0,8,00,00,00,00,00,00,00,00,
6774809,000001D4,false,Rx,0,8,00,00,00,00,00,00,00,00,
6775083,00000013,false,Rx,0,8,25,0E,00,00,C0,00,00,00,
6775300,00000036,false,Rx,0,8,5D,3B,00,00,00,00,00,00,
6775550,00000050,false,Rx,0,8,96,0B,09,80,00,80,B4,50,
6775787,00000084,false,Rx,0,8,C5,59,39,00,00,00,00,00,
6776027,00000044,false,Rx,0,8,67,31,06,9E,FF,4F,00,00,
6776289,00000063,false,Rx,0,8,00,00,00,00,00,00,00,00,
6776540,00000065,false,Rx,0,8,00,00,00,00,00,00,00,00,
6776756,000000A2,false,Rx,0,8,06,00,00,00,00,00,24,09,
6777014,00000088,false,Rx,0,8,59,07,01,C1,C5,66,C8,98,
6777253,0000008A,false,Rx,0,8,00,00,03,96,02,39,00,00,
6777487,0000008C,false,Rx,0,8,25,07,01,51,3C,5D,90,49,
6777916,0000008E,false,Rx,0,8,00,00,03,FF,00,00,00,45,
6777959,00000090,false,Rx,0,8,00,00,01,A2,00,00,00,00,
6778371,00000098,false,Rx,0,8,2B,47,00,00,07,E8,03,E8,
6778438,000000AA,false,Rx,0,8,FF,07,00,FA,3F,FE,3F,FF,
6778710,000000C8,false,Rx,0,8,4C,07,00,06,00,06,7F,FD,
6778938,000000CA,false,Rx,0,8,93,01,A2,1D,A1,80,00,2C,
6779188,000000EA,false,Rx,0,8,01,57,00,00,00,00,00,00,
6779422,00000096,false,Rx,0,8,19,19,01,A1,00,00,00,00,
6779674,00000104,false,Rx,0,8,00,00,00,04,00,00,00,00,
6779919,00000109,false,Rx,0,8,00,00,00,00,00,0D,00,01,
6780170,00000041,false,Rx,0,8,43,0E,00,00,00,00,00,00,
6780410,0000000D,false,Rx,0,8,45,05,03,E8,03,E8,00,00,
6780645,00000067,false,Rx,0,8,F1,30,00,00,00,00,00,00,
6780890,00000143,false,Rx,0,8,EC,09,01,A1,4D,40,01,A6,
6781168,000002C1,false,Rx,0,8,00,00,28,01,03,E8,50,00,
6781375,000002DD,false,Rx,0,8,EF,08,FF,40,0F,FC,00,00,
6781645,000000A3,false,Rx,0,8,E1,01,00,00,00,00,00,00,
6781908,00000066,false,Rx,0,8,00,00,00,00,00,00,00,00,
6782164,000000D9,false,Rx,0,8,00,00,09,A6,01,01,00,00,
6782387,000000DB,false,Rx,0,8,00,51,00,00,01,A6,00,00,
6782632,000000DD,false,Rx,0,8,00,0A,00,0A,FE,0B,03,E6,
6782867,00000110,false,Rx,0,8,00,00,00,01,83,60,02,6D,
6783239,00000130,false,Rx,0,8,00,00,00,20,00,4B,00,00,
6783369,00000072,false,Rx,0,8,00,00,00,00,05,9D,01,A5,
6783609,000000E8,false,Rx,0,8,00,00,03,A4,00,14,00,00,
6783854,0000012E,false,Rx,0,8,00,00,01,FE,01,FE,00,00,
6784164,00000132,false,Rx,0,8,00,00,00,00,00,00,00,00,
6784357,00000134,false,Rx,0,8,00,00,00,00,00,00,0F,FF,
6784603,00000135,false,Rx,0,8,84,1D,00,00,00,00,00,00,
6784842,0000013B,false,Rx,0,8,00,00,00,00,22,6A,1C,F6,
6785164,00000149,false,Rx,0,8,00,00,00,00,00,00,08,46,
6785317,00000013,false,Rx,0,8,B8,0F,00,00,C0,00,00,00,
6785567,000000AA,false,Rx,0,8,A3,08,00,FA,3F,FE,3F,FF,
6785807,0000015B,false,Rx,0,8,00,08,00,01,00,6C,00,96,
6786242,00000044,false,Rx,0,8,96,32,07,02,FF,4F,00,00,
6786351,00000063,false,Rx,0,8,00,00,00,00,00,00,00,00,
6786553,00000065,false,Rx,0,8,00,00,00,00,00,00,00,00,
6786800,00000092,false,Rx,0,8,CB,0A,00,06,10,00,28,00,
6787013,000000A2,false,Rx,0,8,1B,01,00,00,00,00,24,09,
6787290,000000A4,false,Rx,0,8,00,00,00,00,27,FE,10,00,
6787795,000000A8,false,Rx,0,8,AA,0A,00,06,00,00,00,00,
6787812,00000160,false,Rx,0,8,00,00,00,28,1F,D8,0F,FF,
6788000,00000162,false,Rx,0,8,00,1C,28,01,28,73,00,00,
6788755,00000164,false,Rx,0,8,00,00,00,00,00,3D,0A,6D,
6788772,00000166,false,Rx,0,8,00,00,03,C0,00,00,00,00,
6788773,00000191,false,Rx,0,8,00,AB,01,13,00,00,00,00,
6788973,000001A1,false,Rx,0,8,69,05,26,00,02,82,02,00,
6789204,000002DD,false,Rx,0,8,A9,09,FF,40,0F,FC,00,00,
6789701,000002FD,false,Rx,0,8,00,00,00,00,00,01,00,00,
6790091,00000041,false,Rx,0,8,CC,0F,00,00,00,00,00,00,
6790742,0000000D,false,Rx,0,8,FB,06,03,E8,03,E8,00,00,
6791924,000000A3,false,Rx,0,8,C6,02,00,00,00,00,00,00,
6791946,00000066,false,Rx,0,8,00,00,00,00,00,00,00,00,
6794871,0000019A,false,Rx,0,8,43,04,01,A2,00,01,00,00,
6795000,000002F2,false,Rx,0,8,C7,0D,01,1D,45,00,00,00,
6795928,00000013,false,Rx,0,8,D0,00,00,00,C0,00,00,00,
6795953,00000036,false,Rx,0,8,A4,3C,00,00,00,00,00,00,
6795954,00000050,false,Rx,0,8,9D,0C,09,80,00,80,B4,50,
6795959,00000011,false,Rx,0,8,A8,E5,0C,00,00,00,00,00,
6796195,00000044,false,Rx,0,8,26,33,07,65,FF,4F,00,00,
6796458,00000063,false,Rx,0,8,00,00,00,00,00,00,00,00,
6796710,00000065,false,Rx,0,8,00,00,00,00,00,00,00,00,
6796956,00000084,false,Rx,0,8,7F,5A,39,00,00,00,00,00,
6797183,00000088,false,Rx,0,8,58,09,01,C1,C5,66,C8,98,
6797980,0000008A,false,Rx,0,8,00,00,03,96,02,39,00,00,
6797994,0000008C,false,Rx,0,8,24,09,01,51,3C,5D,90,49,
6797995,0000008E,false,Rx,0,8,00,00,03,FF,00,00,00,45,
6798154,00000090,false,Rx,0,8,00,00,01,A2,00,00,00,00,
6798532,00000098,false,Rx,0,8,C4,49,00,00,07,E8,03,E8,
6798622,000000A2,false,Rx,0,8,3C,02,00,00,00,00,24,09,
6798873,000000AA,false,Rx,0,8,FE,09,00,FA,3F,FE,3F,FF,
6799165,000000C8,false,Rx,0,8,77,09,00,06,00,06,7F,FF,
6799345,000000CA,false,Rx,0,8,CB,01,A2,25,A1,80,00,2C,
6799596,00000096,false,Rx,0,8,95,1A,01,A1,00,00,00,00,
6799838,000000EF,false,Rx,0,8,00,00,0E,4F,F4,00,00,00,
6800071,000000EC,false,Rx,0,8,00,00,01,4F,01,E1,8A,8B,
6800314,0000000D,false,Rx,0,8,91,07,03,E8,03,E8,00,00,
6800553,00000041,false,Rx,0,8,4A,00,00,00,00,00,00,00,
6800788,00000067,false,Rx,0,8,7E,31,00,00,00,00,00,00,
6801045,000000F7,false,Rx,0,8,01,A6,00,00,00,00,00,00,
6801284,00000146,false,Rx,0,8,00,4E,02,B7,03,49,00,00,
6801529,000000FB,false,Rx,0,8,00,0D,00,00,00,00,00,00,
6801781,00000066,false,Rx,0,8,00,00,00,00,00,00,00,00,
6802016,000000A3,false,Rx,0,8,DB,03,00,00,00,00,00,00,
6802265,000000D9,false,Rx,0,8,00,00,09,A6,01,01,00,00,
6802517,000000DB,false,Rx,0,8,00,52,00,00,01,A6,00,00,
6802751,00000143,false,Rx,0,8,60,0A,01,A1,4D,40,01,A6,
6802982,00000148,false,Rx,0,8,00,00,00,81,C8,82,80,81,
6803444,00000147,false,Rx,0,8,00,00,00,00,00,00,01,A6,
6803466,0000014C,false,Rx,0,8,00,00,10,68,0F,1B,0F,25,
6803728,0000014E,false,Rx,0,8,00,00,00,00,00,00,00,00,
6804177,00000072,false,Rx,0,8,00,00,00,00,05,9D,01,A5,
6804191,0000015B,false,Rx,0,8,00,08,00,01,00,6C,00,96,
6804647,00000171,false,Rx,0,8,00,00,07,7F,24,00,00,00,
6804667,000002DD,false,Rx,0,8,63,0A,FF,40,0F,FC,00,00,
6805122,00000405,false,Rx,0,8,01,04,22,6A,1C,F4,FF,FF,
6805143,00000013,false,Rx,0,8,4D,01,00,00,C0,00,00,00,
6805393,000000AA,false,Rx,0,8,19,0A,00,FA,3F,FE,3F,FF,
6806087,000002DD,false,Rx,0,8,25,0B,FF,40,0F,FC,00,00,
6806105,000000A2,false,Rx,0,8,21,03,00,00,00,00,24,09,
6806137,00000044,false,Rx,0,8,5B,34,07,CA,FF,4F,00,00,
6806387,00000063,false,Rx,0,8,00,00,00,00,00,00,00,00,
6806639,00000065,false,Rx,0,8,00,00,00,00,00,00,00,00,
6806879,00000092,false,Rx,0,8,44,0B,00,06,10,00,28,00,
6807177,000000A4,false,Rx,0,8,00,00,00,00,27,FE,10,00,
6807369,000000A8,false,Rx,0,8,25,0B,00,06,00,00,00,00,
6807592,00000177,false,Rx,0,8,41,43,00,00,4A,00,43,69,
6807849,000001D5,false,Rx,0,8,00,00,00,00,00,00,00,57,
6808096,000001DF,false,Rx,0,8,00,00,00,00,00,00,00,57,
6810243,00000041,false,Rx,0,8,C5,01,00,00,00,00,00,00,
6810294,0000000D,false,Rx,0,8,ED,08,03,E8,03,E8,00,00,
6811891,000000A3,false,Rx,0,8,88,04,00,00,00,00,00,00,
6811918,00000066,false,Rx,0,8,00,00,00,00,00,00,00,00,
6815111,00000013,false,Rx,0,8,F7,02,00,00,C0,00,00,00,
6815323,00000036,false,Rx,0,8,E8,3D,00,00,00,00,00,00,
6815565,00000050,false,Rx,0,8,F7,0D,09,80,00,80,B4,50,
6815795,00000084,false,Rx,0,8,E2,5B,39,00,00,00,00,00,
6816358,00000044,false,Rx,0,8,CF,35,08,2E,FF,4F,00,00,
6816375,00000063,false,Rx,0,8,00,00,00,00,00,00,00,00,
6816536,00000065,false,Rx,0,8,00,00,00,00,00,00,00,00,
6817071,000000A2,false,Rx,0,8,72,04,00,00,00,00,24,09,
6817088,00000088,false,Rx,0,8,E2,0B,01,C1,C5,66,C8,98,
6817249,0000008A,false,Rx,0,8,00,00,03,96,02,39,00,00,
6817677,0000008C,false,Rx,0,8,9E,0B,01,51,3C,5D,90,49,
6817705,0000008E,false,Rx,0,8,00,00,03,FF,00,00,00,45,
6818224,00000090,false,Rx,0,8,00,00,01,A2,00,00,00,00,
6818241,00000098,false,Rx,0,8,5C,4B,00,00,07,E8,03,E8,
6818453,000000AA,false,Rx,0,8,44,0B,00,FA,3F,FE,3F,FF,
6818705,000000C8,false,Rx,0,8,F7,0B,00,06,00,06,7F,FD,
6818938,000000CA,false,Rx,0,8,BC,01,A2,2D,A1,80,00,2C,
6819177,000000EA,false,Rx,0,8,76,5B,00,00,00,00,00,00,
6819405,00000096,false,Rx,0,8,1A,1B,01,A1,00,00,00,00,
6819895,00000104,false,Rx,0,8,00,00,00,00,00,00,00,00,
6819912,00000115,false,Rx,0,8,00,00,00,00,00,00,01,00,
6820177,00000041,false,Rx,0,8,49,02,00,00,00,00,00,00,
6820394,0000000D,false,Rx,0,8,87,09,03,E8,03,E8,00,00,
6820633,00000067,false,Rx,0,8,F2,32,00,00,00,00,00,00,
6820861,00000143,false,Rx,0,8,EF,0B,01,A1,4D,40,01,A6,
6821161,00000183,false,Rx,0,8,0A,0A,00,5A,40,00,00,8C,
6821340,000001A3,false,Rx,0,8,00,00,00,78,82,01,00,8A,
6821580,0000025F,false,Rx,0,8,00,00,00,00,00,00,00,00,
6821831,00000066,false,Rx,0,8,00,00,00,00,00,00,00,00,
6822069,000000A3,false,Rx,0,8,95,05,00,00,00,00,00,00,
6822316,000000D9,false,Rx,0,8,00,00,09,A6,01,01,00,00,
6822553,000000DB,false,Rx,0,8,00,53,00,00,01,A6,00,00,
6822802,000000DD,false,Rx,0,8,00,0A,00,0A,FE,0B,03,E6,
6823042,0000015B,false,Rx,0,8,00,08,00,01,00,6C,00,96,
6823284,00000206,false,Rx,0,8,00,00,00,00,00,00,01,A6,
6823549,0000029E,false,Rx,0,8,00,00,00,00,00,00,00,00,
6823790,00000072,false,Rx,0,8,00,00,00,00,05,9D,01,A5,
6824034,000000E8,false,Rx,0,8,00,00,03,A4,00,14,00,00,
6824273,000001A1,false,Rx,0,8,63,09,26,00,02,82,02,00,
6824500,000002DD,false,Rx,0,8,EA,0C,FF,40,0F,FC,00,00,
6824735,000002E2,false,Rx,0,8,01,0A,0A,5A,00,00,00,8C,
6824986,000002E3,false,Rx,0,8,00,00,00,00,00,00,00,00,
6825230,00000013,false,Rx,0,8,6A,03,00,00,C0,00,00,00,
6825470,000000AA,false,Rx,0,8,CA,0C,00,FA,3F,FE,3F,FF,
6825716,000002DD,false,Rx,0,8,AC,0D,FF,40,0F,FC,00,00,
6825968,00000063,false,Rx,0,8,00,00,00,00,00,00,00,00,
6826201,00000044,false,Rx,0,8,93,36,08,92,FF,4F,00,00,
6826465,00000065,false,Rx,0,8,00,00,00,00,00,00,00,00,
6826706,00000092,false,Rx,0,8,CE,0C,00,06,10,00,28,00,
6826939,000000A2,false,Rx,0,8,6F,05,00,00,00,00,24,09,
6827195,000000A4,false,Rx,0,8,00,00,00,00,27,FE,10,00,
6827423,000000A8,false,Rx,0,8,AF,0C,00,06,00,00,00,00,
6827674,000002E4,false,Rx,0,8,00,00,00,00,00,00,00,00,
6827909,00000316,false,Rx,0,8,00,00,00,00,64,64,64,64,
6828153,00000317,false,Rx,0,8,00,00,00,00,00,5A,8C,88,
6828399,00000304,false,Rx,0,8,00,00,00,00,00,00,00,00,
6828643,0000031A,false,Rx,0,8,00,00,00,00,00,01,50,DE,
6828885,00000348,false,Rx,0,8,00,00,00,00,64,64,64,64,
6829153,00000349,false,Rx,0,8,00,00,00,00,00,5A,8C,88,
6830091,00000041,false,Rx,0,8,C6,03,00,00,00,00,00,00,
6830326,0000000D,false,Rx,0,8,39,0A,03,E8,03,E8,00,00,
6831653,000000A3,false,Rx,0,8,B2,06,00,00,00,00,00,00,
6831898,00000066,false,Rx,0,8,00,00,00,00,00,00,00,00,
6832166,00000110,false,Rx,0,8,00,00,00,01,83,60,02,6D,
6835084,00000013,false,Rx,0,8,9E,04,00,00,C0,00,00,00,
6835326,00000036,false,Rx,0,8,3C,3E,00,00,00,00,00,00,
6835560,00000050,false,Rx,0,8,49,0E,09,80,00,80,B4,50,
6835797,00000011,false,Rx,0,8,16,E6,0C,00,00,00,00,00,
6836024,00000044,false,Rx,0,8,23,37,08,F5,FF,4F,00,00,
6836298,00000063,false,Rx,0,8,00,00,00,00,00,00,00,00,
6836548,00000065,false,Rx,0,8,00,00,00,00,00,00,00,00,
6836792,00000084,false,Rx,0,8,16,5C,39,00,00,00,00,00,
6837022,00000088,false,Rx,0,8,31,0D,01,C1,C5,66,C8,98,
6837260,0000008A,false,Rx,0,8,00,00,03,96,02,39,00,00,
6837488,0000008C,false,Rx,0,8,4D,0D,01,51,3C,5D,90,49,
6837735,0000008E,false,Rx,0,8,00,00,03,FF,00,00,00,45,
6837980,00000090,false,Rx,0,8,00,00,01,A2,00,00,00,00,
6838225,00000098,false,Rx,0,8,E9,4D,00,00,07,E8,03,E8,
6838465,000000A2,false,Rx,0,8,48,06,00,00,00,00,24,09,
6838699,000000AA,false,Rx,0,8,97,0D,00,FA,3F,FE,3F,FF,
6838939,000000C8,false,Rx,0,8,24,0D,00,06,00,06,7F,FD,
6839171,000000CA,false,Rx,0,8,76,01,A2,35,A1,80,00,2B,
6839405,00000096,false,Rx,0,8,90,1C,01,A1,00,00,00,00,
6839651,00000109,false,Rx,0,8,00,00,00,00,00,0D,00,01,
6839903,000000FB,false,Rx,0,8,00,0E,00,00,00,00,00,00,
6840165,00000041,false,Rx,0,8,4C,04,00,00,00,00,00,00,
6840393,0000000D,false,Rx,0,8,53,0B,03,E8,03,E8,00,00,
6840639,00000067,false,Rx,0,8,7D,33,00,00,00,00,00,00,
6840891,0000013D,false,Rx,0,8,00,00,00,00,00,00,00,00,
6841165,00000204,false,Rx,0,8,B1,0D,00,00,00,00,00,00,
6841388,0000013F,false,Rx,0,8,00,00,00,00,00,00,00,00,
6841628,000002DD,false,Rx,0,8,66,0E,FF,40,0F,FC,00,00,
6841879,00000066,false,Rx,0,8,00,00,00,00,00,00,00,00,
6842166,000000A3,false,Rx,0,8,AF,07,00,00,00,00,00,00,
6842364,000000D9,false,Rx,0,8,00,00,09,A6,01,01,00,00,
6842604,000000DB,false,Rx,0,8,00,54,00,00,01,A6,00,00,
6842832,00000143,false,Rx,0,8,65,0C,01,A1,4D,40,01,A6,
6843083,0000015B,false,Rx,0,8,00,08,00,01,00,6C,00,96,
6843652,00000072,false,Rx,0,8,00,00,00,00,05,9D,01,A5,
6845098,00000013,false,Rx,0,8,03,05,00,00,C0,00,00,00,
6845312,000000AA,false,Rx,0,8,70,0E,00,FA,3F,FE,3F,FF,
6845933,000002DD,false,Rx,0,8,20,0F,FF,40,0F,FC,00,00,
6845951,000000A2,false,Rx,0,8,55,07,00,00,00,00,24,09,
6846015,00000044,false,Rx,0,8,B4,38,09,5A,FF,4F,00,00,
6846284,00000063,false,Rx,0,8,00,00,00,00,00,00,00,00,
6846548,00000065,false,Rx,0,8,00,00,00,00,00,00,00,00,
6846787,00000092,false,Rx,0,8,41,0D,00,06,10,00,28,00,
6847023,000000A4,false,Rx,0,8,00,00,00,00,27,FE,10,00,
6847283,000000A8,false,Rx,0,8,20,0D,00,06,00,00,00,00,
6849528,000000F7,false,Rx,0,8,01,A6,00,00,00,00,00,00,
6849549,000000EC,false,Rx,0,8,00,00,01,4F,01,E1,89,8B,
6850280,00000041,false,Rx,0,8,C3,05,00,00,00,00,00,00,
6850307,0000000D,false,Rx,0,8,58,0C,03,E8,03,E8,00,00,
6850572,0000051E,false,Rx,0,8,22,02,00,3F,00,00,00,00,
6851848,000000A3,false,Rx,0,8,14,08,00,00,00,00,00,00,
6851875,00000066,false,Rx,0,8,00,00,00,00,00,00,00,00,
6853125,000002B4,false,Rx,0,8,00,00,00,0C,1F,18,3C,FF,
6855008,00000400,false,Rx,0,8,64,29,00,55,55,A1,8B,89,
6855228,00000013,false,Rx,0,8,B9,06,00,00,C0,00,00,00,
6855852,00000036,false,Rx,0,8,70,3F,00,00,00,00,00,00,
6855869,00000050,false,Rx,0,8,23,0F,09,80,00,80,B4,50,
6855968,00000063,false,Rx,0,8,00,00,00,00,00,00,00,00,
6856218,00000044,false,Rx,0,8,C4,39,09,BD,FF,4F,00,00,
6856464,00000065,false,Rx,0,8,00,00,00,00,00,00,00,00,
6856710,00000084,false,Rx,0,8,8B,5D,39,00,00,00,00,00,
6856938,00000088,false,Rx,0,8,8B,0F,01,C1,C5,66,C8,98,
6857430,0000008A,false,Rx,0,8,00,00,03,96,02,39,00,00,
6857447,0000008C,false,Rx,0,8,F7,0F,01,51,3C,5D,90,49,
6857643,0000008E,false,Rx,0,8,00,00,03,FF,00,00,00,45,
6858155,00000090,false,Rx,0,8,00,00,01,A2,00,00,00,00,
6858172,00000098,false,Rx,0,8,71,4F,00,00,07,E8,03,E8,
6858370,000000A2,false,Rx,0,8,EE,08,00,00,00,00,24,09,
6858621,000000AA,false,Rx,0,8,2D,0F,00,FA,3F,FE,3F,FF,
6858861,000000C8,false,Rx,0,8,9E,0F,00,06,00,06,7F,FD,
6859095,000000CA,false,Rx,0,8,01,01,A2,3D,A1,80,00,2B,
6859332,000000EA,false,Rx,0,8,5B,5F,00,00,00,00,00,00,
6859582,00000096,false,Rx,0,8,1F,1D,01,A1,00,00,00,00,
6859834,00000104,false,Rx,0,8,00,00,00,04,00,00,00,00,
6860057,00000143,false,Rx,0,8,EA,0D,01,A1,4D,40,01,A6,
6860308,0000000D,false,Rx,0,8,32,0D,03,E8,03,E8,00,00,
6860553,00000041,false,Rx,0,8,4F,06,00,00,00,00,00,00,
6860799,00000067,false,Rx,0,8,F7,34,00,00,00,00,00,00,
6861039,000002DD,false,Rx,0,8,E5,00,FF,40,0F,FC,00,00,
6861682,000000A3,false,Rx,0,8,09,09,00,00,00,00,00,00,
6861934,00000066,false,Rx,0,8,00,00,00,00,00,00,00,00,
6862176,000000D9,false,Rx,0,8,00,00,09,A6,01,01,00,00,
6862417,000000DB,false,Rx,0,8,00,55,00,00,01,A6,00,00,
6862645,000000DD,false,Rx,0,8,00,0A,00,0A,FE,0B,03,E6,
6862906,00000135,false,Rx,0,8,A3,1E,00,00,00,00,00,00,
6863177,0000015B,false,Rx,0,8,00,08,00,01,00,6C,00,96,
6863391,00000191,false,Rx,0,8,00,AB,01,13,00,00,00,00,
6863627,00000072,false,Rx,0,8,00,00,00,00,05,9D,01,A5,
6863877,000000E8,false,Rx,0,8,00,00,03,A4,00,14,00,00,
6864177,0000013B,false,Rx,0,8,00,00,00,00,22,6A,1C,F7,
6864340,00000154,false,Rx,0,8,00,00,00,00,80,6D,6D,70,
6864592,000001A1,false,Rx,0,8,65,0D,26,00,02,82,02,00,
6864842,00000217,false,Rx,0,8,00,00,00,02,00,02,00,03,
6865088,00000230,false,Rx,0,8,00,0E,00,00,01,00,01,02,
6865337,00000013,false,Rx,0,8,24,07,00,00,C0,00,00,00,
6865577,000000AA,false,Rx,0,8,71,00,00,FA,3F,FE,3F,FF,
6865811,000000A2,false,Rx,0,8,F3,09,00,00,00,00,24,09,
6866043,00000044,false,Rx,0,8,12,3A,0A,21,FF,4F,00,00,
6866301,00000063,false,Rx,0,8,00,00,00,00,00,00,00,00,
6866553,00000065,false,Rx,0,8,00,00,00,00,00,00,00,00,
6866787,00000092,false,Rx,0,8,CD,0E,00,06,10,00,28,00,
6867049,000000A4,false,Rx,0,8,00,00,00,00,27,FE,10,00,
6867278,000000A8,false,Rx,0,8,AC,0E,00,06,00,00,00,00,
6867765,000002DD,false,Rx,0,8,A3,01,FF,40,0F,FC,00,00,
6867782,0000031B,false,Rx,0,8,00,00,00,00,00,00,07,FF,
6868010,0000031E,false,Rx,0,8,00,00,00,00,00,00,00,00,
6869537,00000183,false,Rx,0,8,0A,0A,00,5A,40,00,00,8C,
6870072,000001B1,false,Rx,0,8,00,00,10,00,00,00,00,00,
6870090,00000041,false,Rx,0,8,C0,07,00,00,00,00,00,00,
6870314,0000000D,false,Rx,0,8,8C,0E,03,E8,03,E8,00,00,
6870577,000001B2,false,Rx,0,8,00,00,00,00,00,00,00,00,
6871900,000000A3,false,Rx,0,8,2E,0A,00,00,00,00,00,00,
6871927,00000066,false,Rx,0,8,00,00,00,00,00,00,00,00,
6875108,00000013,false,Rx,0,8,4C,08,00,00,C0,00,00,00,
6875321,00000036,false,Rx,0,8,D3,30,00,00,00,00,00,00,
6875558,00000050,false,Rx,0,8,5F,00,09,80,00,80,B4,50,
6876037,00000084,false,Rx,0,8,31,5E,39,00,00,00,00,00,
6876054,00000011,false,Rx,0,8,7C,E7,0C,00,00,00,00,00,
6876278,00000044,false,Rx,0,8,8D,3B,0A,87,FF,4F,00,00,
6876869,00000063,false,Rx,0,8,00,00,00,00,00,00,00,00,
6876885,00000065,false,Rx,0,8,00,00,00,00,00,00,00,00,
6877015,00000088,false,Rx,0,8,8A,01,01,C1,C5,66,C8,98,
6877505,0000008A,false,Rx,0,8,00,00,03,96,02,39,00,00,
6877522,0000008C,false,Rx,0,8,F6,01,01,51,3C,5D,90,49,
6877734,0000008E,false,Rx,0,8,00,00,03,FF,00,00,00,45,
6878221,00000090,false,Rx,0,8,00,00,01,A2,00,00,00,00,
6878238,00000098,false,Rx,0,8,9E,41,00,00,07,E8,03,E8,
6878476,000000A2,false,Rx,0,8,D4,0A,00,00,00,00,24,09,
6878716,000000AA,false,Rx,0,8,2C,01,00,FA,3F,FE,3F,FF,
6878956,000000C8,false,Rx,0,8,9F,01,00,06,00,06,7F,FD,
6879188,000000CA,false,Rx,0,8,C5,01,A2,05,A1,80,00,27,
6879423,00000096,false,Rx,0,8,93,1E,01,A1,00,00,00,00,
6879917,000000EF,false,Rx,0,8,00,00,0E,4F,F4,00,00,00,
6879935,000000FB,false,Rx,0,8,00,0F,00,00,00,00,00,00,
6880166,000002DD,false,Rx,0,8,69,02,FF,40,0F,FC,00,00,
6880848,0000000D,false,Rx,0,8,E6,0F,03,E8,03,E8,00,00,
6880869,00000041,false,Rx,0,8,46,08,00,00,00,00,00,00,
6880876,00000067,false,Rx,0,8,78,35,00,00,00,00,00,00,
6881463,00000143,false,Rx,0,8,66,0E,01,A1,4D,40,01,A6,
6881696,000000A3,false,Rx,0,8,33,0B,00,00,00,00,00,00,
6882206,00000066,false,Rx,0,8,00,00,00,00,00,00,00,00,
6882223,000000D9,false,Rx,0,8,00,00,09,A6,01,01,00,00,
6882423,000000DB,false,Rx,0,8,00,56,00,00,01,A6,00,00,
6882680,00000110,false,Rx,0,8,00,00,00,01,83,60,02,6D,
6882926,00000130,false,Rx,0,8,00,00,00,20,00,4B,00,00,
6883177,00000132,false,Rx,0,8,00,00,00,00,00,00,00,00,
6883423,00000134,false,Rx,0,8,00,00,00,00,00,00,0F,FF,
6883942,00000149,false,Rx,0,8,00,00,00,00,00,00,08,46,
6883959,00000072,false,Rx,0,8,00,00,00,00,05,9D,01,A5,
6884163,0000015B,false,Rx,0,8,00,08,00,01,00,6C,00,96,
6884863,00000160,false,Rx,0,8,00,00,00,28,1F,D8,0F,FF,
6884880,00000162,false,Rx,0,8,00,1C,28,01,28,73,00,00,
6884887,00000164,false,Rx,0,8,00,00,00,00,00,3D,0A,6D,
6885459,00000013,false,Rx,0,8,D1,09,00,00,C0,00,00,00,
6885477,000000AA,false,Rx,0,8,CB,02,00,FA,3F,FE,3F,FF,
6885610,00000166,false,Rx,0,8,00,00,03,C0,00,00,00,00,
6886168,0000020D,false,Rx,0,8,00,00,00,00,00,00,00,00,
6886185,00000044,false,Rx,0,8,DF,3C,0A,E9,FF,4F,00,00,
6886352,00000063,false,Rx,0,8,00,00,00,00,00,00,00,00,
6886615,00000065,false,Rx,0,8,00,00,00,00,00,00,00,00,
6886855,00000092,false,Rx,0,8,42,0F,00,06,10,00,28,00,
6887089,000000A2,false,Rx,0,8,C9,0B,00,00,00,00,24,09,
6887330,000000A4,false,Rx,0,8,00,00,00,00,27,FE,10,00,
6887984,000000A8,false,Rx,0,8,23,0F,00,06,00,00,00,00,
6888001,00000205,false,Rx,0,8,5F,08,1B,FF,3F,FF,3F,FE,
6888033,000002DD,false,Rx,0,8,2F,03,FF,40,0F,FC,00,00,
6890100,00000041,false,Rx,0,8,C9,09,00,00,00,00,00,00,
6890314,0000000D,false,Rx,0,8,9A,00,03,E8,03,E8,00,00,
6891888,000000A3,false,Rx,0,8,60,0C,00,00,00,00,00,00,
6891905,00000066,false,Rx,0,8,00,00,00,00,00,00,00,00,
6892176,000001D3,false,Rx,0,8,00,00,00,00,00,00,00,00,
6892399,000001D1,false,Rx,0,8,00,00,7F,7F,7F,7F,FF,C0,
6892977,000001D2,false,Rx,0,8,00,00,00,00,00,00,00,00,
6892994,000001D4,false,Rx,0,8,00,00,00,00,00,00,00,00,
6894860,0000019A,false,Rx,0,8,91,05,01,A2,00,00,00,00,
6895072,00000013,false,Rx,0,8,6B,0A,00,00,C0,00,00,00,
6895531,00000036,false,Rx,0,8,9F,31,00,00,00,00,00,00,
6895553,00000050,false,Rx,0,8,35,01,09,80,00,80,B4,50,
6895805,00000084,false,Rx,0,8,AC,5F,39,00,00,00,00,00,
6896028,00000044,false,Rx,0,8,52,3D,0B,4E,FF,4F,00,00,
6896295,00000063,false,Rx,0,8,00,00,00,00,00,00,00,00,
6896545,00000065,false,Rx,0,8,00,00,00,00,00,00,00,00,
6896787,000000A2,false,Rx,0,8,9A,0C,00,00,00,00,24,09,
6897027,00000088,false,Rx,0,8,30,03,01,C1,C5,66,C8,98,
6897254,0000008A,false,Rx,0,8,00,00,03,96,02,39,00,00,
6897488,0000008C,false,Rx,0,8,4C,03,01,51,3C,5D,90,49,
6897734,0000008E,false,Rx,0,8,00,00,03,FF,00,00,00,45,
6897980,00000090,false,Rx,0,8,00,00,01,A2,00,00,00,00,
6898225,00000098,false,Rx,0,8,06,43,00,00,07,E8,03,E8,
6898459,000000AA,false,Rx,0,8,96,03,00,FA,3F,FE,3F,FF,
6898705,000000C8,false,Rx,0,8,25,03,00,06,00,06,7F,FD,
6898933,000000CA,false,Rx,0,8,DB,01,A2,0D,A1,80,00,22,
6899177,000000EA,false,Rx,0,8,2C,53,00,00,00,00,00,00,
6899423,00000096,false,Rx,0,8,1C,1F,01,A1,00,00,00,00,
6899675,00000104,false,Rx,0,8,00,00,00,04,00,00,00,00,
6899908,000000EC,false,Rx,0,8,00,00,01,4D,01,E5,8A,8B,
6900165,00000041,false,Rx,0,8,45,0A,00,00,00,00,00,00,
6900400,0000000D,false,Rx,0,8,F0,01,03,E8,03,E8,00,00,
6900645,00000067,false,Rx,0,8,F4,36,00,00,00,00,00,00,
6900891,000000F7,false,Rx,0,8,01,A6,00,00,00,00,00,00,
6901165,00000109,false,Rx,0,8,00,00,00,00,00,0D,00,01,
6901363,00000143,false,Rx,0,8,E9,0F,01,A1,4D,40,01,A6,
6901599,00000146,false,Rx,0,8,00,4E,02,B7,03,49,00,00,
6902109,00000066,false,Rx,0,8,00,00,00,00,00,00,00,00,
6902149,000000A3,false,Rx,0,8,7D,0D,00,00,00,00,00,00,
6902329,000000D9,false,Rx,0,8,00,00,09,A6,01,01,00,00,
6902585,000000DB,false,Rx,0,8,00,57,00,00,01,A6,00,00,
6902831,000000DD,false,Rx,0,8,00,0A,00,0A,FE,0B,03,E6,
6903076,00000148,false,Rx,0,8,00,00,00,81,C8,82,80,81,
6903312,0000014C,false,Rx,0,8,00,00,10,68,0F,1A,0F,25,
6903558,00000072,false,Rx,0,8,00,00,00,00,05,9D,01,A5,
6903793,000000E8,false,Rx,0,8,00,00,03,A4,00,14,00,00,
6904050,0000014E,false,Rx,0,8,00,00,00,00,00,00,00,00,
6904297,0000015B,false,Rx,0,8,00,08,00,01,00,6C,00,96,
6904535,00000171,false,Rx,0,8,00,00,07,7F,24,00,00,00,
6904775,000001A1,false,Rx,0,8,6F,01,26,00,02,82,02,00,
6905015,00000200,false,Rx,0,8,00,00,00,01,80,42,FE,38,
6905260,00000013,false,Rx,0,8,F6,0B,00,00,C0,00,00,00,
6905500,000000AA,false,Rx,0,8,18,04,00,FA,3F,FE,3F,FF,
6905746,00000207,false,Rx,0,8,49,00,00,00,00,00,1C,8F,
6905998,00000063,false,Rx,0,8,00,00,00,00,00,00,00,00,
6906236,00000044,false,Rx,0,8,6E,3E,0B,B2,FF,4F,00,00,
6906487,00000065,false,Rx,0,8,00,00,00,00,00,00,00,00,
6906727,00000092,false,Rx,0,8,C4,00,00,06,10,00,28,00,
6906964,000000A2,false,Rx,0,8,87,0D,00,00,00,00,24,09,
6907201,000000A4,false,Rx,0,8,00,00,00,00,27,FE,10,00,
6907897,000000A8,false,Rx,0,8,A5,00,00,06,00,00,00,00,
6907919,00000177,false,Rx,0,8,41,43,00,00,4A,00,43,69,
6907927,0000030B,false,Rx,0,8,00,00,00,00,00,00,00,00,
6908170,00000310,false,Rx,0,8,05,17,06,DA,06,DA,00,1F,
6908705,00000318,false,Rx,0,8,00,00,00,00,05,4D,01,0A,
6908723,00000350,false,Rx,0,8,00,50,00,08,02,8A,54,7F,
6908885,00000352,false,Rx,0,8,45,01,03,CA,03,C0,00,00,
6910210,00000041,false,Rx,0,8,CA,0B,00,00,00,00,00,00,
6910316,0000000D,false,Rx,0,8,4E,02,03,E8,03,E8,00,00,
6911905,000000A3,false,Rx,0,8,5A,0E,00,00,00,00,00,00,
6911928,00000066,false,Rx,0,8,00,00,00,00,00,00,00,00,
6915110,00000013,false,Rx,0,8,02,0C,00,00,C0,00,00,00,
6915322,00000036,false,Rx,0,8,4B,32,00,00,00,00,00,00,
6915565,00000050,false,Rx,0,8,8B,02,09,80,00,80,B4,50,
6915811,00000011,false,Rx,0,8,00,E8,0C,00,00,00,00,00,
6916057,00000044,false,Rx,0,8,06,3F,0C,16,FF,4F,00,00,
6916309,00000063,false,Rx,0,8,00,00,00,00,00,00,00,00,
6916563,00000065,false,Rx,0,8,00,00,00,00,00,00,00,00,
6916783,00000084,false,Rx,0,8,C4,50,39,00,00,00,00,00,
6917033,00000088,false,Rx,0,8,E3,05,01,C1,C5,66,C8,98,
6917277,0000008A,false,Rx,0,8,00,00,03,96,02,39,00,00,
6917505,0000008C,false,Rx,0,8,9F,05,01,51,3C,5D,90,49,
6918052,0000008E,false,Rx,0,8,00,00,03,FF,00,00,00,45,
6918069,00000090,false,Rx,0,8,00,00,01,A2,00,00,00,00,
6918231,00000098,false,Rx,0,8,B3,45,00,00,07,E8,03,E8,
6918660,000000A2,false,Rx,0,8,A0,0E,00,00,00,00,24,09,
6918687,000000AA,false,Rx,0,8,45,05,00,FA,3F,FE,3F,FF,
6919224,000000C8,false,Rx,0,8,F6,05,00,06,00,06,7F,FD,
6919242,000000CA,false,Rx,0,8,2B,01,A2,15,A1,80,00,27,
6919424,00000096,false,Rx,0,8,9A,10,01,A1,00,00,00,00,
6920052,00000115,false,Rx,0,8,00,00,00,00,00,00,01,00,
6920069,000000FB,false,Rx,0,8,00,00,00,00,00,00,00,00,
6920165,00000041,false,Rx,0,8,40,0C,00,00,00,00,00,00,
6920591,0000000D,false,Rx,0,8,24,03,03,E8,03,E8,00,00,
6920631,00000067,false,Rx,0,8,7B,37,00,00,00,00,00,00,
6921125,0000013D,false,Rx,0,8,00,00,00,00,00,00,00,00,
6921151,00000183,false,Rx,0,8,0A,0A,00,5A,40,00,00,8C,
6921405,0000013F,false,Rx,0,8,00,00,00,00,00,00,00,00,
6921988,000001A3,false,Rx,0,8,00,00,00,78,82,01,00,8B,
6922005,000000A3,false,Rx,0,8,47,0F,00,00,00,00,00,00,
6922166,00000066,false,Rx,0,8,00,00,00,00,00,00,00,00,
6922565,000000D9,false,Rx,0,8,00,00,09,A6,01,01,00,00,
6922591,000000DB,false,Rx,0,8,00,58,00,00,01,A6,00,00,
6922855,00000143,false,Rx,0,8,6F,00,01,A1,4D,40,01,A6,
6923095,0000015B,false,Rx,0,8,00,08,00,01,00,6C,00,96,
6923603,00000159,false,Rx,0,8,8B,0F,15,3C,00,02,07,54,
6923620,00000072,false,Rx,0,8,00,00,00,00,05,9D,01,A5,
6923808,0000029E,false,Rx,0,8,00,00,00,00,00,00,00,00,
6924285,000002DD,false,Rx,0,8,6C,06,FF,40,0F,FC,00,00,
6925289,00000013,false,Rx,0,8,9F,0D,00,00,C0,00,00,00,
6925311,000000AA,false,Rx,0,8,A2,06,00,FA,3F,FE,3F,FF,
6925554,000002DD,false,Rx,0,8,2A,07,FF,40,0F,FC,00,00,
6926131,000000A2,false,Rx,0,8,BD,0F,00,00,00,00,24,09,
6926149,00000044,false,Rx,0,8,AC,30,0C,79,FF,4F,00,00,
6926278,00000063,false,Rx,0,8,00,00,00,00,00,00,00,00,
6926541,00000065,false,Rx,0,8,00,00,00,00,00,00,00,00,
6926770,00000092,false,Rx,0,8,4B,01,00,06,10,00,28,00,
6927017,000000A4,false,Rx,0,8,00,00,00,00,27,FE,10,00,
6927271,000000A8,false,Rx,0,8,2A,01,00,06,00,00,00,00,
6927517,000001D5,false,Rx,0,8,00,00,00,00,00,00,00,57,
6927757,000001DF,false,Rx,0,8,00,00,00,00,00,00,00,57,
6930166,00000041,false,Rx,0,8,CF,0D,00,00,00,00,00,00,
6930314,0000000D,false,Rx,0,8,2F,04,03,E8,03,E8,00,00,
6931973,000000A3,false,Rx,0,8,FC,00,00,00,00,00,00,00,
6931990,00000066,false,Rx,0,8,00,00,00,00,00,00,00,00,
6932166,00000110,false,Rx,0,8,00,00,00,01,83,60,02,6D,
6935197,00000013,false,Rx,0,8,25,0E,00,00,C0,00,00,00,
6935313,00000036,false,Rx,0,8,07,33,00,00,00,00,00,00,
6935765,00000050,false,Rx,0,8,E1,03,09,80,00,80,B4,50,
6935788,00000084,false,Rx,0,8,59,51,39,00,00,00,00,00,
6936038,00000044,false,Rx,0,8,BC,31,0C,DE,FF,4F,00,00,
6936506,00000063,false,Rx,0,8,00,00,00,00,00,00,00,00,
6936527,00000065,false,Rx,0,8,00,00,00,00,00,00,00,00,
6936786,000000A2,false,Rx,0,8,06,00,00,00,00,00,24,09,
6937237,000000AA,false,Rx,0,8,FF,07,00,FA,3F,FE,3F,FF,
6937256,00000088,false,Rx,0,8,59,07,01,C1,C5,66,C8,98,
6937487,0000008A,false,Rx,0,8,00,00,03,96,02,39,00,00,
6937722,0000008C,false,Rx,0,8,25,07,01,51,3C,5D,90,49,
6938195,0000008E,false,Rx,0,8,00,00,03,FF,00,00,00,45,
6938217,00000090,false,Rx,0,8,00,00,01,A2,00,00,00,00,
6938464,00000098,false,Rx,0,8,2B,47,00,00,07,E8,03,E8,
6938710,000000C8,false,Rx,0,8,4C,07,00,06,00,06,7F,FD,
6938932,000000CA,false,Rx,0,8,FA,01,A2,1D,A1,80,00,29,
6939427,000000EA,false,Rx,0,8,01,57,00,00,00,00,00,00,
6939445,00000096,false,Rx,0,8,15,11,01,A1,00,00,00,00,
6939669,00000104,false,Rx,0,8,00,00,00,04,00,00,00,00,
6940266,00000143,false,Rx,0,8,E0,01,01,A1,4D,40,01,A6,
6940283,00000041,false,Rx,0,8,43,0E,00,00,00,00,00,00,
6940393,0000000D,false,Rx,0,8,45,05,03,E8,03,E8,00,00,
6940650,00000067,false,Rx,0,8,FD,38,00,00,00,00,00,00,
6940890,000002DD,false,Rx,0,8,EF,08,FF,40,0F,FC,00,00,
6941973,000000A3,false,Rx,0,8,E1,01,00,00,00,00,00,00,
6941990,00000066,false,Rx,0,8,00,00,00,00,00,00,00,00,
6942167,000000D9,false,Rx,0,8,00,00,09,A6,01,01,00,00,
6942610,000000DB,false,Rx,0,8,00,59,00,00,01,A6,00,00,
6942626,000000DD,false,Rx,0,8,00,0A,00,0A,FE,0B,03,E6,
6942878,00000135,false,Rx,0,8,BE,1F,00,00,00,00,00,00,
6943176,0000015B,false,Rx,0,8,00,08,00,01,00,6C,00,96,
6943348,00000191,false,Rx,0,8,00,AB,01,13,00,00,00,00,
6943674,00000072,false,Rx,0,8,00,00,00,00,05,9D,01,A5,
6943926,000000E8,false,Rx,0,8,00,00,03,A4,00,14,00,00,
6944176,0000012E,false,Rx,0,8,00,00,01,FE,01,FE,00,00,
6944416,0000013B,false,Rx,0,8,00,00,00,00,22,6A,1C,F8,
6944656,000001A1,false,Rx,0,8,69,05,26,00,02,82,02,00,
6945278,00000013,false,Rx,0,8,B8,0F,00,00,C0,00,00,00,
6945299,000000AA,false,Rx,0,8,A3,08,00,FA,3F,FE,3F,FF,
6945554,000002DD,false,Rx,0,8,A9,09,FF,40,0F,FC,00,00,
6945799,000000A2,false,Rx,0,8,1B,01,00,00,00,00,24,09,
6946028,00000044,false,Rx,0,8,C1,32,0D,41,FF,4F,00,00,
6946294,00000063,false,Rx,0,8,00,00,00,00,00,00,00,00,
6946546,00000065,false,Rx,0,8,00,00,00,00,00,00,00,00,
6946780,00000092,false,Rx,0,8,C7,02,00,06,10,00,28,00,
6947016,000000A4,false,Rx,0,8,00,00,00,00,27,FE,10,00,
6947277,000000A8,false,Rx,0,8,A6,02,00,06,00,00,00,00,
6949528,000000F7,false,Rx,0,8,01,A6,00,00,00,00,00,00,
6949555,000000EC,false,Rx,0,8,00,00,01,4D,01,E5,8A,8A,
6950290,00000041,false,Rx,0,8,CC,0F,00,00,00,00,00,00,
6950311,0000000D,false,Rx,0,8,FB,06,03,E8,03,E8,00,00,
6951710,000000A3,false,Rx,0,8,C6,02,00,00,00,00,00,00,
6951940,00000066,false,Rx,0,8,00,00,00,00,00,00,00,00,
6955209,00000013,false,Rx,0,8,D0,00,00,00,C0,00,00,00,
6955313,00000036,false,Rx,0,8,FE,34,00,00,00,00,00,00,
6955553,00000050,false,Rx,0,8,EA,04,09,80,00,80,B4,50,
6955794,00000084,false,Rx,0,8,E3,52,39,00,00,00,00,00,
6956033,00000011,false,Rx,0,8,6A,E9,0C,00,00,00,00,00,
6956272,00000044,false,Rx,0,8,3D,33,0D,A5,FF,4F,00,00,
6956524,00000063,false,Rx,0,8,00,00,00,00,00,00,00,00,
6956776,00000065,false,Rx,0,8,00,00,00,00,00,00,00,00,
6957011,00000088,false,Rx,0,8,58,09,01,C1,C5,66,C8,98,
6957248,0000008A,false,Rx,0,8,00,00,03,96,02,39,00,00,
6957482,0000008C,false,Rx,0,8,24,09,01,51,3C,5D,90,49,
6957728,0000008E,false,Rx,0,8,00,00,03,FF,00,00,00,45,
6957973,00000090,false,Rx,0,8,00,00,01,A2,00,00,00,00,
6958212,00000098,false,Rx,0,8,C4,49,00,00,07,E8,03,E8,
6958458,000000A2,false,Rx,0,8,3C,02,00,00,00,00,24,09,
6958699,000000AA,false,Rx,0,8,FE,09,00,FA,3F,FE,3F,FF,
6958932,000000C8,false,Rx,0,8,4D,09,00,06,00,06,7F,FD,
6959165,000000CA,false,Rx,0,8,23,01,A2,25,A1,80,00,24,
6959398,00000096,false,Rx,0,8,99,12,01,A1,00,00,00,00,
6959644,000000EF,false,Rx,0,8,00,00,0E,4F,F4,00,00,00,
6959890,000000FB,false,Rx,0,8,00,01,00,00,00,00,00,00,
6960165,00000109,false,Rx,0,8,00,00,00,00,00,0D,00,01,
6960381,0000000D,false,Rx,0,8,91,07,03,E8,03,E8,00,00,
6960626,00000041,false,Rx,0,8,4A,00,00,00,00,00,00,00,
6960868,00000067,false,Rx,0,8,72,39,00,00,00,00,00,00,
6961165,00000143,false,Rx,0,8,6C,02,01,A1,4D,40,01,A6,
6961340,000002DD,false,Rx,0,8,63,0A,FF,40,0F,FC,00,00,
6961585,00000522,false,Rx,0,8,01,12,00,3F,00,00,00,00,
6961837,00000066,false,Rx,0,8,00,00,00,00,00,00,00,00,
6962077,000000A3,false,Rx,0,8,DB,03,00,00,00,00,00,00,
6962319,000000D9,false,Rx,0,8,00,00,09,A6,01,01,00,00,
6962559,000000DB,false,Rx,0,8,00,5A,00,00,01,A6,00,00,
6962805,0000015B,false,Rx,0,8,00,08,00,01,00,6C,00,96,
6963515,00000072,false,Rx,0,8,00,00,00,00,05,9D,01,A5,
6963761,00000154,false,Rx,0,8,00,00,00,00,80,6D,6D,70,
6965062,00000013,false,Rx,0,8,4D,01,00,00,C0,00,00,00,
6965305,000000AA,false,Rx,0,8,19,0A,00,FA,3F,FE,3F,FF,
6965548,000002DD,false,Rx,0,8,25,0B,FF,40,0F,FC,00,00,
6965787,000000A2,false,Rx,0,8,21,03,00,00,00,00,24,09,
6966028,00000044,false,Rx,0,8,76,34,0E,09,FF,4F,00,00,
6966277,00000063,false,Rx,0,8,00,00,00,00,00,00,00,00,
6966529,00000065,false,Rx,0,8,00,00,00,00,00,00,00,00,
6966763,00000092,false,Rx,0,8,48,03,00,06,10,00,28,00,
6967017,000000A4,false,Rx,0,8,00,00,00,00,27,FE,10,00,
6967257,000000A8,false,Rx,0,8,29,03,00,06,00,00,00,00,
6969242,00000183,false,Rx,0,8,0A,0A,00,5A,40,00,00,8C,
6970070,00000041,false,Rx,0,8,C5,01,00,00,00,00,00,00,
6970307,0000000D,false,Rx,0,8,ED,08,03,E8,03,E8,00,00,
6970559,000001B1,false,Rx,0,8,00,00,10,00,00,00,00,00,
6970834,000001B2,false,Rx,0,8,00,00,00,00,00,00,00,00,
6971622,000000A3,false,Rx,0,8,88,04,00,00,00,00,00,00,
6971873,00000066,false,Rx,0,8,00,00,00,00,00,00,00,00,
6975074,00000013,false,Rx,0,8,F7,02,00,00,C0,00,00,00,
6975327,00000036,false,Rx,0,8,B2,35,00,00,00,00,00,00,
6975553,00000050,false,Rx,0,8,80,05,09,80,00,80,B4,50,
6975799,00000084,false,Rx,0,8,7E,53,39,00,00,00,00,00,
6976034,00000044,false,Rx,0,8,C6,35,0E,6E,FF,4F,00,00,
6976289,00000063,false,Rx,0,8,00,00,00,00,00,00,00,00,
6976535,00000065,false,Rx,0,8,00,00,00,00,00,00,00,00,
6976781,000000A2,false,Rx,0,8,72,04,00,00,00,00,24,09,
6977009,00000088,false,Rx,0,8,E2,0B,01,C1,C5,66,C8,98,
6977248,0000008A,false,Rx,0,8,00,00,03,96,02,39,00,00,
6977483,0000008C,false,Rx,0,8,9E,0B,01,51,3C,5D,90,49,
6977728,0000008E,false,Rx,0,8,00,00,03,FF,00,00,00,45,
6977973,00000090,false,Rx,0,8,00,00,01,A2,00,00,00,00,
6978218,00000098,false,Rx,0,8,5C,4B,00,00,07,E8,03,E8,
6978458,000000AA,false,Rx,0,8,44,0B,00,FA,3F,FE,3F,FF,
6978699,000000C8,false,Rx,0,8,F7,0B,00,06,00,06,7F,FD,
6978926,000000CA,false,Rx,0,8,EF,01,A2,2D,A1,80,00,2B,
6979170,000000EA,false,Rx,0,8,76,5B,00,00,00,00,00,00,
6979412,00000096,false,Rx,0,8,16,13,01,A1,00,00,00,00,
6979662,00000104,false,Rx,0,8,00,00,00,04,00,00,00,00,
6979898,00000143,false,Rx,0,8,E3,03,01,A1,4D,40,01,A6,
6980164,00000041,false,Rx,0,8,49,02,00,00,00,00,00,00,
6980381,0000000D,false,Rx,0,8,87,09,03,E8,03,E8,00,00,
6980627,00000067,false,Rx,0,8,FE,3A,00,00,00,00,00,00,
6980878,0000025F,false,Rx,0,8,00,00,00,00,00,00,00,00,
6981165,000002C1,false,Rx,0,8,00,00,28,01,03,E8,50,00,
6981363,000002DD,false,Rx,0,8,EA,0C,FF,40,0F,FC,00,00,
6981591,00000400,false,Rx,0,8,65,12,11,72,04,1E,55,56,
6981843,00000066,false,Rx,0,8,00,00,00,00,00,00,00,00,
6982165,000000A3,false,Rx,0,8,95,05,00,00,00,00,00,00,
6982323,000000D9,false,Rx,0,8,00,00,09,A6,01,01,00,00,
6982567,000000DB,false,Rx,0,8,00,5B,00,00,01,A6,00,00,
6982813,000000DD,false,Rx,0,8,00,0A,00,0A,FE,0B,03,E6,
6983053,00000110,false,Rx,0,8,00,00,00,01,83,60,02,6D,
6983301,00000130,false,Rx,0,8,00,00,00,20,00,4B,00,00,
6983547,00000072,false,Rx,0,8,00,00,00,00,05,9D,01,A5,
6983793,000000E8,false,Rx,0,8,00,00,03,A4,00,14,00,00,
6984039,00000132,false,Rx,0,8,00,00,00,00,00,00,00,00,
6984295,00000134,false,Rx,0,8,00,00,00,00,00,00,0F,FF,
6984540,00000149,false,Rx,0,8,00,00,00,00,00,00,08,46,
6984780,0000015B,false,Rx,0,8,00,08,00,01,00,6C,00,96,
6985026,00000160,false,Rx,0,8,00,00,00,28,1F,D8,0F,FF,
6985271,00000013,false,Rx,0,8,6A,03,00,00,C0,00,00,00,
6985503,000000AA,false,Rx,0,8,CA,0C,00,FA,3F,FE,3F,FF,
6985751,00000162,false,Rx,0,8,00,1C,28,01,28,73,00,00,
6985986,00000044,false,Rx,0,8,9A,36,0E,D2,FF,4F,00,00,
6986236,00000063,false,Rx,0,8,00,00,00,00,00,00,00,00,
6986488,00000065,false,Rx,0,8,00,00,00,00,00,00,00,00,
6986727,00000092,false,Rx,0,8,C2,04,00,06,10,00,28,00,
6986970,000000A2,false,Rx,0,8,6F,05,00,00,00,00,24,09,
6987212,000000A4,false,Rx,0,8,00,00,00,00,27,FE,10,00,
6987458,000000A8,false,Rx,0,8,A3,04,00,06,00,00,00,00,
6987704,00000164,false,Rx,0,8,00,00,00,00,00,3D,0A,6D,
6987949,00000166,false,Rx,0,8,00,00,03,C0,00,00,00,00,
6988188,000001A1,false,Rx,0,8,63,09,26,00,02,82,02,00,
6988434,000002DD,false,Rx,0,8,AC,0D,FF,40,0F,FC,00,00,
6988675,00000595,false,Rx,0,8,95,00,FF,FF,FF,FF,FF,FF,
6990066,00000041,false,Rx,0,8,C6,03,00,00,00,00,00,00,
6990310,0000000D,false,Rx,0,8,39,0A,03,E8,03,E8,00,00,
6991664,000000A3,false,Rx,0,8,B2,06,00,00,00,00,00,00,
6991910,00000066,false,Rx,0,8,00,00,00,00,00,00,00,00,
6994771,0000019A,false,Rx,0,8,76,06,01,A2,00,00,00,00,
6995071,00000013,false,Rx,0,8,9E,04,00,00,C0,00,00,00,
6995314,00000036,false,Rx,0,8,66,36,00,00,00,00,00,00,
6995552,00000050,false,Rx,0,8,3E,06,09,80,00,80,B4,50,
6995785,00000011,false,Rx,0,8,D4,EA,0C,00,00,00,00,00,
6996026,00000044,false,Rx,0,8,FB,37,0F,36,FF,4F,00,00,
6996276,00000063,false,Rx,0,8,00,00,00,00,00,00,00,00,
6996528,00000065,false,Rx,0,8,00,00,00,00,00,00,00,00,
6996768,00000084,false,Rx,0,8,8A,54,39,00,00,00,00,00,
6996996,00000088,false,Rx,0,8,31,0D,01,C1,C5,66,C8,98,
6997241,0000008A,false,Rx,0,8,00,00,03,96,02,39,00,00,
6997469,0000008C,false,Rx,0,8,4D,0D,01,51,3C,5D,90,49,
6997715,0000008E,false,Rx,0,8,00,00,03,FF,00,00,00,45,
6997960,00000090,false,Rx,0,8,00,00,01,A2,00,00,00,00,
6998199,00000098,false,Rx,0,8,E9,4D,00,00,07,E8,03,E8,
6998439,000000A2,false,Rx,0,8,48,06,00,00,00,00,24,09,
6998674,000000AA,false,Rx,0,8,97,0D,00,FA,3F,FE,3F,FF,
6998914,000000C8,false,Rx,0,8,24,0D,00,06,00,06,7F,FD,
6999152,000000CA,false,Rx,0,8,69,01,A2,35,A1,80,00,31,
6999380,00000146,false,Rx,0,8,00,4E,02,B7,03,49,00,00,
6999626,00000096,false,Rx,0,8,9C,14,01,A1,00,00,00,00,
6999866,00000148,false,Rx,0,8,00,00,00,81,C8,82,80,81,
7000152,00000041,false,Rx,0,8,4C,04,00,00,00,00,00,00,
7000362,0000000D,false,Rx,0,8,53,0B,03,E8,03,E8,00,00,
7000602,00000067,false,Rx,0,8,71,3B,00,00,00,00,00,00,
7000838,000000EC,false,Rx,0,8,00,00,01,4F,01,E0,8A,8A,
7001152,0000014C,false,Rx,0,8,00,00,10,68,0F,1A,0F,25,
7001326,000000F7,false,Rx,0,8,01,A6,00,00,00,00,00,00,
7001578,0000014E,false,Rx,0,8,00,00,00,00,00,00,00,00,
7001830,00000066,false,Rx,0,8,00,00,00,00,00,00,00,00,
7002070,000000A3,false,Rx,0,8,AF,07,00,00,00,00,00,00,
7002312,000000D9,false,Rx,0,8,00,00,09,A6,01,01,00,00,
7002553,000000DB,false,Rx,0,8,00,5C,00,00,01,A6,00,00,
7002810,000000FB,false,Rx,0,8,00,02,00,00,00,00,00,00,
7003050,0000015B,false,Rx,0,8,00,08,00,01,00,6C,00,96,
7003300,0000013D,false,Rx,0,8,00,00,00,00,00,00,00,00,
7003539,00000171,false,Rx,0,8,00,00,07,7F,24,00,00,00,
7003792,0000013F,false,Rx,0,8,00,00,00,00,00,00,00,00,
7004028,00000072,false,Rx,0,8,00,00,00,00,05,9D,01,A5,
7004255,00000143,false,Rx,0,8,69,04,01,A1,4D,40,01,A6,
7004506,00000206,false,Rx,0,8,00,00,00,00,00,00,01,A6,
7004756,00000147,false,Rx,0,8,00,00,00,00,00,00,01,A6,
7004996,000002DD,false,Rx,0,8,66,0E,FF,40,0F,FC,00,00,
7005247,00000013,false,Rx,0,8,03,05,00,00,C0,00,00,00,
7005487,000000AA,false,Rx,0,8,70,0E,00,FA,3F,FE,3F,FF,
7005739,000000A2,false,Rx,0,8,55,07,00,00,00,00,24,09,
7005990,00000063,false,Rx,0,8,00,00,00,00,00,00,00,00,
7006229,00000044,false,Rx,0,8,F1,38,0F,99,FF,4F,00,00,
7006481,00000065,false,Rx,0,8,00,00,00,00,00,00,00,00,
7006728,00000092,false,Rx,0,8,4D,05,00,06,10,00,28,00,
7006996,000000A4,false,Rx,0,8,00,00,00,00,27,FE,10,00,
7007224,000000A8,false,Rx,0,8,2C,05,00,06,00,00,00,00,
7007458,00000177,false,Rx,0,8,41,43,00,00,4A,00,43,69,
7009521,0000059F,false,Rx,0,8,9F,00,FF,FF,FF,FF,FF,FF,
7010056,00000041,false,Rx,0,8,C3,05,00,00,00,00,00,00,
7010307,0000000D,false,Rx,0,8,58,0C,03,E8,03,E8,00,00,
7010558,000001D3,false,Rx,0,8,00,00,00,00,00,00,00,00,
7011657,000000A3,false,Rx,0,8,14,08,00,00,00,00,00,00,
7011897,00000066,false,Rx,0,8,00,00,00,00,00,00,00,00,
7013188,000001D1,false,Rx,0,8,00,00,7F,7F,7F,7F,FF,C0,
7013487,000001D2,false,Rx,0,8,00,00,00,00,00,00,00,00,
7013753,000001D4,false,Rx,0,8,00,00,00,00,00,00,00,00,
7014918,000002B4,false,Rx,0,8,00,00,00,0C,1F,18,3C,FF,
7015163,00000013,false,Rx,0,8,B9,06,00,00,C0,00,00,00,
7015400,00000036,false,Rx,0,8,2A,37,00,00,00,00,00,00,
7015634,00000050,false,Rx,0,8,54,07,09,80,00,80,B4,50,
7015896,00000063,false,Rx,0,8,00,00,00,00,00,00,00,00,
7016307,00000044,false,Rx,0,8,41,39,0F,FE,FF,4F,00,00,
7016367,00000065,false,Rx,0,8,00,00,00,00,00,00,00,00,
7016790,00000084,false,Rx,0,8,17,55,39,00,00,00,00,00,
7016841,00000088,false,Rx,0,8,8B,0F,01,C1,C5,66,C8,98,
7017675,0000008A,false,Rx,0,8,00,00,03,96,02,39,00,00,
