;$FILEVERSION=1.1
;$STARTTIME=44388.8964939595
;
;   C:\Users\vw\Documents\think2009_coldzebra.trc
;
;   Start time: 7/11/2021 21:30:57.078.1
;
;   Message Number
;   |         Time Offset (ms)
;   |         |        Type
;   |         |        |        ID (hex)
;   |         |        |        |     Data Length Code
;   |         |        |        |     |   Data Bytes (hex) ...
;   |         |        |        |     |   |
;---+--   ----+----  --+--  ----+---  +  -+ -- -- -- -- -- -- --
     1)         3.0  Rx         0210  7  FF FF 30 68 90 00 1E 
     2)         3.3  Rx         04B0  8  27 10 27 10 27 10 27 10 
     3)        17.1  Rx         0210  7  FF FF 30 68 90 00 1F 
     4)        17.3  Rx         04B0  8  27 10 27 10 27 10 27 10 
     5)        31.0  Rx         0210  7  FF FF 30 68 90 00 20 
     6)        31.3  Rx         04B0  8  27 10 27 10 27 10 27 10 
     7)        45.0  Rx         0210  7  FF FF 30 68 90 00 21 
     8)        45.3  Rx         04B0  8  27 10 27 10 27 10 27 10 
     9)        59.1  Rx         0210  7  FF FF 30 68 90 00 22 
    10)        59.3  Rx         04B0  8  27 10 27 10 27 10 27 10 
    11)        73.1  Rx         0210  7  FF FF 30 68 90 00 23 
    12)        73.3  Rx         04B0  8  27 10 27 10 27 10 27 10 
    13)        87.1  Rx         0210  7  FF FF 30 68 90 00 24 
    14)        87.3  Rx         04B0  8  27 10 27 10 27 10 27 10 
    15)       101.1  Rx         0210  7  FF FF 30 68 90 00 25 
    16)       101.3  Rx         04B0  8  27 10 27 10 27 10 27 10 
    17)       115.1  Rx         0210  7  FF FF 30 68 90 00 26 
    18)       115.3  Rx         04B0  8  27 10 27 10 27 10 27 10 
    19)       129.1  Rx         0210  7  FF FF 30 68 90 00 27 
    20)       129.4  Rx         04B0  8  27 10 27 10 27 10 27 10 
    21)       143.1  Rx         0210  7  FF FF 30 68 90 00 28 
    22)       143.3  Rx         04B0  8  27 10 27 10 27 10 27 10 
    23)       157.1  Rx         0210  7  FF FF 30 68 90 00 29 
    24)       157.3  Rx         04B0  8  27 10 27 10 27 10 27 10 
    25)       171.1  Rx         0210  7  FF FF 30 68 90 00 2A 
    26)       171.4  Rx         04B0  8  27 10 27 10 27 10 27 10 
    27)       185.1  Rx         0210  7  FF FF 30 68 90 00 2B 
    28)       185.4  Rx         04B0  8  27 10 27 10 27 10 27 10 
    29)       199.2  Rx         0210  7  FF FF 30 68 90 00 2C 
    30)       199.4  Rx         04B0  8  27 10 27 10 27 10 27 10 
    31)       213.1  Rx         0210  7  FF FF 30 68 90 00 2D 
    32)       213.4  Rx         04B0  8  27 10 27 10 27 10 27 10 
    33)       227.1  Rx         0210  7  FF FF 30 68 90 00 2E 
    34)       227.4  Rx         04B0  8  27 10 27 10 27 10 27 10 
    35)       241.2  Rx         0210  7  FF FF 30 68 90 00 2F 
    36)       241.4  Rx         04B0  8  27 10 27 10 27 10 27 10 
    37)       255.2  Rx         0210  7  FF FF 30 68 90 00 30 
    38)       255.4  Rx         04B0  8  27 10 27 10 27 10 27 10 
    39)       269.2  Rx         0210  7  FF FF 30 68 90 00 31 
    40)       269.4  Rx         04B0  8  27 10 27 10 27 10 27 10 
    41)       283.2  Rx         0210  7  FF FF 30 68 90 00 32 
    42)       283.4  Rx         04B0  8  27 10 27 10 27 10 27 10 
    43)       297.2  Rx         0210  7  FF FF 30 68 90 00 33 
    44)       297.4  Rx         04B0  8  27 10 27 10 27 10 27 10 
    45)       311.2  Rx         0210  7  FF FF 30 68 90 00 34 
    46)       311.5  Rx         04B0  8  27 10 27 10 27 10 27 10 
    47)       325.2  Rx         0210  7  FF FF 30 68 90 00 35 
    48)       325.4  Rx         04B0  8  27 10 27 10 27 10 27 10 
    49)       339.2  Rx         0210  7  FF FF 30 68 90 00 36 
    50)       339.4  Rx         04B0  8  27 10 27 10 27 10 27 10 
    51)       353.2  Rx         0210  7  FF FF 30 68 90 00 37 
    52)       353.5  Rx         04B0  8  27 10 27 10 27 10 27 10 
    53)       367.2  Rx         0210  7  FF FF 30 68 90 00 38 
    54)       367.5  Rx         04B0  8  27 10 27 10 27 10 27 10 
    55)       381.3  Rx         0210  7  FF FF 30 68 90 00 39 
    56)       381.5  Rx         04B0  8  27 10 27 10 27 10 27 10 
    57)       395.2  Rx         0210  7  FF FF 30 68 90 00 3A 
    58)       395.5  Rx         04B0  8  27 10 27 10 27 10 27 10 
    59)       409.2  Rx         0210  7  FF FF 30 68 90 00 3B 
    60)       409.5  Rx         04B0  8  27 10 27 10 27 10 27 10 
    61)       423.3  Rx         0210  7  FF FF 30 68 90 00 3C 
    62)       423.5  Rx         04B0  8  27 10 27 10 27 10 27 10 
    63)       437.3  Rx         0210  7  FF FF 30 68 90 00 3D 
    64)       437.5  Rx         04B0  8  27 10 27 10 27 10 27 10 
    65)       451.3  Rx         0210  7  FF FF 30 68 90 00 3E 
    66)       451.5  Rx         04B0  8  27 10 27 10 27 10 27 10 
    67)       465.3  Rx         0210  7  FF FF 30 68 90 00 3F 
    68)       465.5  Rx         04B0  8  27 10 27 10 27 10 27 10 
    69)       479.3  Rx         0210  7  FF FF 30 68 90 00 40 
    70)       479.6  Rx         04B0  8  27 10 27 10 27 10 27 10 
    71)       493.3  Rx         0210  7  FF FF 30 68 90 00 41 
    72)       493.5  Rx         04B0  8  27 10 27 10 27 10 27 10 
    73)       507.3  Rx         0210  7  FF FF 30 68 90 00 42 
    74)       507.5  Rx         04B0  8  27 10 27 10 27 10 27 10 
    75)       521.3  Rx         0210  7  FF FF 30 68 90 00 43 
    76)       521.5  Rx         04B0  8  27 10 27 10 27 10 27 10 
    77)       535.3  Rx         0210  7  FF FF 30 68 90 00 44 
    78)       535.6  Rx         04B0  8  27 10 27 10 27 10 27 10 
    79)       549.3  Rx         0210  7  FF FF 30 68 90 00 45 
    80)       549.6  Rx         04B0  8  27 10 27 10 27 10 27 10 
    81)       563.4  Rx         0210  7  FF FF 30 68 90 00 46 
    82)       563.6  Rx         04B0  8  27 10 27 10 27 10 27 10 
    83)       577.3  Rx         0210  7  FF FF 30 68 90 00 47 
    84)       577.6  Rx         04B0  8  27 10 27 10 27 10 27 10 
    85)       591.3  Rx         0210  7  FF FF 30 68 90 00 48 
    86)       591.6  Rx         04B0  8  27 10 27 10 27 10 27 10 
    87)       605.4  Rx         0210  7  FF FF 30 68 90 00 49 
    88)       605.6  Rx         04B0  8  27 10 27 10 27 10 27 10 
    89)       619.4  Rx         0210  7  FF FF 30 68 90 00 4A 
    90)       619.6  Rx         04B0  8  27 10 27 10 27 10 27 10 
    91)       633.4  Rx         0210  7  FF FF 30 68 90 00 4B 
    92)       633.6  Rx         04B0  8  27 10 27 10 27 10 27 10 
    93)       647.4  Rx         0210  7  FF FF 30 68 90 00 4C 
    94)       647.6  Rx         04B0  8  27 10 27 10 27 10 27 10 
    95)       661.4  Rx         0210  7  FF FF 30 68 90 00 4D 
    96)       661.6  Rx         04B0  8  27 10 27 10 27 10 27 10 
    97)       675.4  Rx         0210  7  FF FF 30 68 90 00 4E 
    98)       675.6  Rx         04B0  8  27 10 27 10 27 10 27 10 
    99)       689.4  Rx         0210  7  FF FF 30 68 90 00 4F 
   100)       689.6  Rx         04B0  8  27 10 27 10 27 10 27 10 
   101)       703.4  Rx         0210  7  FF FF 30 68 90 00 50 
   102)       703.7  Rx         04B0  8  27 10 27 10 27 10 27 10 
   103)       717.4  Rx         0210  7  FF FF 30 68 90 00 51 
   104)       717.7  Rx         04B0  8  27 10 27 10 27 10 27 10 
   105)       731.5  Rx         0210  7  FF FF 30 68 90 00 52 
   106)       731.7  Rx         04B0  8  27 10 27 10 27 10 27 10 
   107)       745.4  Rx         0210  7  FF FF 30 68 90 00 53 
   108)       745.7  Rx         04B0  8  27 10 27 10 27 10 27 10 
   109)       759.4  Rx         0210  7  FF FF 30 68 90 00 54 
   110)       759.7  Rx         04B0  8  27 10 27 10 27 10 27 10 
   111)      5271.3  Rx         0408  8  00 01 00 00 00 00 00 00 
   112)      5367.4  Rx         0023  1  40 
   113)      5368.8  Rx         0460  8  03 E0 00 00 C0 00 00 00 
   114)      5378.3  Rx         0023  1  40 
   115)      5399.4  Rx         0210  7  FF FF 30 68 90 00 01 
   116)      5399.6  Rx         04B0  8  27 10 27 10 27 10 27 10 
   117)      5413.4  Rx         0210  7  FF FF 30 68 90 00 02 
   118)      5413.6  Rx         04B0  8  27 10 27 10 27 10 27 10 
   119)      5427.4  Rx         0210  7  FF FF 30 68 90 00 03 
   120)      5427.6  Rx         04B0  8  27 10 27 10 27 10 27 10 
   121)      5441.4  Rx         0210  7  FF FF 30 68 90 00 04 
   122)      5441.6  Rx         04B0  8  27 10 27 10 27 10 27 10 
   123)      5455.4  Rx         0210  7  FF FF 30 68 90 00 05 
   124)      5455.6  Rx         04B0  8  27 10 27 10 27 10 27 10 
   125)      5468.1  Rx         0460  8  03 E0 00 00 C0 00 00 00 
   126)      5469.4  Rx         0210  7  FF FF 30 68 90 00 06 
   127)      5469.6  Rx         04B0  8  27 10 27 10 27 10 27 10 
   128)      5483.4  Rx         0210  7  FF FF 30 68 90 00 07 
   129)      5483.7  Rx         04B0  8  27 10 27 10 27 10 27 10 
   130)      5497.4  Rx         0210  7  FF FF 30 68 90 00 08 
   131)      5497.7  Rx         04B0  8  27 10 27 10 27 10 27 10 
   132)      5512.9  Warng  FFFFFFFF  4  00 00 00 08  BUSHEAVY 
   133)      5513.9  Rx         0210  7  FF FF 30 68 90 00 09 
   134)      5514.2  Rx         04B0  8  27 10 27 10 27 10 27 10 
   135)      5525.4  Rx         0210  7  FF FF 30 68 90 00 0A 
   136)      5525.7  Rx         04B0  8  27 10 27 10 27 10 27 10 
   137)      5539.5  Rx         0210  7  FF FF 30 68 90 00 0B 
   138)      5539.7  Rx         04B0  8  27 10 27 10 27 10 27 10 
   139)      5553.5  Rx         0210  7  FF FF 30 68 90 00 0C 
   140)      5553.7  Rx         04B0  8  27 10 27 10 27 10 27 10 
   141)      5567.5  Rx         0210  7  FF FF 30 68 90 00 0D 
   142)      5567.7  Rx         04B0  8  27 10 27 10 27 10 27 10 
   143)      5567.8  Rx         0023  1  40 
   144)      5568.1  Rx         0460  8  03 E0 00 00 C0 00 00 00 
   145)      5581.5  Rx         0210  7  FF FF 30 68 90 00 0E 
   146)      5581.7  Rx         04B0  8  27 10 27 10 27 10 27 10 
   147)      5595.5  Rx         0210  7  FF FF 30 68 90 00 0F 
   148)      5595.7  Rx         04B0  8  27 10 27 10 27 10 27 10 
   149)      5609.5  Rx         0210  7  FF FF 30 68 90 00 10 
   150)      5609.7  Rx         04B0  8  27 10 27 10 27 10 27 10 
   151)      5623.5  Rx         0210  7  FF FF 30 68 90 00 11 
   152)      5623.7  Rx         04B0  8  27 10 27 10 27 10 27 10 
   153)      5637.5  Rx         0210  7  FF FF 30 68 90 00 12 
   154)      5637.8  Rx         04B0  8  27 10 27 10 27 10 27 10 
   155)      5651.5  Rx         0210  7  FF FF 30 68 90 00 13 
   156)      5651.8  Rx         04B0  8  27 10 27 10 27 10 27 10 
   157)      5665.5  Rx         0210  7  FF FF 30 68 90 00 14 
   158)      5665.8  Rx         04B0  8  27 10 27 10 27 10 27 10 
   159)      5667.8  Rx         0460  8  03 E0 00 00 C0 00 00 00 
   160)      5679.5  Rx         0210  7  FF FF 30 68 90 00 15 
   161)      5679.8  Rx         04B0  8  27 10 27 10 27 10 27 10 
   162)      5693.5  Rx         0210  7  FF FF 30 68 90 00 16 
   163)      5693.8  Rx         04B0  8  27 10 27 10 27 10 27 10 
   164)      5707.6  Rx         0210  7  FF FF 30 68 90 00 17 
   165)      5707.8  Rx         04B0  8  27 10 27 10 27 10 27 10 
   166)      5707.8  Warng  FFFFFFFF  4  00 00 00 04  BUSLIGHT 
   167)      5721.6  Rx         0210  7  FF FF 30 68 90 00 18 
   168)      5721.8  Rx         04B0  8  27 10 27 10 27 10 27 10 
   169)      5735.6  Rx         0210  7  FF FF 30 68 90 00 19 
   170)      5735.8  Rx         04B0  8  27 10 27 10 27 10 27 10 
   171)      5749.6  Rx         0210  7  FF FF 30 68 90 00 1A 
   172)      5749.8  Rx         04B0  8  27 10 27 10 27 10 27 10 
   173)      5763.6  Rx         0210  7  FF FF 30 68 90 00 1B 
   174)      5763.8  Rx         04B0  8  27 10 27 10 27 10 27 10 
   175)      5767.4  Rx         0023  1  40 
   176)      5767.7  Rx         0460  8  03 E0 00 00 C0 00 00 00 
   177)      5770.5  Rx         0408  8  00 01 00 00 00 00 00 00 
   178)      5777.6  Rx         0210  7  FF FF 30 68 90 00 1C 
   179)      5777.8  Rx         04B0  8  27 10 27 10 27 10 27 10 
   180)      5782.6  Rx         0311  2  00 00 
   181)      5782.8  Rx         0263  6  00 00 00 87 01 00 
   182)      5791.6  Rx         0210  7  FF FF 30 68 90 00 1D 
   183)      5791.8  Rx         04B0  8  27 10 27 10 27 10 27 10 
   184)      5805.6  Rx         0210  7  FF FF 30 68 90 00 1E 
   185)      5805.9  Rx         04B0  8  27 10 27 10 27 10 27 10 
   186)      5819.6  Rx         0210  7  FF FF 30 68 90 00 1F 
   187)      5819.9  Rx         04B0  8  27 10 27 10 27 10 27 10 
   188)      5833.6  Rx         0210  7  FF FF 30 68 90 00 20 
   189)      5833.9  Rx         04B0  8  27 10 27 10 27 10 27 10 
   190)      5847.6  Rx         0210  7  FF FF 30 68 90 00 21 
   191)      5847.9  Rx         04B0  8  27 10 27 10 27 10 27 10 
   192)      5861.6  Rx         0210  7  FF FF 30 68 90 00 22 
   193)      5861.9  Rx         04B0  8  27 10 27 10 27 10 27 10 
   194)      5867.4  Rx         0460  8  03 E0 00 00 C0 00 00 00 
   195)      5875.6  Rx         0210  7  FF FF 30 68 90 00 23 
   196)      5875.9  Rx         04B0  8  27 10 27 10 27 10 27 10 
   197)      5882.7  Rx         0310  3  00 00 00 
   198)      5883.0  Rx         0264  8  00 00 00 00 00 00 00 00 
   199)      5889.7  Rx         0210  7  FF FF 30 68 90 00 24 
   200)      5890.0  Rx         04B0  8  27 10 27 10 27 10 27 10 
   201)      5903.7  Rx         0210  7  FF FF 30 68 90 00 25 
   202)      5903.9  Rx         04B0  8  27 10 27 10 27 10 27 10 
   203)      5917.7  Rx         0210  7  FF FF 30 68 90 00 26 
   204)      5917.9  Rx         04B0  8  27 10 27 10 27 10 27 10 
   205)      5931.7  Rx         0210  7  FF FF 30 68 90 00 27 
   206)      5931.9  Rx         04B0  8  27 10 27 10 27 10 27 10 
   207)      5945.7  Rx         0210  7  FF FF 30 68 90 00 28 
   208)      5945.9  Rx         04B0  8  27 10 27 10 27 10 27 10 
   209)      5959.7  Rx         0210  7  FF FF 30 68 90 00 29 
   210)      5960.0  Rx         04B0  8  27 10 27 10 27 10 27 10 
   211)      5967.1  Rx         0023  1  40 
   212)      5967.4  Rx         0460  8  03 E0 00 00 C0 00 00 00 
   213)      5973.7  Rx         0210  7  FF FF 30 68 90 00 2A 
   214)      5974.0  Rx         04B0  8  27 10 27 10 27 10 27 10 
   215)      5982.8  Rx         0311  2  00 00 
   216)      5983.0  Rx         0263  6  00 00 00 87 02 00 
   217)      5987.7  Rx         0210  7  FF FF 30 68 90 00 2B 
   218)      5988.0  Rx         04B0  8  27 10 27 10 27 10 27 10 
   219)      6001.7  Rx         0210  7  FF FF 30 68 90 00 2C 
   220)      6002.0  Rx         04B0  8  27 10 27 10 27 10 27 10 
   221)      6015.7  Rx         0210  7  FF FF 30 68 90 00 2D 
   222)      6016.0  Rx         04B0  8  27 10 27 10 27 10 27 10 
   223)      6029.8  Rx         0210  7  FF FF 30 68 90 00 2E 
   224)      6030.0  Rx         04B0  8  27 10 27 10 27 10 27 10 
   225)      6043.8  Rx         0210  7  FF FF 30 68 90 00 2F 
   226)      6044.0  Rx         04B0  8  27 10 27 10 27 10 27 10 
   227)      6057.8  Rx         0210  7  FF FF 30 68 90 00 30 
   228)      6058.0  Rx         04B0  8  27 10 27 10 27 10 27 10 
   229)      6067.0  Rx         0460  8  03 E0 00 00 C0 00 00 00 
   230)      6071.8  Rx         0210  7  FF FF 30 68 90 00 31 
   231)      6072.0  Rx         04B0  8  27 10 27 10 27 10 27 10 
   232)      6082.8  Rx         0310  3  00 00 00 
   233)      6083.1  Rx         0264  8  00 00 00 00 00 00 00 00 
   234)      6085.8  Rx         0210  7  FF FF 30 68 90 00 32 
   235)      6086.0  Rx         04B0  8  27 10 27 10 27 10 27 10 
   236)      6099.8  Rx         0210  7  FF FF 30 68 90 00 33 
   237)      6100.0  Rx         04B0  8  27 10 27 10 27 10 27 10 
   238)      6113.8  Rx         0210  7  FF FF 30 68 90 00 34 
   239)      6114.0  Rx         04B0  8  27 10 27 10 27 10 27 10 
   240)      6127.8  Rx         0210  7  FF FF 30 68 90 00 35 
   241)      6128.0  Rx         04B0  8  27 10 27 10 27 10 27 10 
   242)      6141.8  Rx         0210  7  FF FF 30 68 90 00 36 
   243)      6142.1  Rx         04B0  8  27 10 27 10 27 10 27 10 
   244)      6155.8  Rx         0210  7  FF FF 30 68 90 00 37 
   245)      6156.1  Rx         04B0  8  27 10 27 10 27 10 27 10 
   246)      6166.6  Rx         0023  1  40 
   247)      6166.9  Rx         0460  8  03 E0 00 00 C0 00 00 00 
   248)      6169.8  Rx         0210  7  FF FF 30 68 90 00 38 
   249)      6170.1  Rx         04B0  8  27 10 27 10 27 10 27 10 
   250)      6182.9  Rx         0311  2  00 00 
   251)      6183.1  Rx         0263  6  00 00 00 87 03 00 
   252)      6183.8  Rx         0210  7  FF FF 30 68 90 00 39 
   253)      6184.1  Rx         04B0  8  27 10 27 10 27 10 27 10 
   254)      6197.8  Rx         0210  7  FF FF 30 68 90 00 3A 
   255)      6198.1  Rx         04B0  8  27 10 27 10 27 10 27 10 
   256)      6211.9  Rx         0210  7  FF FF 30 68 90 00 3B 
   257)      6212.1  Rx         04B0  8  27 10 27 10 27 10 27 10 
   258)      6225.9  Rx         0210  7  FF FF 30 68 90 00 3C 
   259)      6226.1  Rx         04B0  8  27 10 27 10 27 10 27 10 
   260)      6239.9  Rx         0210  7  FF FF 30 68 90 00 3D 
   261)      6240.1  Rx         04B0  8  27 10 27 10 27 10 27 10 
   262)      6253.9  Rx         0210  7  FF FF 30 68 90 00 3E 
   263)      6254.1  Rx         04B0  8  27 10 27 10 27 10 27 10 
   264)      6266.5  Rx         0460  8  03 E0 00 00 C0 00 00 00 
   265)      6267.9  Rx         0210  7  FF FF 30 68 90 00 3F 
   266)      6268.1  Rx         04B0  8  27 10 27 10 27 10 27 10 
   267)      6270.0  Rx         0408  8  00 01 00 00 00 00 00 00 
   268)      6281.9  Rx         0210  7  FF FF 30 68 90 00 40 
   269)      6282.1  Rx         04B0  8  27 10 27 10 27 10 27 10 
   270)      6283.0  Rx         0310  3  00 00 00 
   271)      6283.2  Rx         0264  8  00 00 00 00 00 00 00 00 
   272)      6295.9  Rx         0210  7  FF FF 30 68 90 00 41 
   273)      6296.1  Rx         04B0  8  27 10 27 10 27 10 27 10 
   274)      6309.9  Rx         0210  7  FF FF 30 68 90 00 42 
   275)      6310.1  Rx         04B0  8  27 10 27 10 27 10 27 10 
   276)      6323.9  Rx         0210  7  FF FF 30 68 90 00 43 
   277)      6324.2  Rx         04B0  8  27 10 27 10 27 10 27 10 
   278)      6337.9  Rx         0210  7  FF FF 30 68 90 00 44 
   279)      6338.2  Rx         04B0  8  27 10 27 10 27 10 27 10 
   280)      6351.9  Rx         0210  7  FF FF 30 68 90 00 45 
   281)      6352.2  Rx         04B0  8  27 10 27 10 27 10 27 10 
   282)      6365.9  Rx         0210  7  FF FF 30 68 90 00 46 
   283)      6366.2  Rx         04B0  8  27 10 27 10 27 10 27 10 
   284)      6366.3  Rx         0023  1  40 
   285)      6366.6  Rx         0460  8  03 E0 00 00 C0 00 00 00 
   286)      6379.9  Rx         0210  7  FF FF 30 68 90 00 47 
   287)      6380.2  Rx         04B0  8  27 10 27 10 27 10 27 10 
   288)      6383.0  Rx         0311  2  00 00 
   289)      6383.2  Rx         0263  6  00 00 30 87 04 00 
   290)      6394.0  Rx         0210  7  FF FF 30 68 90 00 48 
   291)      6394.2  Rx         04B0  8  27 10 27 10 27 10 27 10 
   292)      6408.0  Rx         0210  7  FF FF 30 68 90 00 49 
   293)      6408.2  Rx         04B0  8  27 10 27 10 27 10 27 10 
   294)      6422.0  Rx         0210  7  FF FF 30 68 90 00 4A 
   295)      6422.2  Rx         04B0  8  27 10 27 10 27 10 27 10 
   296)      6436.0  Rx         0210  7  FF FF 30 68 90 00 4B 
   297)      6436.2  Rx         04B0  8  27 10 27 10 27 10 27 10 
   298)      6450.0  Rx         0210  7  FF FF 30 68 90 00 4C 
   299)      6450.2  Rx         04B0  8  27 10 27 10 27 10 27 10 
   300)      6464.0  Rx         0210  7  FF FF 30 68 90 00 4D 
   301)      6464.2  Rx         04B0  8  27 10 27 10 27 10 27 10 
   302)      6466.1  Rx         0460  8  03 E0 00 00 C0 00 00 00 
   303)      6478.0  Rx         0210  7  FF FF 30 68 90 00 4E 
   304)      6478.2  Rx         04B0  8  27 10 27 10 27 10 27 10 
   305)      6483.1  Rx         0310  3  00 00 00 
   306)      6483.3  Rx         0264  8  00 00 00 00 00 00 00 00 
   307)      6492.0  Rx         0210  7  FF FF 30 68 90 00 4F 
   308)      6492.2  Rx         04B0  8  27 10 27 10 27 10 27 10 
   309)      6506.0  Rx         0210  7  FF FF 30 68 90 00 50 
   310)      6506.3  Rx         04B0  8  27 10 27 10 27 10 27 10 
   311)      6520.0  Rx         0210  7  FF FF 30 68 90 00 51 
   312)      6520.3  Rx         04B0  8  27 10 27 10 27 10 27 10 
   313)      6534.0  Rx         0210  7  FF FF 30 68 90 00 52 
   314)      6534.3  Rx         04B0  8  27 10 27 10 27 10 27 10 
   315)      6548.0  Rx         0210  7  FF FF 30 68 90 00 53 
   316)      6548.3  Rx         04B0  8  27 10 27 10 27 10 27 10 
   317)      6562.1  Rx         0210  7  FF FF 30 68 90 00 54 
   318)      6562.3  Rx         04B0  8  27 10 27 10 27 10 27 10 
   319)      6565.8  Rx         0023  1  40 
   320)      6566.1  Rx         0460  8  03 E0 00 00 C0 00 00 00 
   321)      6576.1  Rx         0210  7  FF FF 30 68 90 00 55 
   322)      6576.3  Rx         04B0  8  27 10 27 10 27 10 27 10 
   323)      6583.1  Rx         0311  2  00 00 
   324)      6583.3  Rx         0263  6  00 00 30 87 05 00 
   325)      6590.1  Rx         0210  7  FF FF 30 68 90 00 56 
   326)      6590.3  Rx         04B0  8  27 10 27 10 27 10 27 10 
   327)      6604.1  Rx         0210  7  FF FF 30 68 90 00 57 
   328)      6604.3  Rx         04B0  8  27 10 27 10 27 10 27 10 
   329)      6618.1  Rx         0210  7  FF FF 30 68 90 00 58 
   330)      6618.3  Rx         04B0  8  27 10 27 10 27 10 27 10 
   331)      6632.1  Rx         0210  7  FF FF 30 68 90 00 59 
   332)      6632.3  Rx         04B0  8  27 10 27 10 27 10 27 10 
   333)      6646.1  Rx         0210  7  FF FF 30 68 90 00 5A 
   334)      6646.3  Rx         04B0  8  27 10 27 10 27 10 27 10 
   335)      6660.1  Rx         0210  7  FF FF 30 68 90 00 5B 
   336)      6660.3  Rx         04B0  8  27 10 27 10 27 10 27 10 
   337)      6665.8  Rx         0460  8  03 E0 00 00 C0 00 00 00 
   338)      6674.1  Rx         0210  7  FF FF 30 68 90 00 5C 
   339)      6674.3  Rx         04B0  8  27 10 27 10 27 10 27 10 
   340)      6683.1  Rx         0310  3  00 00 00 
   341)      6683.4  Rx         0264  8  00 00 00 00 00 00 00 00 
   342)      6688.1  Rx         0210  7  FF FF 30 68 90 00 5D 
   343)      6688.4  Rx         04B0  8  27 10 27 10 27 10 27 10 
   344)      6702.1  Rx         0210  7  FF FF 30 68 90 00 5E 
   345)      6702.4  Rx         04B0  8  27 10 27 10 27 10 27 10 
   346)      6716.1  Rx         0210  7  FF FF 30 68 90 00 5F 
   347)      6716.4  Rx         04B0  8  27 10 27 10 27 10 27 10 
   348)      6730.1  Rx         0210  7  FF FF 30 68 90 00 60 
   349)      6730.4  Rx         04B0  8  27 10 27 10 27 10 27 10 
   350)      6744.2  Rx         0210  7  FF FF 30 68 90 00 61 
   351)      6744.4  Rx         04B0  8  27 10 27 10 27 10 27 10 
   352)      6758.2  Rx         0210  7  FF FF 30 68 90 00 62 
   353)      6758.4  Rx         04B0  8  27 10 27 10 27 10 27 10 
   354)      6765.3  Rx         0023  1  40 
   355)      6765.6  Rx         0460  8  03 E0 00 00 C0 00 00 00 
   356)      6769.6  Rx         0408  8  00 01 00 00 00 00 00 00 
   357)      6772.2  Rx         0210  7  FF FF 30 68 90 00 63 
   358)      6772.4  Rx         04B0  8  27 10 27 10 27 10 27 10 
   359)      6783.1  Rx         0311  2  00 00 
   360)      6783.3  Rx         0263  6  00 00 30 87 06 00 
   361)      6786.2  Rx         0210  7  FF FF 30 68 90 00 64 
   362)      6786.4  Rx         04B0  8  27 10 27 10 27 10 27 10 
   363)      6800.2  Rx         0210  7  FF FF 30 68 90 00 65 
   364)      6800.4  Rx         04B0  8  27 10 27 10 27 10 27 10 
   365)      6814.2  Rx         0210  7  FF FF 30 68 90 00 66 
   366)      6814.4  Rx         04B0  8  27 10 27 10 27 10 27 10 
   367)      6828.2  Rx         0210  7  FF FF 30 68 90 00 67 
   368)      6828.4  Rx         04B0  8  27 10 27 10 27 10 27 10 
   369)      6842.2  Rx         0210  7  FF FF 30 68 90 00 68 
   370)      6842.4  Rx         04B0  8  27 10 27 10 27 10 27 10 
   371)      6856.2  Rx         0210  7  FF FF 30 68 90 00 69 
   372)      6856.4  Rx         04B0  8  27 10 27 10 27 10 27 10 
   373)      6865.3  Rx         0460  8  03 E0 00 00 C0 00 00 00 
   374)      6870.2  Rx         0210  7  FF FF 30 68 90 00 6A 
   375)      6870.5  Rx         04B0  8  27 10 27 10 27 10 27 10 
   376)      6883.2  Rx         0310  3  00 00 00 
   377)      6883.4  Rx         0264  8  00 00 00 00 00 00 00 00 
   378)      6884.2  Rx         0210  7  FF FF 30 68 90 00 6B 
   379)      6884.5  Rx         04B0  8  27 10 27 10 27 10 27 10 
   380)      6898.3  Rx         0210  7  FF FF 30 68 90 00 6C 
   381)      6898.5  Rx         04B0  8  27 10 27 10 27 10 27 10 
   382)      6912.3  Rx         0210  7  FF FF 30 68 90 00 6D 
   383)      6912.5  Rx         04B0  8  27 10 27 10 27 10 27 10 
   384)      6926.3  Rx         0210  7  FF FF 30 68 90 00 6E 
   385)      6926.5  Rx         04B0  8  27 10 27 10 27 10 27 10 
   386)      6940.3  Rx         0210  7  FF FF 30 68 90 00 6F 
   387)      6940.5  Rx         04B0  8  27 10 27 10 27 10 27 10 
   388)      6954.3  Rx         0210  7  FF FF 30 68 90 00 70 
   389)      6954.5  Rx         04B0  8  27 10 27 10 27 10 27 10 
   390)      6965.0  Rx         0023  1  40 
   391)      6965.3  Rx         0460  8  03 E0 00 00 C0 00 00 00 
   392)      6968.3  Rx         0210  7  FF FF 30 68 90 00 71 
   393)      6968.5  Rx         04B0  8  27 10 27 10 27 10 27 10 
   394)      6982.3  Rx         0210  7  FF FF 30 68 90 00 72 
   395)      6982.5  Rx         04B0  8  27 10 27 10 27 10 27 10 
   396)      6983.3  Rx         0311  2  00 00 
   397)      6983.5  Rx         0263  6  00 00 30 87 07 00 
   398)      6996.3  Rx         0210  7  FF FF 30 68 90 00 73 
   399)      6996.5  Rx         04B0  8  27 10 27 10 27 10 27 10 
   400)      7010.3  Rx         0210  7  FF FF 30 68 90 00 74 
   401)      7010.6  Rx         04B0  8  27 10 27 10 27 10 27 10 
   402)      7024.3  Rx         0210  7  FF FF 30 68 90 00 75 
   403)      7024.6  Rx         04B0  8  27 10 27 10 27 10 27 10 
   404)      7038.3  Rx         0210  7  FF FF 30 68 90 00 76 
   405)      7038.6  Rx         04B0  8  27 10 27 10 27 10 27 10 
   406)      7052.3  Rx         0210  7  FF FF 30 68 90 00 77 
   407)      7052.6  Rx         04B0  8  27 10 27 10 27 10 27 10 
   408)      7064.9  Rx         0460  8  03 E0 00 00 C0 00 00 00 
   409)      7066.4  Rx         0210  7  FF FF 30 68 90 00 78 
   410)      7066.6  Rx         04B0  8  27 10 27 10 27 10 27 10 
   411)      7080.4  Rx         0210  7  FF FF 30 68 90 00 79 
   412)      7080.6  Rx         04B0  8  27 10 27 10 27 10 27 10 
   413)      7083.3  Rx         0310  3  00 00 00 
   414)      7083.5  Rx         0264  8  00 00 00 00 00 00 00 00 
   415)      7094.4  Rx         0210  7  FF FF 30 68 90 00 7A 
   416)      7094.6  Rx         04B0  8  27 10 27 10 27 10 27 10 
   417)      7108.4  Rx         0210  7  FF FF 30 68 90 00 7B 
   418)      7108.6  Rx         04B0  8  27 10 27 10 27 10 27 10 
   419)      7122.9  Rx         0210  7  FF FF 30 68 90 00 7C 
   420)      7123.2  Rx         04B0  8  27 10 27 10 27 10 27 10 
   421)      7137.0  Rx         0210  7  FF FF 30 68 90 00 7D 
   422)      7137.2  Rx         04B0  8  27 10 27 10 27 10 27 10 
   423)      7151.0  Rx         0210  7  FF FF 30 68 90 00 7E 
   424)      7151.2  Rx         04B0  8  27 10 27 10 27 10 27 10 
   425)      7164.5  Rx         0023  1  40 
   426)      7164.8  Rx         0460  8  03 E0 00 00 C0 00 00 00 
   427)      7165.0  Rx         0210  7  FF FF 30 68 90 00 7F 
   428)      7165.3  Rx         04B0  8  27 10 27 10 27 10 27 10 
   429)      7179.0  Rx         0210  7  FF FF 30 68 90 00 80 
   430)      7179.2  Rx         04B0  8  27 10 27 10 27 10 27 10 
   431)      7183.3  Rx         0311  2  00 00 
   432)      7183.5  Rx         0263  6  00 00 30 87 08 00 
   433)      7193.0  Rx         0210  7  FF FF 30 68 90 00 81 
   434)      7193.3  Rx         04B0  8  27 10 27 10 27 10 27 10 
   435)      7207.0  Rx         0210  7  FF FF 30 68 90 00 82 
   436)      7207.3  Rx         04B0  8  27 10 27 10 27 10 27 10 
   437)      7221.0  Rx         0210  7  FF FF 30 68 90 00 83 
   438)      7221.2  Rx         04B0  8  27 10 27 10 27 10 27 10 
   439)      7235.0  Rx         0210  7  FF FF 30 68 90 00 84 
   440)      7235.2  Rx         04B0  8  27 10 27 10 27 10 27 10 
   441)      7249.0  Rx         0210  7  FF FF 30 68 90 00 85 
   442)      7249.3  Rx         04B0  8  27 10 27 10 27 10 27 10 
   443)      7263.1  Rx         0210  7  FF FF 30 68 90 00 86 
   444)      7263.3  Rx         04B0  8  27 10 27 10 27 10 27 10 
   445)      7264.4  Rx         0460  8  03 E0 00 00 C0 00 00 00 
   446)      7269.1  Rx         0408  8  00 01 00 00 00 00 00 00 
   447)      7277.1  Rx         0210  7  FF FF 30 68 90 00 87 
   448)      7277.3  Rx         04B0  8  27 10 27 10 27 10 27 10 
   449)      7283.4  Rx         0310  3  00 00 00 
   450)      7283.6  Rx         0264  8  00 00 00 00 00 00 00 00 
   451)      7291.1  Rx         0210  7  FF FF 30 68 90 00 88 
   452)      7291.3  Rx         04B0  8  27 10 27 10 27 10 27 10 
   453)      7305.1  Rx         0210  7  FF FF 30 68 90 00 89 
   454)      7305.3  Rx         04B0  8  27 10 27 10 27 10 27 10 
   455)      7319.1  Rx         0210  7  FF FF 30 68 90 00 8A 
   456)      7319.3  Rx         04B0  8  27 10 27 10 27 10 27 10 
   457)      7333.1  Rx         0210  7  FF FF 30 68 90 00 8B 
   458)      7333.3  Rx         04B0  8  27 10 27 10 27 10 27 10 
   459)      7347.1  Rx         0210  7  FF FF 30 68 90 00 8C 
   460)      7347.3  Rx         04B0  8  27 10 27 10 27 10 27 10 
   461)      7361.1  Rx         0210  7  FF FF 30 68 90 00 8D 
   462)      7361.3  Rx         04B0  8  27 10 27 10 27 10 27 10 
   463)      7364.1  Rx         0023  1  40 
   464)      7364.4  Rx         0460  8  03 E0 00 00 C0 00 00 00 
   465)      7375.1  Rx         0210  7  FF FF 30 68 90 00 8E 
   466)      7375.4  Rx         04B0  8  27 10 27 10 27 10 27 10 
   467)      7383.5  Rx         0311  2  00 00 
   468)      7383.7  Rx         0263  6  00 00 30 87 09 00 
   469)      7389.1  Rx         0210  7  FF FF 30 68 90 00 8F 
   470)      7389.4  Rx         04B0  8  27 10 27 10 27 10 27 10 
   471)      7403.1  Rx         0210  7  FF FF 30 68 90 00 90 
   472)      7403.3  Rx         04B0  8  27 10 27 10 27 10 27 10 
   473)      7417.1  Rx         0210  7  FF FF 30 68 90 00 91 
   474)      7417.3  Rx         04B0  8  27 10 27 10 27 10 27 10 
   475)      7431.1  Rx         0210  7  FF FF 30 68 90 00 92 
   476)      7431.4  Rx         04B0  8  27 10 27 10 27 10 27 10 
   477)      7445.2  Rx         0210  7  FF FF 30 68 90 00 93 
   478)      7445.4  Rx         04B0  8  27 10 27 10 27 10 27 10 
   479)      7459.2  Rx         0210  7  FF FF 30 68 90 00 94 
   480)      7459.4  Rx         04B0  8  27 10 27 10 27 10 27 10 
   481)      7464.1  Rx         0460  8  03 E0 00 00 C0 00 00 00 
   482)      7473.1  Rx         0210  7  FF FF 30 68 90 00 95 
   483)      7473.4  Rx         04B0  8  27 10 27 10 27 10 27 10 
   484)      7483.6  Rx         0310  3  00 00 00 
   485)      7483.8  Rx         0264  8  00 00 00 00 00 00 00 00 
   486)      7487.1  Rx         0210  7  FF FF 30 68 90 00 96 
   487)      7487.4  Rx         04B0  8  27 10 27 10 27 10 27 10 
   488)      7501.2  Rx         0210  7  FF FF 30 68 90 00 97 
   489)      7501.4  Rx         04B0  8  27 10 27 10 27 10 27 10 
   490)      7515.2  Rx         0210  7  FF FF 30 68 90 00 98 
   491)      7515.4  Rx         04B0  8  27 10 27 10 27 10 27 10 
   492)      7529.2  Rx         0210  7  FF FF 30 68 90 00 99 
   493)      7529.4  Rx         04B0  8  27 10 27 10 27 10 27 10 
   494)      7543.2  Rx         0210  7  FF FF 30 68 90 00 9A 
   495)      7543.4  Rx         04B0  8  27 10 27 10 27 10 27 10 
   496)      7557.2  Rx         0210  7  FF FF 30 68 90 00 9B 
   497)      7557.5  Rx         04B0  8  27 10 27 10 27 10 27 10 
   498)      7563.7  Rx         0023  1  40 
   499)      7564.1  Rx         0460  8  03 E0 00 00 C0 00 00 00 
   500)      7571.2  Rx         0210  7  FF FF 30 68 90 00 9C 
   501)      7571.5  Rx         04B0  8  27 10 27 10 27 10 27 10 
   502)      7583.6  Rx         0311  2  00 00 
   503)      7583.8  Rx         0263  6  00 00 2F 87 0A 00 
   504)      7585.2  Rx         0210  7  FF FF 30 68 90 00 9D 
   505)      7585.4  Rx         04B0  8  27 10 27 10 27 10 27 10 
   506)      7599.2  Rx         0210  7  FF FF 30 68 90 00 9E 
   507)      7599.5  Rx         04B0  8  27 10 27 10 27 10 27 10 
   508)      7613.2  Rx         0210  7  FF FF 30 68 90 00 9F 
   509)      7613.5  Rx         04B0  8  27 10 27 10 27 10 27 10 
   510)      7627.3  Rx         0210  7  FF FF 30 68 90 00 A0 
   511)      7627.5  Rx         04B0  8  27 10 27 10 27 10 27 10 
   512)      7641.3  Rx         0210  7  FF FF 30 68 90 00 A1 
   513)      7641.5  Rx         04B0  8  27 10 27 10 27 10 27 10 
   514)      7655.2  Rx         0210  7  FF FF 30 68 90 00 A2 
   515)      7655.5  Rx         04B0  8  27 10 27 10 27 10 27 10 
   516)      7663.7  Rx         0460  8  03 E0 00 00 C0 00 00 00 
   517)      7669.3  Rx         0210  7  FF FF 30 68 90 00 A3 
   518)      7669.5  Rx         04B0  8  27 10 27 10 27 10 27 10 
   519)      7683.3  Rx         0210  7  FF FF 30 68 90 00 A4 
   520)      7683.5  Rx         04B0  8  27 10 27 10 27 10 27 10 
   521)      7683.7  Rx         0310  3  00 00 00 
   522)      7683.9  Rx         0264  8  00 00 00 00 00 00 00 00 
   523)      7697.3  Rx         0210  7  FF FF 30 68 90 00 A5 
   524)      7697.5  Rx         04B0  8  27 10 27 10 27 10 27 10 
   525)      7711.3  Rx         0210  7  FF FF 30 68 90 00 A6 
   526)      7711.5  Rx         04B0  8  27 10 27 10 27 10 27 10 
   527)      7725.3  Rx         0210  7  FF FF 30 68 90 00 A7 
   528)      7725.5  Rx         04B0  8  27 10 27 10 27 10 27 10 
   529)      7739.3  Rx         0210  7  FF FF 30 68 90 00 A8 
   530)      7739.6  Rx         04B0  8  27 10 27 10 27 10 27 10 
   531)      7753.3  Rx         0210  7  FF FF 30 68 90 00 A9 
   532)      7753.5  Rx         04B0  8  27 10 27 10 27 10 27 10 
   533)      7763.4  Rx         0023  1  40 
   534)      7763.7  Rx         0460  8  03 E0 00 00 C0 00 00 00 
   535)      7767.3  Rx         0210  7  FF FF 30 68 90 00 AA 
   536)      7767.5  Rx         04B0  8  27 10 27 10 27 10 27 10 
   537)      7768.7  Rx         0408  8  00 01 00 00 00 00 00 00 
   538)      7781.3  Rx         0210  7  FF FF 30 68 90 00 AB 
   539)      7781.6  Rx         04B0  8  27 10 27 10 27 10 27 10 
   540)      7783.6  Rx         0311  2  00 00 
   541)      7783.8  Rx         0263  6  00 00 2F 87 0B 00 
   542)      7795.3  Rx         0210  7  FF FF 30 68 90 00 AC 
   543)      7795.6  Rx         04B0  8  27 10 27 10 27 10 27 10 
   544)      7809.4  Rx         0210  7  FF FF 30 68 90 00 AD 
   545)      7809.6  Rx         04B0  8  27 10 27 10 27 10 27 10 
   546)      7823.4  Rx         0210  7  FF FF 30 68 90 00 AE 
   547)      7823.6  Rx         04B0  8  27 10 27 10 27 10 27 10 
   548)      7837.3  Rx         0210  7  FF FF 30 68 90 00 AF 
   549)      7837.6  Rx         04B0  8  27 10 27 10 27 10 27 10 
   550)      7851.4  Rx         0210  7  FF FF 30 68 90 00 B0 
   551)      7851.6  Rx         04B0  8  27 10 27 10 27 10 27 10 
   552)      7863.2  Rx         0460  8  03 E0 00 00 C0 00 00 00 
   553)      7865.4  Rx         0210  7  FF FF 30 68 90 00 B1 
   554)      7865.6  Rx         04B0  8  27 10 27 10 27 10 27 10 
   555)      7879.4  Rx         0210  7  FF FF 30 68 90 00 B2 
   556)      7879.6  Rx         04B0  8  27 10 27 10 27 10 27 10 
   557)      7883.7  Rx         0310  3  00 00 00 
   558)      7883.9  Rx         0264  8  00 00 00 00 00 00 00 00 
   559)      7893.4  Rx         0210  7  FF FF 30 68 90 00 B3 
   560)      7893.7  Rx         04B0  8  27 10 27 10 27 10 27 10 
   561)      7907.4  Rx         0210  7  FF FF 30 68 90 00 B4 
   562)      7907.6  Rx         04B0  8  27 10 27 10 27 10 27 10 
   563)      7921.4  Rx         0210  7  FF FF 30 68 90 00 B5 
   564)      7921.7  Rx         04B0  8  27 10 27 10 27 10 27 10 
   565)      7935.4  Rx         0210  7  FF FF 30 68 90 00 B6 
   566)      7935.7  Rx         04B0  8  27 10 27 10 27 10 27 10 
   567)      7949.5  Rx         0210  7  FF FF 30 68 90 00 B7 
   568)      7949.7  Rx         04B0  8  27 10 27 10 27 10 27 10 
   569)      7963.0  Rx         0023  1  40 
   570)      7963.3  Rx         0460  8  03 E0 00 00 C0 00 00 00 
   571)      7963.5  Rx         0210  7  FF FF 30 68 90 00 B8 
   572)      7963.7  Rx         04B0  8  27 10 27 10 27 10 27 10 
   573)      7977.5  Rx         0210  7  FF FF 30 68 90 00 B9 
   574)      7977.7  Rx         04B0  8  27 10 27 10 27 10 27 10 
   575)      7983.7  Rx         0311  2  00 00 
   576)      7983.9  Rx         0263  6  00 00 2F 87 0C 00 
   577)      7991.5  Rx         0210  7  FF FF 30 68 90 00 BA 
   578)      7991.7  Rx         04B0  8  27 10 27 10 27 10 27 10 
   579)      8005.5  Rx         0210  7  FF FF 30 68 90 00 BB 
   580)      8005.7  Rx         04B0  8  27 10 27 10 27 10 27 10 
   581)      8019.5  Rx         0210  7  FF FF 30 68 90 00 BC 
   582)      8019.7  Rx         04B0  8  27 10 27 10 27 10 27 10 
   583)      8033.5  Rx         0210  7  FF FF 30 68 90 00 BD 
   584)      8033.7  Rx         04B0  8  27 10 27 10 27 10 27 10 
   585)      8047.5  Rx         0210  7  FF FF 30 68 90 00 BE 
   586)      8047.8  Rx         04B0  8  27 10 27 10 27 10 27 10 
   587)      8061.5  Rx         0210  7  FF FF 30 68 90 00 BF 
   588)      8061.8  Rx         04B0  8  27 10 27 10 27 10 27 10 
   589)      8062.9  Rx         0460  8  03 E0 00 00 C0 00 00 00 
   590)      8075.5  Rx         0210  7  FF FF 30 68 90 00 C0 
   591)      8075.8  Rx         04B0  8  27 10 27 10 27 10 27 10 
   592)      8083.8  Rx         0310  3  00 00 00 
   593)      8084.0  Rx         0264  8  00 00 00 00 00 00 00 00 
   594)      8089.5  Rx         0210  7  FF FF 30 68 90 00 C1 
   595)      8089.8  Rx         04B0  8  27 10 27 10 27 10 27 10 
   596)      8103.5  Rx         0210  7  FF FF 30 68 90 00 C2 
   597)      8103.8  Rx         04B0  8  27 10 27 10 27 10 27 10 
   598)      8117.6  Rx         0210  7  FF FF 30 68 90 00 C3 
   599)      8117.8  Rx         04B0  8  27 10 27 10 27 10 27 10 
   600)      8131.6  Rx         0210  7  FF FF 30 68 90 00 C4 
   601)      8131.8  Rx         04B0  8  27 10 27 10 27 10 27 10 
   602)      8145.6  Rx         0210  7  FF FF 30 68 90 00 C5 
   603)      8145.8  Rx         04B0  8  27 10 27 10 27 10 27 10 
   604)      8159.5  Rx         0210  7  FF FF 30 68 90 00 C6 
   605)      8159.8  Rx         04B0  8  27 10 27 10 27 10 27 10 
   606)      8162.5  Rx         0023  1  40 
   607)      8162.8  Rx         0460  8  03 E0 00 00 C0 00 00 00 
   608)      8173.6  Rx         0210  7  FF FF 30 68 90 00 C7 
   609)      8173.8  Rx         04B0  8  27 10 27 10 27 10 27 10 
   610)      8183.8  Rx         0311  2  00 00 
   611)      8184.0  Rx         0263  6  00 00 2F 87 0D 00 
   612)      8187.6  Rx         0210  7  FF FF 30 68 90 00 C8 
   613)      8187.8  Rx         04B0  8  27 10 27 10 27 10 27 10 
   614)      8201.6  Rx         0210  7  FF FF 30 68 90 00 C9 
   615)      8201.8  Rx         04B0  8  27 10 27 10 27 10 27 10 
   616)      8215.6  Rx         0210  7  FF FF 30 68 90 00 CA 
   617)      8215.8  Rx         04B0  8  27 10 27 10 27 10 27 10 
   618)      8229.6  Rx         0210  7  FF FF 30 68 90 00 CB 
   619)      8229.9  Rx         04B0  8  27 10 27 10 27 10 27 10 
   620)      8243.6  Rx         0210  7  FF FF 30 68 90 00 CC 
   621)      8243.9  Rx         04B0  8  27 10 27 10 27 10 27 10 
   622)      8257.6  Rx         0210  7  FF FF 30 68 90 00 CD 
   623)      8257.8  Rx         04B0  8  27 10 27 10 27 10 27 10 
   624)      8262.5  Rx         0460  8  03 E0 00 00 C0 00 00 00 
   625)      8268.1  Rx         0408  8  00 01 00 00 00 00 00 00 
   626)      8271.6  Rx         0210  7  FF FF 30 68 90 00 CE 
   627)      8271.9  Rx         04B0  8  27 10 27 10 27 10 27 10 
   628)      8283.8  Rx         0310  3  00 00 00 
   629)      8284.1  Rx         0264  8  00 00 00 00 00 00 00 00 
   630)      8285.6  Rx         0210  7  FF FF 30 68 90 00 CF 
   631)      8285.9  Rx         04B0  8  27 10 27 10 27 10 27 10 
   632)      8299.7  Rx         0210  7  FF FF 30 68 90 00 D0 
   633)      8299.9  Rx         04B0  8  27 10 27 10 27 10 27 10 
   634)      8313.7  Rx         0210  7  FF FF 30 68 90 00 D1 
   635)      8313.9  Rx         04B0  8  27 10 27 10 27 10 27 10 
   636)      8327.7  Rx         0210  7  FF FF 30 68 90 00 D2 
   637)      8327.9  Rx         04B0  8  27 10 27 10 27 10 27 10 
   638)      8341.6  Rx         0210  7  FF FF 30 68 90 00 D3 
   639)      8341.9  Rx         04B0  8  27 10 27 10 27 10 27 10 
   640)      8355.7  Rx         0210  7  FF FF 30 68 90 00 D4 
   641)      8355.9  Rx         04B0  8  27 10 27 10 27 10 27 10 
   642)      8362.1  Rx         0023  1  40 
   643)      8362.4  Rx         0460  8  03 E0 00 00 C0 00 00 00 
   644)      8369.7  Rx         0210  7  FF FF 30 68 90 00 D5 
   645)      8369.9  Rx         04B0  8  27 10 27 10 27 10 27 10 
   646)      8383.7  Rx         0210  7  FF FF 30 68 90 00 D6 
   647)      8383.9  Rx         04B0  8  27 10 27 10 27 10 27 10 
   648)      8384.1  Rx         0311  2  00 00 
   649)      8384.3  Rx         0263  6  00 00 2F 87 0E 00 
   650)      8397.7  Rx         0210  7  FF FF 30 68 90 00 D7 
   651)      8397.9  Rx         04B0  8  27 10 27 10 27 10 27 10 
   652)      8411.7  Rx         0210  7  FF FF 30 68 90 00 D8 
   653)      8412.0  Rx         04B0  8  27 10 27 10 27 10 27 10 
   654)      8425.7  Rx         0210  7  FF FF 30 68 90 00 D9 
   655)      8426.0  Rx         04B0  8  27 10 27 10 27 10 27 10 
   656)      8439.7  Rx         0210  7  FF FF 30 68 90 00 DA 
   657)      8439.9  Rx         04B0  8  27 10 27 10 27 10 27 10 
   658)      8453.7  Rx         0210  7  FF FF 30 68 90 00 DB 
   659)      8454.0  Rx         04B0  8  27 10 27 10 27 10 27 10 
   660)      8462.0  Rx         0460  8  03 E0 00 00 00 00 00 00 
   661)      8467.7  Rx         0210  7  FF FF 30 68 90 00 DC 
   662)      8468.0  Rx         04B0  8  27 10 27 10 27 10 27 10 
   663)      8481.8  Rx         0210  7  FF FF 30 68 90 00 DD 
   664)      8482.0  Rx         04B0  8  27 10 27 10 27 10 27 10 
   665)      8483.9  Rx         0310  3  00 00 00 
   666)      8484.1  Rx         0264  8  00 00 00 00 00 00 00 00 
   667)      8495.8  Rx         0210  7  FF FF 30 68 90 00 DE 
   668)      8496.0  Rx         04B0  8  27 10 27 10 27 10 27 10 
   669)      8509.7  Rx         0210  7  FF FF 30 68 90 00 DF 
   670)      8510.0  Rx         04B0  8  27 10 27 10 27 10 27 10 
   671)      8523.8  Rx         0210  7  FF FF 30 68 90 00 E0 
   672)      8524.0  Rx         04B0  8  27 10 27 10 27 10 27 10 
   673)      8537.8  Rx         0210  7  FF FF 30 20 90 00 E1 
   674)      8538.0  Rx         04B0  8  27 10 27 10 27 10 27 10 
   675)      8551.8  Rx         0210  7  FF FF 30 20 90 00 E2 
   676)      8552.0  Rx         04B0  8  27 10 27 10 27 10 27 10 
   677)      8561.7  Rx         0023  1  40 
   678)      8562.1  Rx         0460  8  03 E0 00 00 00 00 00 00 
   679)      8565.8  Rx         0210  7  FF FF 30 20 90 00 E3 
   680)      8566.0  Rx         04B0  8  27 10 27 10 27 10 27 10 
   681)      8579.8  Rx         0210  7  FF FF 30 20 90 00 E4 
   682)      8580.0  Rx         04B0  8  27 10 27 10 27 10 27 10 
   683)      8583.9  Rx         0311  2  00 00 
   684)      8584.1  Rx         0263  6  00 00 2F 87 0F 00 
   685)      8593.8  Rx         0210  7  FF FF 30 20 90 00 E5 
   686)      8594.0  Rx         04B0  8  27 10 27 10 27 10 27 10 
   687)      8607.8  Rx         0210  7  FF FF 30 20 90 00 E6 
   688)      8608.1  Rx         04B0  8  27 10 27 10 27 10 27 10 
   689)      8621.8  Rx         0210  7  FF FF 30 20 90 00 E7 
   690)      8622.0  Rx         04B0  8  27 10 27 10 27 10 27 10 
   691)      8635.8  Rx         0210  7  FF FF 30 20 90 00 E8 
   692)      8636.0  Rx         04B0  8  27 10 27 10 27 10 27 10 
   693)      8649.8  Rx         0210  7  FF FF 30 20 90 00 E9 
   694)      8650.1  Rx         04B0  8  27 10 27 10 27 10 27 10 
   695)      8661.6  Rx         0460  8  03 E0 00 00 00 00 00 00 
   696)      8663.8  Rx         0210  7  FF FF 30 20 90 00 EA 
   697)      8664.1  Rx         04B0  8  27 10 27 10 27 10 27 10 
   698)      8677.9  Rx         0210  7  FF FF 30 20 90 00 EB 
   699)      8678.1  Rx         04B0  8  27 10 27 10 27 10 27 10 
   700)      8684.0  Rx         0310  3  00 00 00 
   701)      8684.2  Rx         0264  8  00 00 00 00 00 00 00 00 
   702)      8691.8  Rx         0210  7  FF FF 30 20 90 00 EC 
   703)      8692.1  Rx         04B0  8  27 10 27 10 27 10 27 10 
   704)      8705.9  Rx         0210  7  FF FF 30 20 90 00 ED 
   705)      8706.1  Rx         04B0  8  27 10 27 10 27 10 27 10 
   706)      8719.9  Rx         0210  7  FF FF 30 20 90 00 EE 
   707)      8720.1  Rx         04B0  8  27 10 27 10 27 10 27 10 
   708)      8733.9  Rx         0210  7  FF FF 30 20 90 00 EF 
   709)      8734.1  Rx         04B0  8  27 10 27 10 27 10 27 10 
   710)      8747.9  Rx         0210  7  FF FF 30 20 90 00 F0 
   711)      8748.1  Rx         04B0  8  27 10 27 10 27 10 27 10 
   712)      8761.3  Rx         0023  1  40 
   713)      8761.6  Rx         0460  8  03 E0 00 00 00 00 00 00 
   714)      8761.9  Rx         0210  7  FF FF 30 20 90 00 F1 
   715)      8762.1  Rx         04B0  8  27 10 27 10 27 10 27 10 
   716)      8767.8  Rx         0408  8  00 01 00 00 00 00 00 00 
   717)      8775.9  Rx         0210  7  FF FF 30 20 90 00 F2 
   718)      8776.1  Rx         04B0  8  27 10 27 10 27 10 27 10 
   719)      8784.0  Rx         0311  2  00 00 
   720)      8784.2  Rx         0263  6  00 00 2F 87 10 00 
   721)      8789.9  Rx         0210  7  FF FF 30 20 90 00 F3 
   722)      8790.2  Rx         04B0  8  27 10 27 10 27 10 27 10 
   723)      8803.9  Rx         0210  7  FF FF 30 20 90 00 F4 
   724)      8804.1  Rx         04B0  8  27 10 27 10 27 10 27 10 
   725)      8817.9  Rx         0210  7  FF FF 30 20 90 00 F5 
   726)      8818.1  Rx         04B0  8  27 10 27 10 27 10 27 10 
   727)      8831.9  Rx         0210  7  FF FF 30 20 90 00 F6 
   728)      8832.2  Rx         04B0  8  27 10 27 10 27 10 27 10 
   729)      8846.0  Rx         0210  7  FF FF 30 20 90 00 F7 
   730)      8846.2  Rx         04B0  8  27 10 27 10 27 10 27 10 
   731)      8860.0  Rx         0210  7  FF FF 30 20 90 00 F8 
   732)      8860.2  Rx         04B0  8  27 10 27 10 27 10 27 10 
   733)      8861.2  Rx         0460  8  03 E0 00 00 00 00 00 00 
   734)      8873.9  Rx         0210  7  FF FF 30 20 90 00 F9 
   735)      8874.2  Rx         04B0  8  27 10 27 10 27 10 27 10 
   736)      8884.0  Rx         0310  3  00 00 00 
   737)      8884.3  Rx         0264  8  00 00 00 00 00 00 00 00 
   738)      8888.0  Rx         0210  7  FF FF 30 20 90 00 FA 
   739)      8888.2  Rx         04B0  8  27 10 27 10 27 10 27 10 
   740)      8902.0  Rx         0210  7  FF FF 30 20 90 00 FB 
   741)      8902.2  Rx         04B0  8  27 10 27 10 27 10 27 10 
   742)      8916.0  Rx         0210  7  FF FF 30 20 90 00 FC 
   743)      8916.2  Rx         04B0  8  27 10 27 10 27 10 27 10 
   744)      8930.0  Rx         0210  7  FF FF 30 20 90 00 FD 
   745)      8930.2  Rx         04B0  8  27 10 27 10 27 10 27 10 
   746)      8944.0  Rx         0210  7  FF FF 30 20 90 00 FE 
   747)      8944.2  Rx         04B0  8  27 10 27 10 27 10 27 10 
   748)      8958.0  Rx         0210  7  FF FF 30 20 90 00 FF 
   749)      8958.3  Rx         04B0  8  27 10 27 10 27 10 27 10 
   750)      8961.0  Rx         0023  1  40 
   751)      8961.3  Rx         0460  8  03 E0 00 00 00 00 00 00 
   752)      8972.1  Rx         0210  7  FF FF 30 20 90 00 00 
   753)      8972.3  Rx         04B0  8  27 10 27 10 27 10 27 10 
   754)      8984.0  Rx         0311  2  00 00 
   755)      8984.3  Rx         0263  6  00 00 2F 87 11 00 
   756)      8986.0  Rx         0210  7  FF FF 30 20 90 00 01 
   757)      8986.3  Rx         04B0  8  27 10 27 10 27 10 27 10 
   758)      9000.0  Rx         0210  7  FF FF 30 20 90 00 02 
   759)      9000.3  Rx         04B0  8  27 10 27 10 27 10 27 10 
   760)      9014.0  Rx         0210  7  FF FF 30 20 90 00 03 
   761)      9014.3  Rx         04B0  8  27 10 27 10 27 10 27 10 
   762)      9028.1  Rx         0210  7  FF FF 30 20 90 00 04 
   763)      9028.3  Rx         04B0  8  27 10 27 10 27 10 27 10 
   764)      9042.1  Rx         0210  7  FF FF 30 20 90 00 05 
   765)      9042.3  Rx         04B0  8  27 10 27 10 27 10 27 10 
   766)      9056.1  Rx         0210  7  FF FF 30 20 90 00 06 
   767)      9056.3  Rx         04B0  8  27 10 27 10 27 10 27 10 
   768)      9060.8  Rx         0460  8  03 E0 00 00 00 00 00 00 
   769)      9070.1  Rx         0210  7  FF FF 30 20 90 00 07 
   770)      9070.3  Rx         04B0  8  27 10 27 10 27 10 27 10 
   771)      9084.1  Rx         0210  7  FF FF 30 20 90 00 08 
   772)      9084.3  Rx         0310  3  00 00 00 
   773)      9084.5  Rx         0264  8  00 00 00 00 00 00 00 00 
   774)      9084.7  Rx         04B0  8  27 10 27 10 27 10 27 10 
   775)      9098.1  Rx         0210  7  FF FF 30 20 90 00 09 
   776)      9098.3  Rx         04B0  8  27 10 27 10 27 10 27 10 
   777)      9112.1  Rx         0210  7  FF FF 30 20 90 00 0A 
   778)      9112.3  Rx         04B0  8  27 10 27 10 27 10 27 10 
   779)      9126.0  Rx         0301  8  00 00 00 00 03 02 00 00 
   780)      9126.3  Rx         0210  7  FF FF 30 20 90 00 0B 
   781)      9126.5  Rx         04B0  8  27 10 27 10 27 10 27 10 
   782)      9140.1  Rx         0210  7  FF FF 30 20 90 00 0C 
   783)      9140.4  Rx         04B0  8  27 10 27 10 27 10 27 10 
   784)      9154.1  Rx         0210  7  FF FF 30 20 90 00 0D 
   785)      9154.4  Rx         04B0  8  27 10 27 10 27 10 27 10 
   786)      9160.5  Rx         0023  1  40 
   787)      9160.8  Rx         0460  8  03 E0 00 00 00 00 00 00 
   788)      9166.5  Rx         0302  8  01 00 00 00 00 00 00 00 
   789)      9168.1  Rx         0210  7  FF FF 30 20 90 00 0E 
   790)      9168.4  Rx         04B0  8  27 10 27 10 27 10 27 10 
   791)      9182.1  Rx         0210  7  FF FF 30 20 90 00 0F 
   792)      9182.4  Rx         04B0  8  27 10 27 10 27 10 27 10 
   793)      9184.1  Rx         0311  2  00 00 
   794)      9184.4  Rx         0263  6  00 00 2F 87 12 00 
   795)      9196.2  Rx         0210  7  FF FF 30 20 90 00 10 
   796)      9196.4  Rx         04B0  8  27 10 27 10 27 10 27 10 
   797)      9206.6  Rx         0303  8  00 00 00 00 00 00 01 00 
   798)      9210.2  Rx         0210  7  FF FF 30 20 90 00 11 
   799)      9210.4  Rx         04B0  8  27 10 27 10 27 10 27 10 
   800)      9224.2  Rx         0210  7  FF FF 30 20 90 00 12 
   801)      9224.4  Rx         04B0  8  27 10 27 10 27 10 27 10 
   802)      9238.2  Rx         0210  7  FF FF 30 20 90 00 13 
   803)      9238.4  Rx         04B0  8  27 10 27 10 27 10 27 10 
   804)      9246.5  Rx         0304  8  00 00 02 00 00 55 00 49 
   805)      9252.2  Rx         0210  7  FF FF 30 20 90 00 14 
   806)      9252.4  Rx         04B0  8  27 10 27 10 27 10 27 10 
   807)      9260.3  Rx         0460  8  03 E0 00 00 00 00 00 00 
   808)      9266.2  Rx         0210  7  FF FF 30 20 90 00 15 
   809)      9266.4  Rx         04B0  8  27 10 27 10 27 10 27 10 
   810)      9267.2  Rx         0408  8  00 01 00 00 00 00 00 00 
   811)      9280.2  Rx         0210  7  FF FF 30 20 90 00 16 
   812)      9280.4  Rx         04B0  8  27 10 27 10 27 10 27 10 
   813)      9284.2  Rx         0310  3  00 00 00 
   814)      9284.4  Rx         0264  8  00 00 00 00 00 00 00 00 
   815)      9286.8  Rx         0305  8  00 00 00 00 00 04 58 00 
   816)      9294.2  Rx         0210  7  FF FF 30 20 90 00 17 
   817)      9294.4  Rx         04B0  8  27 10 27 10 27 10 27 10 
   818)      9308.2  Rx         0210  7  FF FF 30 20 90 00 18 
   819)      9308.4  Rx         04B0  8  27 10 27 10 27 10 27 10 
   820)      9322.2  Rx         0210  7  FF FF 30 20 90 00 19 
   821)      9322.5  Rx         04B0  8  27 10 27 10 27 10 27 10 
   822)      9326.4  Rx         0301  8  00 00 00 00 03 02 00 00 
   823)      9336.3  Rx         0210  7  FF FF 30 20 90 00 1A 
   824)      9336.5  Rx         04B0  8  27 10 27 10 27 10 27 10 
   825)      9350.2  Rx         0210  7  FF FF 30 20 90 00 1B 
   826)      9350.5  Rx         04B0  8  27 10 27 10 27 10 27 10 
   827)      9360.0  Rx         0023  1  40 
   828)      9360.3  Rx         0460  8  03 E0 00 00 00 00 00 00 
   829)      9364.2  Rx         0210  7  FF FF 30 20 90 00 1C 
   830)      9364.5  Rx         04B0  8  27 10 27 10 27 10 27 10 
   831)      9366.8  Rx         0302  8  01 00 00 00 00 00 00 00 
   832)      9378.2  Rx         0210  7  FF FF 30 20 90 00 1D 
   833)      9378.5  Rx         04B0  8  27 10 27 10 27 10 27 10 
   834)      9384.2  Rx         0311  2  00 00 
   835)      9384.4  Rx         0263  6  00 00 2F 87 13 00 
   836)      9392.3  Rx         0210  7  FF FF 30 20 90 00 1E 
   837)      9392.5  Rx         04B0  8  27 10 27 10 27 10 27 10 
   838)      9406.3  Rx         0210  7  FF FF 30 20 90 00 1F 
   839)      9406.5  Rx         04B0  8  27 10 27 10 27 10 27 10 
   840)      9406.9  Rx         0303  8  00 00 00 00 00 00 01 00 
   841)      9420.3  Rx         0210  7  FF FF 30 20 90 00 20 
   842)      9420.5  Rx         04B0  8  27 10 27 10 27 10 27 10 
   843)      9434.3  Rx         0210  7  FF FF 30 20 90 00 21 
   844)      9434.5  Rx         04B0  8  27 10 27 10 27 10 27 10 
   845)      9446.7  Rx         0304  8  00 00 02 00 00 55 00 49 
   846)      9448.3  Rx         0210  7  FF FF 30 20 90 00 22 
   847)      9448.5  Rx         04B0  8  27 10 27 10 27 10 27 10 
   848)      9459.9  Rx         0460  8  03 E0 00 00 00 00 00 00 
   849)      9462.3  Rx         0210  7  FF FF 30 20 90 00 23 
   850)      9462.5  Rx         04B0  8  27 10 27 10 27 10 27 10 
   851)      9476.3  Rx         0210  7  FF FF 30 20 90 00 24 
   852)      9476.5  Rx         04B0  8  27 10 27 10 27 10 27 10 
   853)      9484.3  Rx         0310  3  00 00 00 
   854)      9484.5  Rx         0264  8  00 00 00 00 00 00 00 00 
   855)      9487.2  Rx         0305  8  00 00 00 00 00 04 58 00 
   856)      9490.3  Rx         0210  7  FF FF 30 20 90 00 25 
   857)      9490.5  Rx         04B0  8  27 10 27 10 27 10 27 10 
   858)      9504.3  Rx         0210  7  FF FF 30 20 90 00 26 
   859)      9504.6  Rx         04B0  8  27 10 27 10 27 10 27 10 
   860)      9518.3  Rx         0210  7  FF FF 30 20 90 00 27 
   861)      9518.6  Rx         04B0  8  27 10 27 10 27 10 27 10 
   862)      9526.5  Rx         0301  8  00 00 00 00 03 02 00 00 
   863)      9532.3  Rx         0210  7  FF FF 30 20 90 00 28 
   864)      9532.6  Rx         04B0  8  27 10 27 10 27 10 27 10 
   865)      9546.3  Rx         0210  7  FF FF 30 20 90 00 29 
   866)      9546.6  Rx         04B0  8  27 10 27 10 27 10 27 10 
   867)      9559.6  Rx         0023  1  40 
   868)      9559.9  Rx         0460  8  03 E0 00 00 00 00 00 00 
   869)      9560.3  Rx         0210  7  FF FF 30 20 90 00 2A 
   870)      9560.6  Rx         04B0  8  27 10 27 10 27 10 27 10 
   871)      9566.8  Rx         0302  8  01 00 00 00 00 00 00 00 
   872)      9574.4  Rx         0210  7  FF FF 30 20 90 00 2B 
   873)      9574.6  Rx         04B0  8  27 10 27 10 27 10 27 10 
   874)      9584.3  Rx         0311  2  00 00 
   875)      9584.4  Rx         0263  6  00 00 2F 87 14 00 
   876)      9588.4  Rx         0210  7  FF FF 30 20 90 00 2C 
   877)      9588.6  Rx         04B0  8  27 10 27 10 27 10 27 10 
   878)      9602.4  Rx         0210  7  FF FF 30 20 90 00 2D 
   879)      9602.6  Rx         04B0  8  27 10 27 10 27 10 27 10 
   880)      9607.0  Rx         0303  8  00 00 00 00 00 00 01 00 
   881)      9616.4  Rx         0210  7  FF FF 30 20 90 00 2E 
   882)      9616.6  Rx         04B0  8  27 10 27 10 27 10 27 10 
   883)      9630.4  Rx         0210  7  FF FF 30 20 90 00 2F 
   884)      9630.6  Rx         04B0  8  27 10 27 10 27 10 27 10 
   885)      9644.4  Rx         0210  7  FF FF 30 20 90 00 30 
   886)      9644.6  Rx         04B0  8  27 10 27 10 27 10 27 10 
   887)      9646.8  Rx         0304  8  00 00 02 00 00 55 00 49 
   888)      9658.4  Rx         0210  7  FF FF 30 20 90 00 31 
   889)      9658.6  Rx         04B0  8  27 10 27 10 27 10 27 10 
   890)      9659.6  Rx         0460  8  03 E0 00 00 00 00 00 00 
   891)      9672.4  Rx         0210  7  FF FF 30 20 90 00 32 
   892)      9672.7  Rx         04B0  8  27 10 27 10 27 10 27 10 
   893)      9684.4  Rx         0310  3  00 00 00 
   894)      9684.6  Rx         0264  8  00 00 00 00 00 00 00 00 
   895)      9686.4  Rx         0210  7  FF FF 30 20 90 00 33 
   896)      9686.7  Rx         04B0  8  27 10 27 10 27 10 27 10 
   897)      9687.2  Rx         0305  8  00 00 00 00 00 04 58 00 
   898)      9700.4  Rx         0210  7  FF FF 30 20 90 00 34 
   899)      9700.7  Rx         04B0  8  27 10 27 10 27 10 27 10 
   900)      9714.4  Rx         0210  7  FF FF 30 20 90 00 35 
   901)      9714.7  Rx         04B0  8  27 10 27 10 27 10 27 10 
   902)      9726.6  Rx         0301  8  00 00 00 01 03 02 00 00 
   903)      9728.4  Rx         0210  7  FF FF 30 20 90 00 36 
   904)      9728.7  Rx         04B0  8  27 10 27 10 27 10 27 10 
   905)      9742.5  Rx         0210  7  FF FF 30 20 90 00 37 
   906)      9742.7  Rx         04B0  8  27 10 27 10 27 10 27 10 
   907)      9756.5  Rx         0210  7  FF FF 30 20 90 00 38 
   908)      9756.7  Rx         04B0  8  27 10 27 10 27 10 27 10 
   909)      9759.2  Rx         0023  1  40 
   910)      9759.4  Rx         0460  8  03 E0 00 00 00 00 00 00 
   911)      9766.6  Rx         0408  8  00 01 00 00 00 00 00 00 
   912)      9767.0  Rx         0302  8  01 00 00 00 00 00 00 00 
   913)      9770.5  Rx         0210  7  FF FF 30 20 90 00 39 
   914)      9770.7  Rx         04B0  8  27 10 27 10 27 10 27 10 
   915)      9784.5  Rx         0210  7  FF FF 30 20 90 00 3A 
   916)      9784.6  Rx         0311  2  00 00 
   917)      9784.8  Rx         0263  6  00 00 2F 87 15 00 
   918)      9785.1  Rx         04B0  8  27 10 27 10 27 10 27 10 
   919)      9798.5  Rx         0210  7  FF FF 30 20 90 00 3B 
   920)      9798.7  Rx         04B0  8  27 10 27 10 27 10 27 10 
   921)      9807.3  Rx         0303  8  00 00 00 00 00 00 01 00 
   922)      9812.5  Rx         0210  7  FF FF 30 20 90 00 3C 
   923)      9812.7  Rx         04B0  8  27 10 27 10 27 10 27 10 
   924)      9826.5  Rx         0210  7  FF FF 30 20 90 00 3D 
   925)      9826.7  Rx         04B0  8  27 10 27 10 27 10 27 10 
   926)      9840.5  Rx         0210  7  FF FF 30 20 90 00 3E 
   927)      9840.7  Rx         04B0  8  27 10 27 10 27 10 27 10 
   928)      9846.9  Rx         0304  8  00 00 02 00 00 55 00 49 
   929)      9854.5  Rx         0210  7  FF FF 30 20 90 00 3F 
   930)      9854.7  Rx         04B0  8  27 10 27 10 27 10 27 10 
   931)      9858.9  Rx         0460  8  03 E0 00 00 00 00 00 00 
   932)      9868.5  Rx         0210  7  FF FF 30 20 90 00 40 
   933)      9868.8  Rx         04B0  8  27 10 27 10 27 10 27 10 
   934)      9882.5  Rx         0210  7  FF FF 30 20 90 00 41 
   935)      9882.8  Rx         04B0  8  27 10 27 10 27 10 27 10 
   936)      9884.5  Rx         0310  3  00 00 00 
   937)      9884.7  Rx         0264  8  00 00 00 00 00 00 00 00 
   938)      9887.4  Rx         0305  8  00 00 00 00 00 04 58 00 
   939)      9896.6  Rx         0210  7  FF FF 30 20 90 00 42 
   940)      9896.8  Rx         04B0  8  27 10 27 10 27 10 27 10 
   941)      9910.6  Rx         0210  7  FF FF 30 20 90 00 43 
   942)      9910.8  Rx         04B0  8  27 10 27 10 27 10 27 10 
   943)      9924.6  Rx         0210  7  FF FF 30 20 90 00 44 
   944)      9924.8  Rx         04B0  8  27 10 27 10 27 10 27 10 
   945)      9927.0  Rx         0301  8  00 00 00 00 03 02 00 00 
   946)      9938.6  Rx         0210  7  FF FF 30 20 90 00 45 
   947)      9938.8  Rx         04B0  8  27 10 27 10 27 10 27 10 
   948)      9952.6  Rx         0210  7  FF FF 30 20 90 00 46 
   949)      9952.8  Rx         04B0  8  27 10 27 10 27 10 27 10 
   950)      9958.7  Rx         0023  1  40 
   951)      9959.1  Rx         0460  8  03 E0 00 00 00 00 00 00 
   952)      9966.6  Rx         0210  7  FF FF 30 20 90 00 47 
   953)      9966.8  Rx         04B0  8  27 10 27 10 27 10 27 10 
   954)      9967.2  Rx         0302  8  01 00 00 00 00 00 00 00 
   955)      9980.6  Rx         0210  7  FF FF 30 20 90 00 48 
   956)      9980.8  Rx         04B0  8  27 10 27 10 27 10 27 10 
   957)      9984.5  Rx         0311  2  00 00 
   958)      9984.7  Rx         0263  6  00 00 2F 87 16 00 
   959)      9994.6  Rx         0210  7  FF FF 30 20 90 00 49 
   960)      9994.9  Rx         04B0  8  27 10 27 10 27 10 27 10 
   961)     10007.4  Rx         0303  8  00 00 00 00 00 00 01 00 
   962)     10008.6  Rx         0210  7  FF FF 30 20 90 00 4A 
   963)     10008.9  Rx         04B0  8  27 10 27 10 27 10 27 10 
   964)     10022.6  Rx         0210  7  FF FF 30 20 90 00 4B 
   965)     10022.9  Rx         04B0  8  27 10 27 10 27 10 27 10 
   966)     10036.6  Rx         0210  7  FF FF 30 20 90 00 4C 
   967)     10036.9  Rx         04B0  8  27 10 27 10 27 10 27 10 
   968)     10047.3  Rx         0304  8  00 00 02 00 00 55 00 49 
   969)     10050.6  Rx         0210  7  FF FF 30 20 90 00 4D 
   970)     10050.9  Rx         04B0  8  27 10 27 10 27 10 27 10 
   971)     10058.7  Rx         0460  8  03 E0 00 00 00 00 00 00 
   972)     10064.7  Rx         0210  7  FF FF 30 20 90 00 4E 
   973)     10064.9  Rx         04B0  8  27 10 27 10 27 10 27 10 
   974)     10078.7  Rx         0210  7  FF FF 30 20 90 00 4F 
   975)     10078.9  Rx         04B0  8  27 10 27 10 27 10 27 10 
   976)     10084.5  Rx         0310  3  00 00 00 
   977)     10084.8  Rx         0264  8  00 00 00 00 00 00 00 00 
   978)     10087.6  Rx         0305  8  00 00 00 00 00 04 58 00 
   979)     10092.7  Rx         0210  7  FF FF 30 20 90 00 50 
   980)     10092.9  Rx         04B0  8  27 10 27 10 27 10 27 10 
   981)     10106.7  Rx         0210  7  FF FF 30 20 90 00 51 
   982)     10106.9  Rx         04B0  8  27 10 27 10 27 10 27 10 
   983)     10107.2  Rx         0300  8  03 0B 0E 4D 44 02 01 00 
   984)     10107.5  Rx         0306  8  00 00 00 00 00 00 00 00 
   985)     10120.7  Rx         0210  7  FF FF 30 20 90 00 52 
   986)     10120.9  Rx         04B0  8  27 10 27 10 27 10 27 10 
   987)     10127.1  Rx         0301  8  00 00 00 00 03 02 00 00 
   988)     10134.7  Rx         0210  7  FF FF 30 20 90 00 53 
   989)     10134.9  Rx         04B0  8  27 10 27 10 27 10 27 10 
   990)     10148.7  Rx         0210  7  FF FF 30 20 90 00 54 
   991)     10148.9  Rx         04B0  8  27 10 27 10 27 10 27 10 
   992)     10158.5  Rx         0023  1  40 
   993)     10158.8  Rx         0460  8  03 E0 00 00 00 00 00 00 
   994)     10162.7  Rx         0210  7  FF FF 30 20 90 00 55 
   995)     10162.9  Rx         04B0  8  27 10 27 10 27 10 27 10 
   996)     10167.3  Rx         0302  8  01 00 00 00 00 00 00 00 
   997)     10176.7  Rx         0210  7  FF FF 30 20 90 00 56 
   998)     10177.0  Rx         04B0  8  27 10 27 10 27 10 27 10 
   999)     10184.6  Rx         0311  2  00 00 
  1000)     10184.8  Rx         0263  6  00 00 2F 87 17 00 
  1001)     10190.8  Rx         0210  7  FF FF 30 20 90 00 57 
  1002)     10191.0  Rx         04B0  8  27 10 27 10 27 10 27 10 
  1003)     10204.7  Rx         0210  7  FF FF 30 20 90 00 58 
  1004)     10205.0  Rx         04B0  8  27 10 27 10 27 10 27 10 
  1005)     10207.6  Rx         0303  8  00 00 00 00 00 00 01 00 
  1006)     10218.7  Rx         0210  7  FF FF 30 20 90 00 59 
  1007)     10219.0  Rx         04B0  8  27 10 27 10 27 10 27 10 
  1008)     10232.7  Rx         0210  7  FF FF 30 20 90 00 5A 
  1009)     10233.0  Rx         04B0  8  27 10 27 10 27 10 27 10 
  1010)     10246.8  Rx         0210  7  FF FF 30 20 90 00 5B 
  1011)     10247.0  Rx         04B0  8  27 10 27 10 27 10 27 10 
  1012)     10247.5  Rx         0304  8  00 00 02 00 00 55 00 49 
  1013)     10258.3  Rx         0460  8  03 E0 00 00 00 00 00 00 
  1014)     10260.8  Rx         0210  7  FF FF 30 20 90 00 5C 
  1015)     10261.0  Rx         04B0  8  27 10 27 10 27 10 27 10 
  1016)     10266.3  Rx         0408  8  00 01 00 00 00 00 00 00 
  1017)     10274.8  Rx         0210  7  FF FF 30 20 90 00 5D 
  1018)     10275.0  Rx         04B0  8  27 10 27 10 27 10 27 10 
  1019)     10284.6  Rx         0310  3  00 00 00 
  1020)     10284.8  Rx         0264  8  00 00 00 00 00 00 00 00 
  1021)     10287.9  Rx         0305  8  00 00 00 00 00 04 58 00 
  1022)     10288.8  Rx         0210  7  FF FF 30 20 90 00 5E 
  1023)     10289.0  Rx         04B0  8  27 10 27 10 27 10 27 10 
  1024)     10302.8  Rx         0210  7  FF FF 30 20 90 00 5F 
  1025)     10303.1  Rx         04B0  8  27 10 27 10 27 10 27 10 
  1026)     10316.8  Rx         0210  7  FF FF 30 20 90 00 60 
  1027)     10317.0  Rx         04B0  8  27 10 27 10 27 10 27 10 
  1028)     10327.3  Rx         0301  8  00 00 00 01 03 02 00 00 
  1029)     10330.8  Rx         0210  7  FF FF 30 20 90 00 61 
  1030)     10331.0  Rx         04B0  8  27 10 27 10 27 10 27 10 
  1031)     10344.8  Rx         0210  7  FF FF 30 20 90 00 62 
  1032)     10345.0  Rx         04B0  8  27 10 27 10 27 10 27 10 
  1033)     10358.0  Rx         0023  1  40 
  1034)     10358.2  Rx         0460  8  03 E0 00 00 00 00 00 00 
  1035)     10358.8  Rx         0210  7  FF FF 30 20 90 00 63 
  1036)     10359.1  Rx         04B0  8  27 10 27 10 27 10 27 10 
  1037)     10367.6  Rx         0302  8  01 00 00 00 00 00 00 00 
  1038)     10372.9  Rx         0210  7  FF FF 30 20 90 00 64 
  1039)     10373.1  Rx         04B0  8  27 10 27 10 27 10 27 10 
  1040)     10384.6  Rx         0311  2  00 00 
  1041)     10384.8  Rx         0263  6  00 00 2F 87 18 00 
  1042)     10386.8  Rx         0210  7  FF FF 30 20 90 00 65 
  1043)     10387.1  Rx         04B0  8  27 10 27 10 27 10 27 10 
  1044)     10400.8  Rx         0210  7  FF FF 30 20 90 00 66 
  1045)     10401.1  Rx         04B0  8  27 10 27 10 27 10 27 10 
  1046)     10407.8  Rx         0303  8  00 00 00 00 00 00 01 00 
  1047)     10414.9  Rx         0210  7  FF FF 30 20 90 00 67 
  1048)     10415.1  Rx         04B0  8  27 10 27 10 27 10 27 10 
  1049)     10428.9  Rx         0210  7  FF FF 30 20 90 00 68 
  1050)     10429.1  Rx         04B0  8  27 10 27 10 27 10 27 10 
  1051)     10442.9  Rx         0210  7  FF FF 30 20 90 00 69 
  1052)     10443.1  Rx         04B0  8  27 10 27 10 27 10 27 10 
  1053)     10447.6  Rx         0304  8  00 00 02 00 00 55 00 49 
  1054)     10456.9  Rx         0210  7  FF FF 30 20 90 00 6A 
  1055)     10457.1  Rx         04B0  8  27 10 27 10 27 10 27 10 
  1056)     10457.8  Rx         0460  8  03 E0 00 00 00 00 00 00 
  1057)     10470.9  Rx         0210  7  FF FF 30 20 90 00 6B 
  1058)     10471.1  Rx         04B0  8  27 10 27 10 27 10 27 10 
  1059)     10484.7  Rx         0310  3  00 00 00 
  1060)     10484.9  Rx         0210  7  FF FF 30 20 90 00 6C 
  1061)     10485.1  Rx         0264  8  00 00 00 00 00 00 00 00 
  1062)     10485.4  Rx         04B0  8  27 10 27 10 27 10 27 10 
  1063)     10488.0  Rx         0305  8  00 00 00 00 00 04 58 00 
  1064)     10498.9  Rx         0210  7  FF FF 30 20 90 00 6D 
  1065)     10499.1  Rx         04B0  8  27 10 27 10 27 10 27 10 
  1066)     10512.9  Rx         0210  7  FF FF 30 20 90 00 6E 
  1067)     10513.1  Rx         04B0  8  27 10 27 10 27 10 27 10 
  1068)     10526.9  Rx         0210  7  FF FF 30 20 90 00 6F 
  1069)     10527.1  Rx         04B0  8  27 10 27 10 27 10 27 10 
  1070)     10527.5  Rx         0301  8  00 00 00 00 03 02 00 00 
  1071)     10540.9  Rx         0210  7  FF FF 30 20 90 00 70 
  1072)     10541.2  Rx         04B0  8  27 10 27 10 27 10 27 10 
  1073)     10555.0  Rx         0210  7  FF FF 30 20 90 00 71 
  1074)     10555.2  Rx         04B0  8  27 10 27 10 27 10 27 10 
  1075)     10557.5  Rx         0023  1  40 
  1076)     10557.7  Rx         0460  8  03 E0 00 00 00 00 00 00 
  1077)     10567.8  Rx         0302  8  01 00 00 00 00 00 00 00 
  1078)     10568.9  Rx         0210  7  FF FF 30 20 90 00 72 
  1079)     10569.2  Rx         04B0  8  27 10 27 10 27 10 27 10 
  1080)     10582.9  Rx         0210  7  FF FF 30 20 90 00 73 
  1081)     10583.2  Rx         04B0  8  27 10 27 10 27 10 27 10 
  1082)     10584.7  Rx         0311  2  00 00 
  1083)     10584.9  Rx         0263  6  00 00 2F 87 19 00 
  1084)     10597.0  Rx         0210  7  FF FF 30 20 90 00 74 
  1085)     10597.2  Rx         04B0  8  27 10 27 10 27 10 27 10 
  1086)     10608.0  Rx         0303  8  00 00 00 00 00 00 01 00 
  1087)     10611.0  Rx         0210  7  FF FF 30 20 90 00 75 
  1088)     10611.2  Rx         04B0  8  27 10 27 10 27 10 27 10 
  1089)     10625.0  Rx         0210  7  FF FF 30 20 90 00 76 
  1090)     10625.2  Rx         04B0  8  27 10 27 10 27 10 27 10 
  1091)     10639.0  Rx         0210  7  FF FF 30 20 90 00 77 
  1092)     10639.2  Rx         04B0  8  27 10 27 10 27 10 27 10 
  1093)     10647.7  Rx         0304  8  00 00 02 00 00 55 00 49 
  1094)     10653.0  Rx         0210  7  FF FF 30 20 90 00 78 
  1095)     10653.2  Rx         04B0  8  27 10 27 10 27 10 27 10 
  1096)     10657.4  Rx         0460  8  03 E0 00 00 00 00 00 00 
  1097)     10667.0  Rx         0210  7  FF FF 30 20 90 00 79 
  1098)     10667.2  Rx         04B0  8  27 10 27 10 27 10 27 10 
  1099)     10681.0  Rx         0210  7  FF FF 30 20 90 00 7A 
  1100)     10681.2  Rx         04B0  8  27 10 27 10 27 10 27 10 
  1101)     10684.7  Rx         0310  3  00 00 00 
  1102)     10685.0  Rx         0264  8  00 00 00 00 00 00 00 00 
  1103)     10688.3  Rx         0305  8  00 00 00 00 00 04 58 00 
  1104)     10695.0  Rx         0210  7  FF FF 30 20 90 00 7B 
  1105)     10695.2  Rx         04B0  8  27 10 27 10 27 10 27 10 
  1106)     10709.0  Rx         0210  7  FF FF 30 20 90 00 7C 
  1107)     10709.3  Rx         04B0  8  27 10 27 10 27 10 27 10 
  1108)     10723.0  Rx         0210  7  FF FF 30 20 90 00 7D 
  1109)     10723.3  Rx         04B0  8  27 10 27 10 27 10 27 10 
  1110)     10727.7  Rx         0301  8  00 00 00 00 03 02 00 00 
  1111)     10737.0  Rx         0210  7  FF FF 30 20 90 00 7E 
  1112)     10737.3  Rx         04B0  8  27 10 27 10 27 10 27 10 
  1113)     10751.0  Rx         0210  7  FF FF 30 20 90 00 7F 
  1114)     10751.3  Rx         04B0  8  27 10 27 10 27 10 27 10 
  1115)     10757.1  Rx         0023  1  40 
  1116)     10757.3  Rx         0460  8  03 E0 00 00 00 00 00 00 
  1117)     10765.0  Rx         0210  7  FF FF 30 20 90 00 80 
  1118)     10765.3  Rx         04B0  8  27 10 27 10 27 10 27 10 
  1119)     10765.6  Rx         0408  8  00 01 00 00 00 00 00 00 
  1120)     10768.0  Rx         0302  8  01 00 00 00 00 00 00 00 
  1121)     10779.1  Rx         0210  7  FF FF 30 20 90 00 81 
  1122)     10779.3  Rx         04B0  8  27 10 27 10 27 10 27 10 
  1123)     10784.7  Rx         0311  2  00 00 
  1124)     10785.0  Rx         0263  6  00 00 2F 87 1A 00 
  1125)     10793.1  Rx         0210  7  FF FF 30 20 90 00 82 
  1126)     10793.3  Rx         04B0  8  27 10 27 10 27 10 27 10 
  1127)     10807.1  Rx         0210  7  FF FF 30 20 90 00 83 
  1128)     10807.3  Rx         04B0  8  27 10 27 10 27 10 27 10 
  1129)     10808.3  Rx         0303  8  00 00 00 00 00 00 01 00 
  1130)     10821.1  Rx         0210  7  FF FF 30 20 90 00 84 
  1131)     10821.3  Rx         04B0  8  27 10 27 10 27 10 27 10 
  1132)     10835.1  Rx         0210  7  FF FF 30 20 90 00 85 
  1133)     10835.3  Rx         04B0  8  27 10 27 10 27 10 27 10 
  1134)     10847.9  Rx         0304  8  00 00 02 00 00 55 00 49 
  1135)     10849.1  Rx         0210  7  FF FF 30 20 90 00 86 
  1136)     10849.3  Rx         04B0  8  27 10 27 10 27 10 27 10 
  1137)     10857.1  Rx         0460  8  03 E0 00 00 00 00 00 00 
  1138)     10863.1  Rx         0210  7  FF FF 30 20 90 00 87 
  1139)     10863.3  Rx         04B0  8  27 10 27 10 27 10 27 10 
  1140)     10877.1  Rx         0210  7  FF FF 30 20 90 00 88 
  1141)     10877.3  Rx         04B0  8  27 10 27 10 27 10 27 10 
  1142)     10884.8  Rx         0310  3  00 00 00 
  1143)     10885.0  Rx         0264  8  00 00 00 00 00 00 00 00 
  1144)     10888.5  Rx         0305  8  00 00 00 00 00 04 58 00 
  1145)     10891.1  Rx         0210  7  FF FF 30 20 90 00 89 
  1146)     10891.4  Rx         04B0  8  27 10 27 10 27 10 27 10 
  1147)     10905.1  Rx         0210  7  FF FF 30 20 90 00 8A 
  1148)     10905.4  Rx         04B0  8  27 10 27 10 27 10 27 10 
  1149)     10919.2  Rx         0210  7  FF FF 30 20 90 00 8B 
  1150)     10919.4  Rx         04B0  8  27 10 27 10 27 10 27 10 
  1151)     10927.9  Rx         0301  8  00 00 00 01 03 02 00 00 
  1152)     10933.2  Rx         0210  7  FF FF 30 20 90 00 8C 
  1153)     10933.4  Rx         04B0  8  27 10 27 10 27 10 27 10 
  1154)     10947.2  Rx         0210  7  FF FF 30 20 90 00 8D 
  1155)     10947.4  Rx         04B0  8  27 10 27 10 27 10 27 10 
  1156)     10956.7  Rx         0023  1  40 
  1157)     10956.9  Rx         0460  8  03 E0 00 00 00 00 00 00 
  1158)     10961.2  Rx         0210  7  FF FF 30 20 90 00 8E 
  1159)     10961.4  Rx         04B0  8  27 10 27 10 27 10 27 10 
  1160)     10968.2  Rx         0302  8  01 00 00 00 00 00 00 00 
  1161)     10975.2  Rx         0210  7  FF FF 30 20 90 00 8F 
  1162)     10975.4  Rx         04B0  8  27 10 27 10 27 10 27 10 
  1163)     10984.8  Rx         0311  2  00 00 
  1164)     10985.1  Rx         0263  6  00 00 2F 87 1B 00 
  1165)     10989.2  Rx         0210  7  FF FF 30 20 90 00 90 
  1166)     10989.4  Rx         04B0  8  27 10 27 10 27 10 27 10 
  1167)     11003.2  Rx         0210  7  FF FF 30 20 90 00 91 
  1168)     11003.4  Rx         04B0  8  27 10 27 10 27 10 27 10 
  1169)     11008.3  Rx         0303  8  00 00 00 00 00 00 01 00 
  1170)     11017.2  Rx         0210  7  FF FF 30 20 90 00 92 
  1171)     11017.4  Rx         04B0  8  27 10 27 10 27 10 27 10 
  1172)     11031.2  Rx         0210  7  FF FF 30 20 90 00 93 
  1173)     11031.5  Rx         04B0  8  27 10 27 10 27 10 27 10 
  1174)     11045.2  Rx         0210  7  FF FF 30 20 90 00 94 
  1175)     11045.5  Rx         04B0  8  27 10 27 10 27 10 27 10 
  1176)     11048.1  Rx         0304  8  00 00 02 00 00 55 00 49 
  1177)     11056.7  Rx         0460  8  03 E0 00 00 00 00 00 00 
  1178)     11059.2  Rx         0210  7  FF FF 30 20 90 00 95 
  1179)     11059.5  Rx         04B0  8  27 10 27 10 27 10 27 10 
  1180)     11073.2  Rx         0210  7  FF FF 30 20 90 00 96 
  1181)     11073.5  Rx         04B0  8  27 10 27 10 27 10 27 10 
  1182)     11084.9  Rx         0310  3  00 00 00 
  1183)     11085.1  Rx         0264  8  00 00 00 00 00 00 00 00 
  1184)     11087.2  Rx         0210  7  FF FF 30 20 90 00 97 
  1185)     11087.5  Rx         04B0  8  27 10 27 10 27 10 27 10 
  1186)     11088.7  Rx         0305  8  00 00 00 00 00 04 58 00 
  1187)     11101.3  Rx         0210  7  FF FF 30 20 90 00 98 
  1188)     11101.5  Rx         04B0  8  27 10 27 10 27 10 27 10 
  1189)     11107.8  Rx         0300  8  03 0B 0E 4D 44 02 01 00 
  1190)     11108.2  Rx         0306  8  00 00 00 00 00 00 00 00 
  1191)     11115.3  Rx         0210  7  FF FF 30 20 90 00 99 
  1192)     11115.5  Rx         04B0  8  27 10 27 10 27 10 27 10 
  1193)     11128.0  Rx         0301  8  00 00 00 01 03 02 00 00 
  1194)     11129.3  Rx         0210  7  FF FF 30 20 90 00 9A 
  1195)     11129.5  Rx         04B0  8  27 10 27 10 27 10 27 10 
  1196)     11143.3  Rx         0210  7  FF FF 30 20 90 00 9B 
  1197)     11143.5  Rx         04B0  8  27 10 27 10 27 10 27 10 
  1198)     11156.2  Rx         0023  1  40 
  1199)     11156.6  Rx         0460  8  03 E0 00 00 00 00 00 00 
  1200)     11157.3  Rx         0210  7  FF FF 30 20 90 00 9C 
  1201)     11157.5  Rx         04B0  8  27 10 27 10 27 10 27 10 
  1202)     11168.3  Rx         0302  8  01 00 00 00 00 00 00 00 
  1203)     11171.3  Rx         0210  7  FF FF 30 20 90 00 9D 
  1204)     11171.5  Rx         04B0  8  27 10 27 10 27 10 27 10 
  1205)     11184.9  Rx         0311  2  00 00 
  1206)     11185.1  Rx         0263  6  00 00 2F 87 1C 00 
  1207)     11185.3  Rx         0210  7  FF FF 30 20 90 00 9E 
  1208)     11185.5  Rx         04B0  8  27 10 27 10 27 10 27 10 
  1209)     11199.3  Rx         0210  7  FF FF 30 20 90 00 9F 
  1210)     11199.5  Rx         04B0  8  27 10 27 10 27 10 27 10 
  1211)     11208.5  Rx         0303  8  00 00 00 00 00 00 01 00 
  1212)     11213.3  Rx         0210  7  FF FF 30 20 90 00 A0 
  1213)     11213.6  Rx         04B0  8  27 10 27 10 27 10 27 10 
  1214)     11227.4  Rx         0210  7  FF FF 30 20 90 00 A1 
  1215)     11227.6  Rx         04B0  8  27 10 27 10 27 10 27 10 
  1216)     11241.3  Rx         0210  7  FF FF 30 20 90 00 A2 
  1217)     11241.6  Rx         04B0  8  27 10 27 10 27 10 27 10 
  1218)     11248.4  Rx         0304  8  00 00 02 00 00 55 00 49 
  1219)     11255.3  Rx         0210  7  FF FF 30 20 90 00 A3 
  1220)     11255.6  Rx         04B0  8  27 10 27 10 27 10 27 10 
  1221)     11256.1  Rx         0460  8  03 E0 00 00 00 00 00 00 
  1222)     11265.2  Rx         0408  8  00 01 00 00 00 00 00 00 
  1223)     11269.3  Rx         0210  7  FF FF 30 20 90 00 A4 
  1224)     11269.6  Rx         04B0  8  27 10 27 10 27 10 27 10 
  1225)     11283.4  Rx         0210  7  FF FF 30 20 90 00 A5 
  1226)     11283.6  Rx         04B0  8  27 10 27 10 27 10 27 10 
  1227)     11285.0  Rx         0310  3  00 00 00 
  1228)     11285.3  Rx         0264  8  00 00 00 00 00 00 00 00 
  1229)     11288.8  Rx         0305  8  00 00 00 00 00 04 58 00 
  1230)     11297.4  Rx         0210  7  FF FF 30 20 90 00 A6 
  1231)     11297.6  Rx         04B0  8  27 10 27 10 27 10 27 10 
  1232)     11311.4  Rx         0210  7  FF FF 30 20 90 00 A7 
  1233)     11311.6  Rx         04B0  8  27 10 27 10 27 10 27 10 
  1234)     11325.4  Rx         0210  7  FF FF 30 20 90 00 A8 
  1235)     11325.6  Rx         04B0  8  27 10 27 10 27 10 27 10 
  1236)     11328.2  Rx         0301  8  00 00 00 01 03 02 00 00 
  1237)     11339.4  Rx         0210  7  FF FF 30 20 90 00 A9 
  1238)     11339.7  Rx         04B0  8  27 10 27 10 27 10 27 10 
  1239)     11353.4  Rx         0210  7  FF FF 30 20 90 00 AA 
  1240)     11353.6  Rx         04B0  8  27 10 27 10 27 10 27 10 
  1241)     11355.8  Rx         0023  1  40 
  1242)     11356.1  Rx         0460  8  03 E0 00 00 00 00 00 00 
  1243)     11367.4  Rx         0210  7  FF FF 30 20 90 00 AB 
  1244)     11367.6  Rx         04B0  8  27 10 27 10 27 10 27 10 
  1245)     11368.7  Rx         0302  8  01 00 00 00 00 00 00 00 
  1246)     11381.4  Rx         0210  7  FF FF 30 20 90 00 AC 
  1247)     11381.6  Rx         04B0  8  27 10 27 10 27 10 27 10 
  1248)     11385.0  Rx         0311  2  00 00 
  1249)     11385.2  Rx         0263  6  00 00 2F 87 1D 00 
  1250)     11395.4  Rx         0210  7  FF FF 30 20 90 00 AD 
  1251)     11395.7  Rx         04B0  8  27 10 27 10 27 10 27 10 
  1252)     11408.8  Rx         0303  8  00 00 00 00 00 00 01 00 
  1253)     11409.5  Rx         0210  7  FF FF 30 20 90 00 AE 
  1254)     11409.7  Rx         04B0  8  27 10 27 10 27 10 27 10 
  1255)     11423.4  Rx         0210  7  FF FF 30 20 90 00 AF 
  1256)     11423.7  Rx         04B0  8  27 10 27 10 27 10 27 10 
  1257)     11437.4  Rx         0210  7  FF FF 30 20 90 00 B0 
  1258)     11437.7  Rx         04B0  8  27 10 27 10 27 10 27 10 
  1259)     11448.5  Rx         0304  8  00 00 02 00 00 55 00 49 
  1260)     11451.4  Rx         0210  7  FF FF 30 20 90 00 B1 
  1261)     11451.7  Rx         04B0  8  27 10 27 10 27 10 27 10 
  1262)     11455.7  Rx         0460  8  03 E0 00 00 00 00 00 00 
  1263)     11465.5  Rx         0210  7  FF FF 30 20 90 00 B2 
  1264)     11465.7  Rx         04B0  8  27 10 27 10 27 10 27 10 
  1265)     11479.5  Rx         0210  7  FF FF 30 20 90 00 B3 
  1266)     11479.7  Rx         04B0  8  27 10 27 10 27 10 27 10 
  1267)     11485.0  Rx         0310  3  00 00 00 
  1268)     11485.3  Rx         0264  8  00 00 00 00 00 00 00 00 
  1269)     11489.2  Rx         0305  8  00 00 00 00 00 04 58 00 
  1270)     11493.5  Rx         0210  7  FF FF 30 20 90 00 B4 
  1271)     11493.7  Rx         04B0  8  27 10 27 10 27 10 27 10 
  1272)     11507.5  Rx         0210  7  FF FF 30 20 90 00 B5 
  1273)     11507.7  Rx         04B0  8  27 10 27 10 27 10 27 10 
  1274)     11521.5  Rx         0210  7  FF FF 30 20 90 00 B6 
  1275)     11521.7  Rx         04B0  8  27 10 27 10 27 10 27 10 
  1276)     11528.4  Rx         0301  8  00 00 00 01 03 02 00 00 
  1277)     11535.5  Rx         0210  7  FF FF 30 20 90 00 B7 
  1278)     11535.7  Rx         04B0  8  27 10 27 10 27 10 27 10 
  1279)     11549.5  Rx         0210  7  FF FF 30 20 90 00 B8 
  1280)     11549.7  Rx         04B0  8  27 10 27 10 27 10 27 10 
  1281)     11555.5  Rx         0023  1  40 
  1282)     11555.8  Rx         0460  8  03 E0 00 00 00 00 00 00 
  1283)     11563.5  Rx         0210  7  FF FF 30 20 90 00 B9 
  1284)     11563.8  Rx         04B0  8  27 10 27 10 27 10 27 10 
  1285)     11568.8  Rx         0302  8  01 00 00 00 00 00 00 00 
  1286)     11577.5  Rx         0210  7  FF FF 30 20 90 00 BA 
  1287)     11577.8  Rx         04B0  8  27 10 27 10 27 10 27 10 
  1288)     11585.0  Rx         0311  2  00 00 
  1289)     11585.2  Rx         0263  6  00 00 2F 87 1E 00 
  1290)     11591.6  Rx         0210  7  FF FF 30 20 90 00 BB 
  1291)     11591.8  Rx         04B0  8  27 10 27 10 27 10 27 10 
  1292)     11605.5  Rx         0210  7  FF FF 30 20 90 00 BC 
  1293)     11605.8  Rx         04B0  8  27 10 27 10 27 10 27 10 
  1294)     11609.0  Rx         0303  8  00 00 00 00 00 00 01 00 
  1295)     11619.5  Rx         0210  7  FF FF 30 20 90 00 BD 
  1296)     11619.8  Rx         04B0  8  27 10 27 10 27 10 27 10 
  1297)     11633.6  Rx         0210  7  FF FF 30 20 90 00 BE 
  1298)     11633.8  Rx         04B0  8  27 10 27 10 27 10 27 10 
  1299)     11647.6  Rx         0210  7  FF FF 30 20 90 00 BF 
  1300)     11647.8  Rx         04B0  8  27 10 27 10 27 10 27 10 
  1301)     11648.8  Rx         0304  8  00 00 02 00 00 55 00 49 
  1302)     11655.3  Rx         0460  8  03 E0 00 00 00 00 00 00 
  1303)     11661.6  Rx         0210  7  FF FF 30 20 90 00 C0 
  1304)     11661.8  Rx         04B0  8  27 10 27 10 27 10 27 10 
  1305)     11675.6  Rx         0210  7  FF FF 30 20 90 00 C1 
  1306)     11675.8  Rx         04B0  8  27 10 27 10 27 10 27 10 
  1307)     11685.1  Rx         0310  3  00 00 00 
  1308)     11685.3  Rx         0264  8  00 00 00 00 00 00 00 00 
  1309)     11689.2  Rx         0305  8  00 00 00 00 00 04 58 00 
  1310)     11689.6  Rx         0210  7  FF FF 30 20 90 00 C2 
  1311)     11689.8  Rx         04B0  8  27 10 27 10 27 10 27 10 
  1312)     11703.6  Rx         0210  7  FF FF 30 20 90 00 C3 
  1313)     11703.8  Rx         04B0  8  27 10 27 10 27 10 27 10 
  1314)     11717.6  Rx         0210  7  FF FF 30 20 90 00 C4 
  1315)     11717.8  Rx         04B0  8  27 10 27 10 27 10 27 10 
  1316)     11728.8  Rx         0301  8  00 00 00 00 03 02 00 4F 
  1317)     11731.6  Rx         0210  7  FF FF 30 20 90 00 C5 
  1318)     11731.8  Rx         04B0  8  27 10 27 10 27 10 27 10 
  1319)     11745.6  Rx         0210  7  FF FF 30 20 90 00 C6 
  1320)     11745.9  Rx         04B0  8  27 10 27 10 27 10 27 10 
  1321)     11755.0  Rx         0023  1  40 
  1322)     11755.3  Rx         0460  8  03 E0 00 00 00 00 00 00 
  1323)     11759.6  Rx         0210  7  FF FF 30 20 90 00 C7 
  1324)     11759.9  Rx         04B0  8  27 10 27 10 27 10 27 10 
  1325)     11764.9  Rx         0408  8  00 01 00 00 00 00 00 00 
  1326)     11769.0  Rx         0302  8  01 00 00 00 00 00 00 00 
  1327)     11773.6  Rx         0210  7  FF FF 30 20 90 00 C8 
  1328)     11773.9  Rx         04B0  8  27 10 27 10 27 10 27 10 
  1329)     11785.1  Rx         0311  2  00 00 
  1330)     11785.3  Rx         0263  6  00 00 2F 87 1F 00 
  1331)     11787.6  Rx         0210  7  FF FF 30 20 90 00 C9 
  1332)     11787.9  Rx         04B0  8  27 10 27 10 27 10 27 10 
  1333)     11801.6  Rx         0210  7  FF FF 30 20 90 00 CA 
  1334)     11801.9  Rx         04B0  8  27 10 27 10 27 10 27 10 
  1335)     11809.4  Rx         0303  8  00 00 00 00 00 00 01 00 
  1336)     11815.7  Rx         0210  7  FF FF 30 20 90 00 CB 
  1337)     11815.9  Rx         04B0  8  27 10 27 10 27 10 27 10 
  1338)     11829.7  Rx         0210  7  FF FF 30 20 90 00 CC 
  1339)     11829.9  Rx         04B0  8  27 10 27 10 27 10 27 10 
  1340)     11843.7  Rx         0210  7  FF FF 30 20 90 00 CD 
  1341)     11843.9  Rx         04B0  8  27 10 27 10 27 10 27 10 
  1342)     11849.0  Rx         0304  8  00 00 02 00 00 55 00 49 
  1343)     11854.9  Rx         0460  8  03 E0 00 00 00 00 00 00 
  1344)     11857.7  Rx         0210  7  FF FF 30 20 90 00 CE 
  1345)     11857.9  Rx         04B0  8  27 10 27 10 27 10 27 10 
  1346)     11871.7  Rx         0210  7  FF FF 30 20 90 00 CF 
  1347)     11871.9  Rx         04B0  8  27 10 27 10 27 10 27 10 
  1348)     11885.2  Rx         0310  3  00 00 00 
  1349)     11885.4  Rx         0264  8  00 00 00 00 00 00 00 00 
  1350)     11885.7  Rx         0210  7  FF FF 30 20 90 00 D0 
  1351)     11886.0  Rx         04B0  8  27 10 27 10 27 10 27 10 
  1352)     11889.6  Rx         0305  8  00 00 08 00 00 04 58 00 
  1353)     11899.8  Rx         0210  7  FF FF 30 20 90 00 D1 
  1354)     11900.0  Rx         04B0  8  27 10 27 10 27 10 27 10 
  1355)     11913.8  Rx         0210  7  FF FF 30 20 90 00 D2 
  1356)     11914.0  Rx         04B0  8  27 10 27 10 27 10 27 10 
  1357)     11927.7  Rx         0210  7  FF FF 30 20 90 00 D3 
  1358)     11928.0  Rx         04B0  8  27 10 27 10 27 10 27 10 
  1359)     11929.1  Rx         0301  8  00 00 00 00 03 02 00 4F 
  1360)     11941.7  Rx         0210  7  FF FF 30 20 90 00 D4 
  1361)     11942.0  Rx         04B0  8  27 10 27 10 27 10 27 10 
  1362)     11954.5  Rx         0023  1  40 
  1363)     11954.8  Rx         0460  8  03 E0 00 00 00 00 00 00 
  1364)     11955.8  Rx         0210  7  FF FF 30 20 90 00 D5 
  1365)     11956.0  Rx         04B0  8  27 10 27 10 27 10 27 10 
  1366)     11969.2  Rx         0302  8  01 00 00 00 00 00 00 00 
  1367)     11969.8  Rx         0210  7  FF FF 30 20 90 00 D6 
  1368)     11970.0  Rx         04B0  8  27 10 27 10 27 10 27 10 
  1369)     11983.8  Rx         0210  7  FF FF 30 20 90 00 D7 
  1370)     11984.0  Rx         04B0  8  27 10 27 10 27 10 27 10 
  1371)     11985.2  Rx         0311  2  00 00 
  1372)     11985.4  Rx         0263  6  00 00 2F 87 20 00 
  1373)     11997.8  Rx         0210  7  FF FF 30 20 90 00 D8 
  1374)     11998.0  Rx         04B0  8  27 10 27 10 27 10 27 10 
  1375)     12009.4  Rx         0303  8  00 00 00 00 00 00 01 00 
  1376)     12011.8  Rx         0210  7  FF FF 30 20 90 00 D9 
  1377)     12012.0  Rx         04B0  8  27 10 27 10 27 10 27 10 
  1378)     12025.8  Rx         0210  7  FF FF 30 20 90 00 DA 
  1379)     12026.0  Rx         04B0  8  27 10 27 10 27 10 27 10 
  1380)     12039.8  Rx         0210  7  FF FF 30 20 90 00 DB 
  1381)     12040.0  Rx         04B0  8  27 10 27 10 27 10 27 10 
  1382)     12049.2  Rx         0304  8  00 00 02 00 00 55 00 49 
  1383)     12053.8  Rx         0210  7  FF FF 30 20 90 00 DC 
  1384)     12054.0  Rx         04B0  8  27 10 27 10 27 10 27 10 
  1385)     12054.4  Rx         0460  8  03 E0 00 00 00 00 00 00 
  1386)     12067.8  Rx         0210  7  FF FF 30 20 90 00 DD 
  1387)     12068.1  Rx         04B0  8  27 10 27 10 27 10 27 10 
  1388)     12081.9  Rx         0210  7  FF FF 30 20 90 00 DE 
  1389)     12082.1  Rx         04B0  8  27 10 27 10 27 10 27 10 
  1390)     12085.2  Rx         0310  3  00 00 00 
  1391)     12085.5  Rx         0264  8  00 00 00 00 00 00 00 00 
  1392)     12089.6  Rx         0305  8  00 00 08 00 00 04 58 00 
  1393)     12095.9  Rx         0210  7  FF FF 30 20 90 00 DF 
  1394)     12096.1  Rx         04B0  8  27 10 27 10 27 10 27 10 
  1395)     12108.9  Rx         0300  8  03 0B 0E 4D 44 02 01 00 
  1396)     12109.3  Rx         0306  8  00 00 00 00 00 00 00 00 
  1397)     12109.9  Rx         0210  7  FF FF 30 20 90 00 E0 
  1398)     12110.1  Rx         04B0  8  27 10 27 10 27 10 27 10 
  1399)     12123.8  Rx         0210  7  FF FF 30 20 90 00 E1 
  1400)     12124.1  Rx         04B0  8  27 10 27 10 27 10 27 10 
  1401)     12129.1  Rx         0301  8  00 00 00 01 03 02 00 4F 
  1402)     12137.9  Rx         0210  7  FF FF 30 20 90 00 E2 
  1403)     12138.1  Rx         04B0  8  27 10 27 10 27 10 27 10 
  1404)     12151.9  Rx         0210  7  FF FF 30 20 90 00 E3 
  1405)     12152.1  Rx         04B0  8  27 10 27 10 27 10 27 10 
  1406)     12154.2  Rx         0023  1  40 
  1407)     12154.4  Rx         0460  8  03 E0 00 00 00 00 00 00 
  1408)     12165.9  Rx         0210  7  FF FF 30 20 90 00 E4 
  1409)     12166.1  Rx         04B0  8  27 10 27 10 27 10 27 10 
  1410)     12169.4  Rx         0302  8  01 00 00 00 00 00 00 00 
  1411)     12179.9  Rx         0210  7  FF FF 30 20 90 00 E5 
  1412)     12180.1  Rx         04B0  8  27 10 27 10 27 10 27 10 
  1413)     12185.2  Rx         0311  2  00 00 
  1414)     12185.4  Rx         0263  6  00 00 2F 87 21 00 
  1415)     12193.9  Rx         0210  7  FF FF 30 20 90 00 E6 
  1416)     12194.1  Rx         04B0  8  27 10 27 10 27 10 27 10 
  1417)     12207.9  Rx         0210  7  FF FF 30 20 90 00 E7 
  1418)     12208.1  Rx         04B0  8  27 10 27 10 27 10 27 10 
  1419)     12209.6  Rx         0303  8  00 00 00 00 00 00 01 00 
  1420)     12221.9  Rx         0210  7  FF FF 30 20 90 00 E8 
  1421)     12222.1  Rx         04B0  8  27 10 27 10 27 10 27 10 
  1422)     12235.9  Rx         0210  7  FF FF 30 20 90 00 E9 
  1423)     12236.1  Rx         04B0  8  27 10 27 10 27 10 27 10 
  1424)     12249.4  Rx         0304  8  00 00 02 00 00 55 00 49 
  1425)     12249.9  Rx         0210  7  FF FF 30 20 90 00 EA 
  1426)     12250.2  Rx         04B0  8  27 10 27 10 27 10 27 10 
  1427)     12254.1  Rx         0460  8  03 E0 00 00 00 00 00 00 
  1428)     12264.0  Rx         0210  7  FF FF 30 20 90 00 EB 
  1429)     12264.2  Rx         04B0  8  27 10 27 10 27 10 27 10 
  1430)     12264.6  Rx         0408  8  00 01 00 00 00 00 00 00 
  1431)     12277.9  Rx         0210  7  FF FF 30 20 90 00 EC 
  1432)     12278.2  Rx         04B0  8  27 10 27 10 27 10 27 10 
  1433)     12285.3  Rx         0310  3  00 00 00 
  1434)     12285.5  Rx         0264  8  00 00 00 00 00 00 00 00 
  1435)     12289.8  Rx         0305  8  00 00 08 00 00 04 58 00 
  1436)     12291.9  Rx         0210  7  FF FF 30 20 90 00 ED 
  1437)     12292.2  Rx         04B0  8  27 10 27 10 27 10 27 10 
  1438)     12306.0  Rx         0210  7  FF FF 30 20 90 00 EE 
  1439)     12306.2  Rx         04B0  8  27 10 27 10 27 10 27 10 
  1440)     12320.0  Rx         0210  7  FF FF 30 20 90 00 EF 
  1441)     12320.2  Rx         04B0  8  27 10 27 10 27 10 27 10 
  1442)     12329.2  Rx         0301  8  00 00 00 00 03 02 00 4F 
  1443)     12334.0  Rx         0210  7  FF FF 30 20 90 00 F0 
  1444)     12334.2  Rx         04B0  8  27 10 27 10 27 10 27 10 
  1445)     12348.0  Rx         0210  7  FF FF 30 20 90 00 F1 
  1446)     12348.2  Rx         04B0  8  27 10 27 10 27 10 27 10 
  1447)     12353.7  Rx         0023  1  40 
  1448)     12354.1  Rx         0460  8  03 E0 00 00 00 00 00 00 
  1449)     12362.0  Rx         0210  7  FF FF 30 20 90 00 F2 
  1450)     12362.2  Rx         04B0  8  27 10 27 10 27 10 27 10 
  1451)     12369.7  Rx         0302  8  01 00 00 00 00 00 00 00 
  1452)     12376.0  Rx         0210  7  FF FF 30 20 90 00 F3 
  1453)     12376.3  Rx         04B0  8  27 10 27 10 27 10 27 10 
  1454)     12385.3  Rx         0311  2  00 00 
  1455)     12385.5  Rx         0263  6  00 00 2F 87 22 00 
  1456)     12390.0  Rx         0210  7  FF FF 30 20 90 00 F4 
  1457)     12390.2  Rx         04B0  8  27 10 27 10 27 10 27 10 
  1458)     12404.0  Rx         0210  7  FF FF 30 20 90 00 F5 
  1459)     12404.2  Rx         04B0  8  27 10 27 10 27 10 27 10 
  1460)     12409.7  Rx         0303  8  00 00 00 00 00 00 01 00 
  1461)     12418.0  Rx         0210  7  FF FF 30 20 90 00 F6 
  1462)     12418.2  Rx         04B0  8  27 10 27 10 27 10 27 10 
  1463)     12432.0  Rx         0210  7  FF FF 30 20 90 00 F7 
  1464)     12432.3  Rx         04B0  8  27 10 27 10 27 10 27 10 
  1465)     12446.1  Rx         0210  7  FF FF 30 20 90 00 F8 
  1466)     12446.3  Rx         04B0  8  27 10 27 10 27 10 27 10 
  1467)     12449.5  Rx         0304  8  00 00 02 00 00 55 00 49 
  1468)     12453.6  Rx         0460  8  03 E0 00 00 00 00 00 00 
  1469)     12460.0  Rx         0210  7  FF FF 30 20 90 00 F9 
  1470)     12460.3  Rx         04B0  8  27 10 27 10 27 10 27 10 
  1471)     12474.0  Rx         0210  7  FF FF 30 20 90 00 FA 
  1472)     12474.3  Rx         04B0  8  27 10 27 10 27 10 27 10 
  1473)     12485.3  Rx         0310  3  00 00 00 
  1474)     12485.6  Rx         0264  8  00 00 00 00 00 00 00 00 
  1475)     12488.1  Rx         0210  7  FF FF 30 20 90 00 FB 
  1476)     12488.3  Rx         04B0  8  27 10 27 10 27 10 27 10 
  1477)     12490.0  Rx         0305  8  00 00 08 00 00 04 58 00 
  1478)     12502.1  Rx         0210  7  FF FF 30 20 90 00 FC 
  1479)     12502.3  Rx         04B0  8  27 10 27 10 27 10 27 10 
  1480)     12516.1  Rx         0210  7  FF FF 30 20 90 00 FD 
  1481)     12516.3  Rx         04B0  8  27 10 27 10 27 10 27 10 
  1482)     12529.5  Rx         0301  8  00 00 00 01 03 02 00 4F 
  1483)     12530.1  Rx         0210  7  FF FF 30 20 90 00 FE 
  1484)     12530.3  Rx         04B0  8  27 10 27 10 27 10 27 10 
  1485)     12544.1  Rx         0210  7  FF FF 30 20 90 00 FF 
  1486)     12544.3  Rx         04B0  8  27 10 27 10 27 10 27 10 
  1487)     12553.4  Rx         0023  1  40 
  1488)     12553.7  Rx         0460  8  03 E0 00 00 00 00 00 00 
  1489)     12558.1  Rx         0210  7  FF FF 30 20 90 00 00 
  1490)     12558.3  Rx         04B0  8  27 10 27 10 27 10 27 10 
  1491)     12569.7  Rx         0302  8  01 00 00 00 00 00 00 00 
  1492)     12572.1  Rx         0210  7  FF FF 30 20 90 00 01 
  1493)     12572.3  Rx         04B0  8  27 10 27 10 27 10 27 10 
  1494)     12585.4  Rx         0311  2  00 00 
  1495)     12585.6  Rx         0263  6  00 00 2F 87 23 00 
  1496)     12586.1  Rx         0210  7  FF FF 30 20 90 00 02 
  1497)     12586.3  Rx         04B0  8  27 10 27 10 27 10 27 10 
  1498)     12600.1  Rx         0210  7  FF FF 30 20 90 00 03 
  1499)     12600.4  Rx         04B0  8  27 10 27 10 27 10 27 10 
  1500)     12609.9  Rx         0303  8  00 00 00 00 00 00 01 00 
  1501)     12614.1  Rx         0210  7  FF FF 30 20 90 00 04 
  1502)     12614.4  Rx         04B0  8  27 10 27 10 27 10 27 10 
  1503)     12628.2  Rx         0210  7  FF FF 30 20 90 00 05 
  1504)     12628.4  Rx         04B0  8  27 10 27 10 27 10 27 10 
  1505)     12642.1  Rx         0210  7  FF FF 30 20 90 00 06 
  1506)     12642.4  Rx         04B0  8  27 10 27 10 27 10 27 10 
  1507)     12649.7  Rx         0304  8  00 00 02 00 00 55 00 49 
  1508)     12653.2  Rx         0460  8  03 E0 00 00 00 00 00 00 
  1509)     12656.1  Rx         0210  7  FF FF 30 20 90 00 07 
  1510)     12656.4  Rx         04B0  8  27 10 27 10 27 10 27 10 
  1511)     12670.2  Rx         0210  7  FF FF 30 20 90 00 08 
  1512)     12670.4  Rx         04B0  8  27 10 27 10 27 10 27 10 
  1513)     12684.2  Rx         0210  7  FF FF 30 20 90 00 09 
  1514)     12684.4  Rx         04B0  8  27 10 27 10 27 10 27 10 
  1515)     12685.5  Rx         0310  3  00 00 00 
  1516)     12685.7  Rx         0264  8  00 00 00 00 00 00 00 00 
  1517)     12690.2  Rx         0305  8  00 00 08 00 00 04 58 00 
  1518)     12698.2  Rx         0210  7  FF FF 30 20 90 00 0A 
  1519)     12698.4  Rx         04B0  8  27 10 27 10 27 10 27 10 
  1520)     12712.2  Rx         0210  7  FF FF 30 20 90 00 0B 
  1521)     12712.4  Rx         04B0  8  27 10 27 10 27 10 27 10 
  1522)     12726.2  Rx         0210  7  FF FF 30 20 90 00 0C 
  1523)     12726.4  Rx         04B0  8  27 10 27 10 27 10 27 10 
  1524)     12729.6  Rx         0301  8  00 00 00 01 03 02 00 4F 
  1525)     12740.2  Rx         0210  7  FF FF 30 20 90 00 0D 
  1526)     12740.4  Rx         04B0  8  27 10 27 10 27 10 27 10 
  1527)     12752.8  Rx         0023  1  40 
  1528)     12753.1  Rx         0460  8  03 E0 00 00 00 00 00 00 
  1529)     12754.2  Rx         0210  7  FF FF 30 20 90 00 0E 
  1530)     12754.4  Rx         04B0  8  27 10 27 10 27 10 27 10 
  1531)     12763.9  Rx         0408  8  00 01 00 00 00 00 00 00 
  1532)     12768.2  Rx         0210  7  FF FF 30 20 90 00 0F 
  1533)     12768.4  Rx         04B0  8  27 10 27 10 27 10 27 10 
  1534)     12769.9  Rx         0302  8  01 00 00 00 00 00 00 00 
  1535)     12782.2  Rx         0210  7  FF FF 30 20 90 00 10 
  1536)     12782.5  Rx         04B0  8  27 10 27 10 27 10 27 10 
  1537)     12785.4  Rx         0311  2  00 00 
  1538)     12785.6  Rx         0263  6  00 00 2F 87 24 00 
  1539)     12796.2  Rx         0210  7  FF FF 30 20 90 00 11 
  1540)     12796.5  Rx         04B0  8  27 10 27 10 27 10 27 10 
  1541)     12810.2  Rx         0303  8  00 00 00 00 00 00 01 00 
  1542)     12810.5  Rx         0210  7  FF FF 30 20 90 00 12 
  1543)     12810.7  Rx         04B0  8  27 10 27 10 27 10 27 10 
  1544)     12824.2  Rx         0210  7  FF FF 30 20 90 00 13 
