;$FILEVERSION=1.1
;$STARTTIME=43602.8098728588
;
;   F:\pcanview\pexic_start.trc
;
;   Start time: 17/05/2019 19:26:13.015.0
;   Generated by PCAN-View v4.2.2.555
;
;   Message Number
;   |         Time Offset (ms)
;   |         |        Type
;   |         |        |        ID (hex)
;   |         |        |        |     Data Length
;   |         |        |        |     |   Data Bytes (hex) ...
;   |         |        |        |     |   |
;---+--   ----+----  --+--  ----+---  +  -+ -- -- -- -- -- -- --
     1)      5415.9  Rx         0023  1  40 
     2)      5417.3  Rx         0460  8  03 E0 00 00 C0 00 00 00 
     3)      5426.8  Rx         0023  1  40 
     4)      5440.4  Rx         0408  8  0E 02 00 10 00 00 76 00 
     5)      5441.0  Rx         040B  8  00 00 00 00 00 90 60 00 
     6)      5452.0  Rx         0210  7  FF FF 30 68 90 00 01 
     7)      5452.2  Rx         04B0  8  27 10 27 10 27 10 27 10 
     8)      5466.0  Rx         0210  7  FF FF 30 68 90 00 02 
     9)      5466.3  Rx         04B0  8  27 10 27 10 27 10 27 10 
    10)      5480.0  Rx         0210  7  FF FF 30 68 90 00 03 
    11)      5480.2  Rx         04B0  8  27 10 27 10 27 10 27 10 
    12)      5494.0  Rx         0210  7  FF FF 30 68 90 00 04 
    13)      5494.3  Rx         04B0  8  27 10 27 10 27 10 27 10 
    14)      5508.0  Rx         0210  7  FF FF 30 68 90 00 05 
    15)      5508.2  Rx         04B0  8  27 10 27 10 27 10 27 10 
    16)      5516.7  Rx         0460  8  03 E0 00 00 C0 00 00 00 
    17)      5522.0  Rx         0210  7  FF FF 30 68 90 00 06 
    18)      5522.3  Rx         04B0  8  27 10 27 10 27 10 27 10 
    19)      5536.1  Rx         0210  7  FF FF 30 68 90 00 07 
    20)      5536.3  Rx         04B0  8  27 10 27 10 27 10 27 10 
    21)      5550.0  Rx         0210  7  FF FF 30 68 90 00 08 
    22)      5550.3  Rx         04B0  8  27 10 27 10 27 10 27 10 
    23)      5564.0  Rx         0210  7  FF FF 30 68 90 00 09 
    24)      5564.3  Rx         04B0  8  27 10 27 10 27 10 27 10 
    25)      5578.1  Rx         0210  7  FF FF 30 68 90 00 0A 
    26)      5578.3  Rx         04B0  8  27 10 27 10 27 10 27 10 
    27)      5592.1  Rx         0210  7  FF FF 30 68 90 00 0B 
    28)      5592.4  Rx         04B0  8  27 10 27 10 27 10 27 10 
    29)      5606.1  Rx         0210  7  FF FF 30 68 90 00 0C 
    30)      5606.3  Rx         04B0  8  27 10 27 10 27 10 27 10 
    31)      5616.2  Rx         0023  1  40 
    32)      5616.5  Rx         0460  8  03 E0 00 00 C0 00 00 00 
    33)      5620.0  Rx         0210  7  FF FF 30 68 90 00 0D 
    34)      5620.2  Rx         04B0  8  27 10 27 10 27 10 27 10 
    35)      5634.0  Rx         0210  7  FF FF 30 68 90 00 0E 
    36)      5634.2  Rx         04B0  8  27 10 27 10 27 10 27 10 
    37)      5648.0  Rx         0210  7  FF FF 30 68 90 00 0F 
    38)      5648.2  Rx         04B0  8  27 10 27 10 27 10 27 10 
    39)      5662.0  Rx         0210  7  FF FF 30 68 90 00 10 
    40)      5662.2  Rx         04B0  8  27 10 27 10 27 10 27 10 
    41)      5669.9  Rx         0409  8  00 00 80 00 00 00 00 00 
    42)      5676.0  Rx         0210  7  FF FF 30 68 90 00 11 
    43)      5676.3  Rx         04B0  8  27 10 27 10 27 10 27 10 
    44)      5690.0  Rx         0210  7  FF FF 30 68 90 00 12 
    45)      5690.3  Rx         04B0  8  27 10 27 10 27 10 27 10 
    46)      5704.1  Rx         0210  7  FF FF 30 68 90 00 13 
    47)      5704.3  Rx         04B0  8  27 10 27 10 27 10 27 10 
    48)      5716.2  Rx         0460  8  03 E0 00 00 C0 00 00 00 
    49)      5718.1  Rx         0210  7  FF FF 30 68 90 00 14 
    50)      5718.3  Rx         04B0  8  27 10 27 10 27 10 27 10 
    51)      5719.3  Rx         0250  8  20 00 40 00 00 00 00 00 
    52)      5719.6  Rx         0440  8  0D 6E 09 0A 00 00 00 00 
    53)      5720.0  Rx         0441  8  00 00 00 00 00 00 00 00 
    54)      5720.3  Rx         0442  8  00 00 00 00 00 00 00 00 
    55)      5720.6  Rx         0443  8  00 00 00 00 00 00 00 00 
    56)      5721.0  Rx         0444  8  00 00 00 00 00 00 00 00 
    57)      5721.3  Rx         03A0  8  00 00 00 00 00 00 00 00 
    58)      5721.6  Rx         03A1  8  80 10 08 00 24 00 EB 00 
    59)      5732.0  Rx         0210  7  FF FF 30 68 90 00 15 
    60)      5732.3  Rx         04B0  8  27 10 27 10 27 10 27 10 
    61)      5746.1  Rx         0210  7  FF FF 30 68 90 00 16 
    62)      5746.3  Rx         04B0  8  27 10 27 10 27 10 27 10 
    63)      5760.1  Rx         0210  7  FF FF 30 68 90 00 17 
    64)      5760.3  Rx         04B0  8  27 10 27 10 27 10 27 10 
    65)      5774.1  Rx         0210  7  FF FF 30 68 90 00 18 
    66)      5774.3  Rx         04B0  8  27 10 27 10 27 10 27 10 
    67)      5777.8  Rx         0300  8  02 00 25 00 00 00 01 00 
    68)      5778.0  Rx         030E  8  35 31 35 31 37 34 30 44 
    69)      5778.2  Rx         030F  8  30 30 30 30 30 32 31 36 
    70)      5788.1  Rx         0210  7  FF FF 30 68 90 00 19 
    71)      5788.4  Rx         04B0  8  27 10 27 10 27 10 27 10 
    72)      5802.1  Rx         0210  7  FF FF 30 68 90 00 1A 
    73)      5802.4  Rx         04B0  8  27 10 27 10 27 10 27 10 
    74)      5802.8  Rx         0300  8  02 00 25 00 00 00 01 00 
    75)      5803.0  Rx         030E  8  35 31 35 31 37 34 30 44 
    76)      5803.3  Rx         030F  8  30 30 30 30 30 32 31 36 
    77)      5815.9  Rx         0023  1  40 
    78)      5816.1  Rx         0210  7  FF FF 30 68 90 00 1B 
    79)      5816.4  Rx         0460  8  03 E0 00 00 C0 00 00 00 
    80)      5816.6  Rx         04B0  8  27 10 27 10 27 10 27 10 
    81)      5817.5  Rx         0250  8  28 00 40 00 00 00 00 00 
    82)      5827.8  Rx         0300  8  02 00 25 00 00 00 01 00 
    83)      5828.0  Rx         030E  8  35 31 35 31 37 34 30 44 
    84)      5828.2  Rx         030F  8  30 30 30 30 30 32 31 36 
    85)      5830.1  Rx         0210  7  FF FF 30 68 90 00 1C 
    86)      5830.3  Rx         04B0  8  27 10 27 10 27 10 27 10 
    87)      5844.1  Rx         0210  7  FF FF 30 68 90 00 1D 
    88)      5844.3  Rx         04B0  8  27 10 27 10 27 10 27 10 
    89)      5853.1  Rx         0300  8  02 00 25 00 00 00 01 00 
    90)      5853.4  Rx         030E  8  35 31 35 31 37 34 30 44 
    91)      5853.6  Rx         030F  8  30 30 30 30 30 32 31 36 
    92)      5858.1  Rx         0210  7  FF FF 30 68 90 00 1E 
    93)      5858.4  Rx         04B0  8  27 10 27 10 27 10 27 10 
    94)      5872.2  Rx         0210  7  FF FF 30 68 90 00 1F 
    95)      5872.4  Rx         04B0  8  27 10 27 10 27 10 27 10 
    96)      5878.1  Rx         0300  8  02 00 25 00 00 00 01 00 
    97)      5878.3  Rx         030E  8  35 31 35 31 37 34 30 44 
    98)      5878.6  Rx         030F  8  30 30 30 30 30 32 31 36 
    99)      5886.2  Rx         0210  7  FF FF 30 68 90 00 20 
   100)      5886.4  Rx         04B0  8  27 10 27 10 27 10 27 10 
   101)      5900.1  Rx         0210  7  FF FF 30 68 90 00 21 
   102)      5900.4  Rx         04B0  8  27 10 27 10 27 10 27 10 
   103)      5903.1  Rx         0300  8  02 00 25 00 00 00 01 00 
   104)      5903.3  Rx         030E  8  35 31 35 31 37 34 30 44 
   105)      5903.6  Rx         030F  8  30 30 30 30 30 32 31 36 
   106)      5914.1  Rx         0210  7  FF FF 30 68 90 00 22 
   107)      5914.4  Rx         04B0  8  27 10 27 10 27 10 27 10 
   108)      5915.8  Rx         0460  8  03 E0 00 00 C0 00 00 00 
   109)      5917.6  Rx         0251  8  00 00 00 00 00 00 00 00 
   110)      5917.9  Rx         0250  8  28 00 40 00 00 00 00 00 
   111)      5918.4  Rx         0440  8  0D 6E 09 0A 00 00 00 00 
   112)      5918.7  Rx         0441  8  00 00 00 00 00 00 00 00 
   113)      5919.0  Rx         0442  8  00 00 00 00 00 00 00 00 
   114)      5919.3  Rx         0443  8  00 00 00 00 00 00 00 00 
   115)      5919.7  Rx         0444  8  00 00 00 00 00 00 00 00 
   116)      5927.7  Rx         0265  8  00 00 00 00 00 00 00 00 
   117)      5928.1  Rx         0300  8  02 00 25 00 00 00 01 00 
   118)      5928.4  Rx         0210  7  FF FF 30 68 90 00 23 
   119)      5928.6  Rx         030E  8  35 31 35 31 37 34 30 44 
   120)      5928.8  Rx         030F  8  30 30 30 30 30 32 31 36 
   121)      5929.0  Rx         04B0  8  27 10 27 10 27 10 27 10 
   122)      5937.5  Rx         0310  3  02 00 00 
   123)      5939.7  Rx         0408  8  0E 02 81 10 00 18 76 0B 
   124)      5940.5  Rx         040B  8  00 00 05 00 00 90 60 00 
   125)      5942.2  Rx         0210  7  FF FF 30 68 90 00 24 
   126)      5942.4  Rx         04B0  8  27 10 27 10 27 10 27 10 
   127)      5953.2  Rx         0300  8  02 00 25 00 00 00 01 00 
   128)      5953.4  Rx         030E  8  35 31 35 31 37 34 30 44 
   129)      5953.6  Rx         030F  8  30 30 30 30 30 32 31 36 
   130)      5956.2  Rx         0210  7  FF FF 30 68 90 00 25 
   131)      5956.4  Rx         04B0  8  27 10 27 10 27 10 27 10 
   132)      5957.7  Rx         0359  8  02 00 00 85 00 00 00 00 
   133)      5970.2  Rx         0210  7  FF FF 30 68 90 00 26 
   134)      5970.4  Rx         04B0  8  27 10 27 10 27 10 27 10 
   135)      5978.2  Rx         0300  8  02 00 25 00 00 00 01 00 
   136)      5978.4  Rx         030E  8  35 31 35 31 37 34 30 44 
   137)      5978.6  Rx         030F  8  30 30 30 30 30 32 31 36 
   138)      5984.2  Rx         0210  7  FF FF 30 68 90 00 27 
   139)      5984.5  Rx         04B0  8  27 10 27 10 27 10 27 10 
   140)      5998.2  Rx         0210  7  FF FF 30 68 90 00 28 
   141)      5998.5  Rx         04B0  8  27 10 27 10 27 10 27 10 
   142)      6003.2  Rx         0300  8  02 00 25 00 00 00 01 00 
   143)      6003.4  Rx         030E  8  35 31 35 31 37 34 30 44 
   144)      6003.7  Rx         030F  8  30 30 30 30 30 32 31 36 
   145)      6012.2  Rx         0210  7  FF FF 30 68 90 00 29 
   146)      6012.4  Rx         04B0  8  27 10 27 10 27 10 27 10 
   147)      6015.5  Rx         0023  1  40 
   148)      6015.8  Rx         0460  8  03 E0 00 00 C0 00 00 00 
   149)      6017.4  Rx         0250  8  28 00 40 00 00 00 00 00 
   150)      6017.8  Rx         0251  8  00 00 00 00 00 00 00 00 
   151)      6026.2  Rx         0210  7  FF FF 30 68 90 00 2A 
   152)      6026.4  Rx         04B0  8  27 10 27 10 27 10 27 10 
   153)      6027.7  Rx         0264  8  00 C0 51 00 00 E1 00 00 
   154)      6037.7  Rx         0265  8  00 00 00 00 00 00 00 00 
   155)      6040.2  Rx         0210  7  FF FF 30 68 90 00 2B 
   156)      6040.5  Rx         04B0  8  27 10 27 10 27 10 27 10 
   157)      6047.6  Rx         0311  2  00 00 
   158)      6054.3  Rx         0210  7  FF FF 30 68 90 00 2C 
   159)      6054.5  Rx         04B0  8  27 10 27 10 27 10 27 10 
   160)      6068.3  Rx         0210  7  FF FF 30 68 90 00 2D 
   161)      6068.5  Rx         04B0  8  27 10 27 10 27 10 27 10 
   162)      6078.2  Rx         0301  8  00 00 00 03 00 34 00 FA 
   163)      6078.5  Rx         0302  8  01 00 00 00 09 54 00 00 
   164)      6078.7  Rx         0304  8  00 00 04 00 00 00 00 00 
   165)      6078.9  Rx         0305  8  00 00 0F 40 00 00 00 00 
   166)      6079.2  Rx         0303  8  0F 59 00 00 00 00 00 00 
   167)      6082.2  Rx         0210  7  FF FF 30 68 90 00 2E 
   168)      6082.5  Rx         04B0  8  27 10 27 10 27 10 27 10 
   169)      6096.2  Rx         0210  7  FF FF 30 68 90 00 2F 
   170)      6096.5  Rx         04B0  8  27 10 27 10 27 10 27 10 
   171)      6110.3  Rx         0210  7  FF FF 30 68 90 00 30 
   172)      6110.5  Rx         04B0  8  27 10 27 10 27 10 27 10 
   173)      6115.4  Rx         0460  8  03 E0 00 00 C0 00 00 00 
   174)      6117.7  Rx         0250  8  28 00 40 00 00 00 00 00 
   175)      6118.0  Rx         0251  8  00 00 00 00 00 00 00 00 
   176)      6118.2  Rx         0440  8  0D 6E 09 0A 00 00 00 00 
   177)      6118.8  Rx         0441  8  00 00 00 00 00 00 00 00 
   178)      6119.1  Rx         0442  8  00 00 00 00 00 00 00 00 
   179)      6119.5  Rx         0443  8  00 00 00 00 00 00 00 00 
   180)      6119.8  Rx         0444  8  00 00 00 00 00 00 00 00 
   181)      6124.3  Rx         0210  7  FF FF 30 68 90 00 31 
   182)      6124.5  Rx         04B0  8  27 10 27 10 27 10 27 10 
   183)      6127.7  Rx         0265  8  00 00 00 00 00 36 00 00 
   184)      6137.6  Rx         0310  3  02 00 00 
   185)      6138.3  Rx         0210  7  FF FF 30 68 90 00 32 
   186)      6138.5  Rx         04B0  8  27 10 27 10 27 10 27 10 
   187)      6152.3  Rx         0210  7  FF FF 30 68 90 00 33 
   188)      6152.6  Rx         04B0  8  27 10 27 10 27 10 27 10 
   189)      6153.2  Rx         0610  8  00 00 00 00 00 00 02 54 
   190)      6153.5  Rx         0611  8  00 00 00 00 ED ED ED FE 
   191)      6157.7  Rx         0359  8  02 00 00 85 00 00 00 00 
   192)      6166.3  Rx         0210  7  FF FF 30 68 90 00 34 
   193)      6166.6  Rx         04B0  8  27 10 27 10 27 10 27 10 
   194)      6169.4  Rx         0409  8  00 00 80 00 80 00 00 00 
   195)      6180.3  Rx         0210  7  FF FF 30 68 90 00 35 
   196)      6180.6  Rx         04B0  8  27 10 27 10 27 10 27 10 
   197)      6194.3  Rx         0210  7  FF FF 30 68 90 00 36 
   198)      6194.5  Rx         04B0  8  27 10 27 10 27 10 27 10 
   199)      6208.3  Rx         0210  7  FF FF 30 68 90 00 37 
   200)      6208.6  Rx         04B0  8  27 10 27 10 27 10 27 10 
   201)      6215.1  Rx         0023  1  40 
   202)      6215.3  Rx         0460  8  03 E0 00 00 C0 00 00 00 
   203)      6217.8  Rx         0251  8  04 00 00 00 00 00 00 00 
   204)      6218.2  Rx         0250  8  28 00 40 00 00 00 00 00 
   205)      6218.6  Rx         03A0  8  00 00 03 B4 00 00 00 00 
   206)      6218.9  Rx         03A1  8  80 00 08 0E 24 00 EB 00 
   207)      6222.3  Rx         0210  7  FF FF 30 68 90 00 38 
   208)      6222.6  Rx         04B0  8  27 10 27 10 27 10 27 10 
   209)      6227.8  Rx         0264  8  00 00 59 00 01 01 00 00 
   210)      6236.4  Rx         0210  7  FF FF 30 68 90 00 39 
   211)      6236.6  Rx         04B0  8  27 10 27 10 27 10 27 10 
   212)      6237.8  Rx         0265  8  FC 07 00 00 00 36 00 00 
   213)      6247.7  Rx         0311  2  00 00 
   214)      6250.4  Rx         0210  7  FF FF 30 68 90 00 3A 
   215)      6250.6  Rx         04B0  8  27 10 27 10 27 10 27 10 
   216)      6264.3  Rx         0210  7  FF FF 30 68 90 00 3B 
   217)      6264.6  Rx         04B0  8  27 10 27 10 27 10 27 10 
   218)      6278.4  Rx         0210  7  FF FF 30 68 90 00 3C 
   219)      6278.6  Rx         04B0  8  27 10 27 10 27 10 27 10 
   220)      6279.1  Rx         0301  8  00 00 00 03 00 34 00 FA 
   221)      6279.3  Rx         0302  8  00 00 00 00 09 54 00 00 
   222)      6279.5  Rx         0304  8  00 00 00 00 00 FA 00 FA 
   223)      6279.8  Rx         0305  8  00 00 01 40 00 00 00 00 
   224)      6280.0  Rx         0303  8  0F 59 00 00 00 00 00 00 
   225)      6292.4  Rx         0210  7  FF FF 30 68 90 00 3D 
   226)      6292.6  Rx         04B0  8  27 10 27 10 27 10 27 10 
   227)      6306.4  Rx         0210  7  FF FF 30 68 90 00 3E 
   228)      6306.6  Rx         04B0  8  27 10 27 10 27 10 27 10 
   229)      6314.9  Rx         0460  8  03 E0 00 00 C0 00 00 00 
   230)      6317.8  Rx         0251  8  20 00 00 00 E5 4D 7E A6 
   231)      6318.4  Rx         0250  8  28 00 40 00 00 00 00 00 
   232)      6318.7  Rx         0440  8  0D 6E 09 0A 00 00 00 00 
   233)      6319.1  Rx         0441  8  00 00 00 00 00 00 00 00 
   234)      6319.4  Rx         0442  8  00 00 00 00 00 00 00 00 
   235)      6319.8  Rx         0443  8  00 00 00 00 00 00 00 00 
   236)      6320.1  Rx         0444  8  00 00 00 00 00 00 00 00 
   237)      6320.4  Rx         0210  7  FF FF 30 68 90 00 3F 
   238)      6320.6  Rx         04B0  8  27 10 27 10 27 10 27 10 
   239)      6327.8  Rx         0263  6  00 00 00 76 01 00 
   240)      6334.4  Rx         0210  7  FF FF 30 68 90 00 40 
   241)      6334.6  Rx         04B0  8  27 10 27 10 27 10 27 10 
   242)      6337.9  Rx         0265  8  FC 00 00 00 00 36 00 00 
   243)      6347.8  Rx         0310  3  02 00 00 
   244)      6348.4  Rx         0210  7  FF FF 30 68 90 00 41 
   245)      6348.7  Rx         04B0  8  27 10 27 10 27 10 27 10 
   246)      6354.1  Rx         0610  8  00 00 00 00 19 19 00 00 
   247)      6354.3  Rx         0611  8  06 10 00 00 ED ED ED FE 
   248)      6362.4  Rx         0210  7  FF FF 30 68 90 00 42 
   249)      6362.6  Rx         04B0  8  27 10 27 10 27 10 27 10 
   250)      6367.8  Rx         0359  8  02 00 00 85 00 00 00 00 
   251)      6376.4  Rx         0210  7  FF FF 30 68 90 00 43 
   252)      6376.7  Rx         04B0  8  27 10 27 10 27 10 27 10 
   253)      6390.4  Rx         0210  7  FF FF 30 68 90 00 44 
   254)      6390.7  Rx         04B0  8  27 10 27 10 27 10 27 10 
   255)      6404.5  Rx         0210  7  FF FF 30 68 90 00 45 
   256)      6404.7  Rx         04B0  8  27 10 27 10 27 10 27 10 
   257)      6414.6  Rx         0023  1  40 
   258)      6414.9  Rx         0460  8  03 E0 00 00 C0 00 00 00 
   259)      6417.8  Rx         0251  8  20 00 00 00 E5 4D 7E A6 
   260)      6418.5  Rx         0210  7  FF FF 30 68 90 00 46 
   261)      6418.7  Rx         0250  8  2A 00 40 00 67 9A 15 EA 
   262)      6418.9  Rx         04B0  8  27 10 27 10 27 10 27 10 
   263)      6427.9  Rx         0264  8  00 00 59 00 01 01 00 00 
   264)      6432.5  Rx         0210  7  FF FF 30 68 90 00 47 
   265)      6432.7  Rx         04B0  8  27 10 27 10 27 10 27 10 
   266)      6437.9  Rx         0265  8  FC 00 00 00 00 36 00 00 
   267)      6439.1  Rx         0408  8  0E 02 81 10 00 18 76 0B 
   268)      6440.0  Rx         040B  8  00 00 05 00 00 90 60 00 
   269)      6446.4  Rx         0210  7  FF FF 30 68 90 00 48 
   270)      6446.7  Rx         04B0  8  27 10 27 10 27 10 27 10 
   271)      6447.8  Rx         0311  2  00 00 
   272)      6460.5  Rx         0210  7  FF FF 30 68 90 00 49 
   273)      6460.7  Rx         04B0  8  27 10 27 10 27 10 27 10 
   274)      6474.5  Rx         0210  7  FF FF 30 68 90 00 4A 
   275)      6474.8  Rx         04B0  8  27 10 27 10 27 10 27 10 
   276)      6479.0  Rx         0301  8  00 00 06 FE 00 34 00 FA 
   277)      6479.3  Rx         0302  8  00 00 00 00 09 54 00 00 
   278)      6479.6  Rx         0304  8  00 00 00 00 00 FA 00 FA 
   279)      6479.8  Rx         0305  8  00 00 01 40 00 00 00 00 
   280)      6480.1  Rx         0303  8  0F 59 00 00 00 00 00 00 
   281)      6488.5  Rx         0210  7  FF FF 30 68 90 00 4B 
   282)      6488.8  Rx         04B0  8  27 10 27 10 27 10 27 10 
   283)      6502.5  Rx         0210  7  FF FF 30 68 90 00 4C 
   284)      6502.8  Rx         04B0  8  27 10 27 10 27 10 27 10 
   285)      6514.5  Rx         0460  8  03 E0 00 00 C0 00 00 00 
   286)      6516.5  Rx         0210  7  FF FF 30 68 90 00 4D 
   287)      6516.8  Rx         04B0  8  27 10 27 10 27 10 27 10 
   288)      6517.9  Rx         0251  8  40 00 00 00 00 00 00 00 
   289)      6518.6  Rx         0250  8  2A 00 40 00 67 9A 15 EA 
   290)      6518.9  Rx         0440  8  0D 6E 09 0A 00 00 00 00 
   291)      6519.3  Rx         0441  8  00 00 00 00 00 00 00 00 
   292)      6519.6  Rx         0442  8  00 00 00 00 00 00 00 00 
   293)      6519.9  Rx         0443  8  00 00 00 00 00 00 00 00 
   294)      6520.3  Rx         0444  8  00 00 00 00 00 00 00 00 
   295)      6527.9  Rx         0265  8  FC 00 00 00 00 36 00 00 
   296)      6530.5  Rx         0210  7  FF FF 30 68 90 00 4E 
   297)      6530.8  Rx         04B0  8  27 10 27 10 27 10 27 10 
   298)      6537.8  Rx         0310  3  02 00 00 
   299)      6544.5  Rx         0210  7  FF FF 30 68 90 00 4F 
   300)      6544.8  Rx         04B0  8  27 10 27 10 27 10 27 10 
   301)      6554.0  Rx         0610  8  00 00 00 00 19 19 00 00 
   302)      6554.3  Rx         0611  8  06 26 00 00 ED ED ED FE 
   303)      6557.9  Rx         0359  8  02 00 00 85 00 00 00 00 
   304)      6558.5  Rx         0210  7  FF FF 30 68 90 00 50 
   305)      6558.8  Rx         04B0  8  27 10 27 10 27 10 27 10 
   306)      6572.5  Rx         0210  7  FF FF 30 68 90 00 51 
   307)      6572.8  Rx         04B0  8  27 10 27 10 27 10 27 10 
   308)      6586.6  Rx         0210  7  FF FF 30 68 90 00 52 
   309)      6586.8  Rx         04B0  8  27 10 27 10 27 10 27 10 
   310)      6600.6  Rx         0210  7  FF FF 30 68 90 00 53 
   311)      6600.8  Rx         04B0  8  27 10 27 10 27 10 27 10 
   312)      6614.2  Rx         0023  1  40 
   313)      6614.5  Rx         0460  8  03 E0 00 00 C0 00 00 00 
   314)      6614.7  Rx         0210  7  FF FF 30 68 90 00 54 
   315)      6615.0  Rx         04B0  8  27 10 27 10 27 10 27 10 
   316)      6618.0  Rx         0251  8  40 00 00 00 00 00 00 00 
   317)      6618.7  Rx         0250  8  08 00 40 00 00 00 00 00 
   318)      6627.9  Rx         0264  8  00 00 59 00 01 01 00 00 
   319)      6628.6  Rx         0210  7  FF FF 30 68 90 00 55 
   320)      6628.8  Rx         04B0  8  27 10 27 10 27 10 27 10 
   321)      6637.9  Rx         0265  8  FC 00 00 00 00 36 00 00 
   322)      6642.6  Rx         0210  7  FF FF 30 68 90 00 56 
   323)      6642.8  Rx         04B0  8  27 10 27 10 27 10 27 10 
   324)      6647.9  Rx         0311  2  00 00 
   325)      6656.6  Rx         0210  7  FF FF 30 68 90 00 57 
   326)      6656.8  Rx         04B0  8  27 10 27 10 27 10 27 10 
   327)      6668.8  Rx         0409  8  18 00 80 00 80 00 00 00 
   328)      6670.5  Rx         0210  7  FF FF 30 68 90 00 58 
   329)      6670.7  Rx         04B0  8  27 10 27 10 27 10 27 10 
   330)      6679.0  Rx         0301  8  00 00 0E E3 00 34 00 FA 
   331)      6679.3  Rx         0302  8  00 00 00 00 0E E3 00 00 
   332)      6679.4  Rx         0304  8  00 00 00 00 00 FA 00 FA 
   333)      6679.7  Rx         0305  8  00 00 01 40 00 00 00 00 
   334)      6680.0  Rx         0303  8  0F 59 00 00 00 00 00 00 
   335)      6684.5  Rx         0210  7  FF FF 30 68 90 00 59 
   336)      6684.7  Rx         04B0  8  27 10 27 10 27 10 27 10 
   337)      6698.5  Rx         0210  7  FF FF 30 68 90 00 5A 
   338)      6698.8  Rx         04B0  8  27 10 27 10 27 10 27 10 
   339)      6712.5  Rx         0210  7  FF FF 30 68 90 00 5B 
   340)      6712.8  Rx         04B0  8  27 10 27 10 27 10 27 10 
   341)      6714.1  Rx         0460  8  03 E0 00 00 C0 00 00 00 
   342)      6717.9  Rx         0251  8  40 00 00 00 00 00 00 00 
   343)      6718.8  Rx         0250  8  08 00 40 00 00 00 00 00 
   344)      6719.1  Rx         0440  8  0D 6E 09 0A 00 00 00 00 
   345)      6719.5  Rx         0441  8  00 00 00 00 00 00 00 00 
   346)      6719.8  Rx         0442  8  00 00 00 00 00 00 00 00 
   347)      6720.1  Rx         0443  8  00 00 00 00 00 00 00 00 
   348)      6720.5  Rx         0444  8  00 00 00 00 00 00 00 00 
   349)      6720.8  Rx         03A0  8  00 00 03 B4 00 00 00 00 
   350)      6721.2  Rx         03A1  8  80 10 08 00 00 00 EB 00 
   351)      6726.5  Rx         0210  7  FF FF 30 68 90 00 5C 
   352)      6726.7  Rx         04B0  8  27 10 27 10 27 10 27 10 
   353)      6727.9  Rx         0265  8  FC 00 00 00 00 36 00 00 
   354)      6737.8  Rx         0310  3  02 00 00 
   355)      6740.5  Rx         0210  7  FF FF 30 68 90 00 5D 
   356)      6740.8  Rx         04B0  8  27 10 27 10 27 10 27 10 
   357)      6753.9  Rx         0610  8  06 7C 00 00 19 19 00 00 
   358)      6754.2  Rx         0300  8  02 00 25 00 00 00 01 00 
   359)      6754.4  Rx         0306  8  00 00 00 00 00 00 00 00 
   360)      6754.6  Rx         0210  7  FF FF 30 68 90 00 5E 
   361)      6754.9  Rx         04B0  8  27 10 27 10 27 10 27 10 
   362)      6755.1  Rx         0611  8  06 37 06 7C ED ED ED FE 
   363)      6755.4  Rx         0722  8  00 00 00 00 00 00 00 00 
   364)      6755.6  Rx         0723  8  00 00 00 00 00 00 00 00 
   365)      6755.9  Rx         0721  8  00 00 00 00 00 00 00 00 
   366)      6757.8  Rx         0359  8  02 00 00 85 00 00 00 00 
   367)      6768.6  Rx         0210  7  FF FF 30 68 90 00 5F 
   368)      6768.8  Rx         04B0  8  27 10 27 10 27 10 27 10 
   369)      6782.6  Rx         0210  7  FF FF 30 68 90 00 60 
   370)      6782.8  Rx         04B0  8  27 10 27 10 27 10 27 10 
   371)      6796.5  Rx         0210  7  FF FF 30 68 90 00 61 
   372)      6796.8  Rx         04B0  8  27 10 27 10 27 10 27 10 
   373)      6810.6  Rx         0210  7  FF FF 30 68 90 00 62 
   374)      6810.8  Rx         04B0  8  27 10 27 10 27 10 27 10 
   375)      6813.7  Rx         0023  1  40 
   376)      6813.9  Rx         0460  8  03 E0 00 00 C0 00 00 00 
   377)      6817.9  Rx         0251  8  40 00 00 00 00 00 00 00 
   378)      6818.9  Rx         0250  8  08 00 40 00 00 00 00 00 
   379)      6824.6  Rx         0210  7  FF FF 30 68 90 00 63 
   380)      6824.8  Rx         04B0  8  27 10 27 10 27 10 27 10 
   381)      6827.9  Rx         0263  6  00 00 26 76 02 00 
   382)      6837.9  Rx         0264  8  00 00 59 00 01 01 00 00 
   383)      6838.6  Rx         0210  7  FF FF 30 68 90 00 64 
   384)      6838.8  Rx         04B0  8  27 10 27 10 27 10 27 10 
   385)      6847.9  Rx         0265  8  FC 00 00 00 00 36 00 00 
   386)      6852.6  Rx         0210  7  FF FF 30 68 90 00 65 
   387)      6852.8  Rx         04B0  8  27 10 27 10 27 10 27 10 
   388)      6857.8  Rx         0311  2  00 00 
   389)      6866.6  Rx         0210  7  FF FF 30 68 90 00 66 
   390)      6866.9  Rx         04B0  8  27 10 27 10 27 10 27 10 
   391)      6879.0  Rx         0301  8  00 00 0F 31 00 34 00 F0 
   392)      6879.3  Rx         0302  8  00 00 00 00 0F 31 00 00 
   393)      6879.5  Rx         0304  8  00 00 00 00 00 F0 00 F0 
   394)      6879.7  Rx         0305  8  00 00 01 40 00 00 00 00 
   395)      6880.0  Rx         0303  8  0F 59 00 00 00 00 00 00 
   396)      6880.6  Rx         0210  7  FF FF 30 68 90 00 67 
   397)      6880.9  Rx         04B0  8  27 10 27 10 27 10 27 10 
   398)      6894.6  Rx         0210  7  FF FF 30 68 90 00 68 
   399)      6894.8  Rx         04B0  8  27 10 27 10 27 10 27 10 
   400)      6908.6  Rx         0210  7  FF FF 30 68 90 00 69 
   401)      6908.8  Rx         04B0  8  27 10 27 10 27 10 27 10 
   402)      6913.6  Rx         0460  8  03 E0 00 00 C0 00 00 00 
   403)      6917.9  Rx         0251  8  40 00 00 00 00 00 00 00 
   404)      6919.1  Rx         0250  8  08 00 40 00 00 00 00 00 
   405)      6919.5  Rx         0440  8  0D 6E 09 0A 00 00 00 00 
   406)      6919.8  Rx         0441  8  00 00 00 00 00 00 00 00 
   407)      6920.2  Rx         0442  8  00 00 00 00 00 00 00 00 
   408)      6920.4  Rx         0443  8  00 00 00 00 00 00 00 00 
   409)      6920.8  Rx         0444  8  00 00 00 00 00 00 00 00 
   410)      6922.6  Rx         0210  7  FF FF 30 68 90 00 6A 
   411)      6922.9  Rx         04B0  8  27 10 27 10 27 10 27 10 
   412)      6928.0  Rx         0265  8  FC 00 00 00 00 36 00 00 
   413)      6936.7  Rx         0210  7  FF FF 30 68 90 00 6B 
   414)      6936.9  Rx         04B0  8  27 10 27 10 27 10 27 10 
   415)      6937.9  Rx         0310  3  02 00 00 
   416)      6938.5  Rx         0408  8  0E 02 81 10 00 18 76 0B 
   417)      6939.3  Rx         040B  8  00 00 05 00 00 90 60 00 
   418)      6950.7  Rx         0210  7  FF FF 30 68 90 00 6C 
   419)      6950.9  Rx         04B0  8  27 10 27 10 27 10 27 10 
   420)      6954.0  Rx         0610  8  06 7C 00 00 18 18 00 00 
   421)      6954.2  Rx         0611  8  06 43 06 7C ED ED ED FE 
   422)      6958.0  Rx         0359  8  02 00 00 85 00 00 00 00 
   423)      6964.7  Rx         0210  7  FF FF 30 68 90 00 6D 
   424)      6964.9  Rx         04B0  8  27 10 27 10 27 10 27 10 
   425)      6978.6  Rx         0210  7  FF FF 30 68 90 00 6E 
   426)      6978.9  Rx         04B0  8  27 10 27 10 27 10 27 10 
   427)      6992.7  Rx         0210  7  FF FF 30 68 90 00 6F 
   428)      6992.9  Rx         04B0  8  27 10 27 10 27 10 27 10 
   429)      7006.7  Rx         0210  7  FF FF 30 68 90 00 70 
   430)      7006.9  Rx         04B0  8  27 10 27 10 27 10 27 10 
   431)      7013.3  Rx         0023  1  40 
   432)      7013.6  Rx         0460  8  03 E0 00 00 C0 00 00 00 
   433)      7018.0  Rx         0251  8  40 00 00 00 00 00 00 00 
   434)      7019.3  Rx         0250  8  08 00 40 00 00 00 00 00 
   435)      7020.7  Rx         0210  7  FF FF 30 68 90 00 71 
   436)      7020.9  Rx         04B0  8  27 10 27 10 27 10 27 10 
   437)      7028.0  Rx         0264  8  00 00 59 00 01 01 00 00 
   438)      7034.7  Rx         0210  7  FF FF 30 68 90 00 72 
   439)      7034.9  Rx         04B0  8  27 10 27 10 27 10 27 10 
   440)      7038.0  Rx         0265  8  FC 00 00 00 00 36 00 00 
   441)      7047.9  Rx         0311  2  00 00 
   442)      7048.7  Rx         0210  7  FF FF 30 68 90 00 73 
   443)      7048.9  Rx         04B0  8  27 10 27 10 27 10 27 10 
   444)      7062.7  Rx         0210  7  FF FF 30 68 90 00 74 
   445)      7063.0  Rx         04B0  8  27 10 27 10 27 10 27 10 
   446)      7076.7  Rx         0210  7  FF FF 30 68 90 00 75 
   447)      7076.9  Rx         04B0  8  27 10 27 10 27 10 27 10 
   448)      7079.0  Rx         0301  8  00 00 0F 15 00 34 00 DC 
   449)      7079.3  Rx         0302  8  00 00 00 00 0F 15 00 00 
   450)      7079.5  Rx         0304  8  00 00 00 00 00 DC 00 DC 
   451)      7079.8  Rx         0305  8  00 00 01 40 00 00 00 00 
   452)      7080.0  Rx         0303  8  0F 59 00 00 00 00 00 00 
   453)      7090.7  Rx         0210  7  FF FF 30 68 90 00 76 
   454)      7091.0  Rx         04B0  8  27 10 27 10 27 10 27 10 
   455)      7104.7  Rx         0210  7  FF FF 30 68 90 00 77 
   456)      7105.0  Rx         04B0  8  27 10 27 10 27 10 27 10 
   457)      7113.2  Rx         0460  8  03 E0 00 00 C0 00 00 00 
   458)      7118.0  Rx         0251  8  40 00 00 00 00 00 00 00 
   459)      7118.8  Rx         0210  7  FF FF 30 68 90 00 78 
   460)      7119.0  Rx         04B0  8  27 10 27 10 27 10 27 10 
   461)      7119.5  Rx         0250  8  08 00 40 00 00 00 00 00 
   462)      7119.8  Rx         0440  8  0D 6E 09 0A 00 00 00 00 
   463)      7120.2  Rx         0441  8  00 00 00 00 00 00 00 00 
   464)      7120.5  Rx         0442  8  00 00 00 00 00 00 00 00 
   465)      7120.9  Rx         0443  8  00 00 00 00 00 00 00 00 
   466)      7121.2  Rx         0444  8  00 00 00 00 00 00 00 00 
   467)      7128.0  Rx         0265  8  FC 00 00 00 00 36 00 00 
   468)      7132.8  Rx         0210  7  FF FF 30 68 90 00 79 
   469)      7133.0  Rx         04B0  8  27 10 27 10 27 10 27 10 
   470)      7137.9  Rx         0310  3  02 00 00 
   471)      7146.8  Rx         0210  7  FF FF 30 68 90 00 7A 
   472)      7147.0  Rx         04B0  8  27 10 27 10 27 10 27 10 
   473)      7154.0  Rx         0610  8  06 7C 01 6D 16 16 00 00 
   474)      7154.3  Rx         0611  8  06 51 05 0F ED ED ED FE 
   475)      7158.1  Rx         0359  8  02 00 00 85 00 00 00 00 
   476)      7160.7  Rx         0210  7  FF FF 30 68 90 00 7B 
   477)      7161.0  Rx         04B0  8  27 10 27 10 27 10 27 10 
   478)      7168.3  Rx         0409  8  18 00 80 00 80 00 00 00 
   479)      7175.4  Rx         0210  7  FF FF 30 68 90 00 7C 
   480)      7175.6  Rx         04B0  8  27 10 27 10 27 10 27 10 
   481)      7189.4  Rx         0210  7  FF FF 30 68 90 00 7D 
   482)      7189.6  Rx         04B0  8  27 10 27 10 27 10 27 10 
   483)      7203.4  Rx         0210  7  FF FF 30 68 90 00 7E 
   484)      7203.6  Rx         04B0  8  27 10 27 10 27 10 27 10 
   485)      7212.8  Rx         0023  1  40 
   486)      7213.1  Rx         0460  8  03 E0 00 00 C0 00 00 00 
   487)      7217.4  Rx         0210  7  FF FF 30 68 90 00 7F 
   488)      7217.7  Rx         04B0  8  27 10 27 10 27 10 27 10 
   489)      7218.0  Rx         0251  8  40 00 00 00 00 00 00 00 
   490)      7219.5  Rx         0250  8  08 00 40 00 00 00 00 00 
   491)      7219.8  Rx         03A0  8  00 00 03 B4 00 00 00 00 
   492)      7220.1  Rx         03A1  8  80 10 08 00 26 00 EB 00 
   493)      7228.1  Rx         0264  8  00 00 59 00 01 01 00 00 
   494)      7231.4  Rx         0210  7  FF FF 30 68 90 00 80 
   495)      7231.6  Rx         04B0  8  27 10 27 10 27 10 27 10 
   496)      7238.1  Rx         0265  8  FC 00 00 00 00 36 00 00 
   497)      7245.4  Rx         0210  7  FF FF 30 68 90 00 81 
   498)      7245.6  Rx         04B0  8  27 10 27 10 27 10 27 10 
   499)      7248.0  Rx         0311  2  00 00 
   500)      7259.4  Rx         0210  7  FF FF 30 68 90 00 82 
   501)      7259.6  Rx         04B0  8  27 10 27 10 27 10 27 10 
   502)      7273.4  Rx         0210  7  FF FF 30 68 90 00 83 
   503)      7273.6  Rx         04B0  8  27 10 27 10 27 10 27 10 
   504)      7279.1  Rx         0301  8  00 00 0F 3D 00 34 00 D2 
   505)      7279.4  Rx         0302  8  00 00 00 00 0F 3D 00 00 
   506)      7279.5  Rx         0304  8  00 00 00 00 00 D2 00 D2 
   507)      7279.8  Rx         0305  8  00 00 01 40 00 00 00 00 
   508)      7280.0  Rx         0303  8  0F 59 00 00 00 00 00 00 
   509)      7287.4  Rx         0210  7  FF FF 30 68 90 00 84 
   510)      7287.6  Rx         04B0  8  27 10 27 10 27 10 27 10 
   511)      7301.4  Rx         0210  7  FF FF 30 68 90 00 85 
   512)      7301.7  Rx         04B0  8  27 10 27 10 27 10 27 10 
   513)      7312.7  Rx         0460  8  03 E0 00 00 C0 00 00 00 
   514)      7315.5  Rx         0210  7  FF FF 30 68 90 00 86 
   515)      7315.7  Rx         04B0  8  27 10 27 10 27 10 27 10 
   516)      7318.1  Rx         0251  8  40 00 00 00 00 00 00 00 
   517)      7319.6  Rx         0250  8  08 00 40 00 00 00 00 00 
   518)      7320.0  Rx         0440  8  0D 6E 09 0A 00 00 00 00 
   519)      7320.3  Rx         0441  8  00 00 00 00 00 00 00 00 
   520)      7320.7  Rx         0442  8  00 00 00 00 00 00 00 00 
   521)      7321.0  Rx         0443  8  00 00 00 00 00 00 00 00 
   522)      7321.3  Rx         0444  8  00 00 00 00 00 00 00 00 
   523)      7328.0  Rx         0263  6  00 00 25 76 03 00 
   524)      7329.4  Rx         0210  7  FF FF 30 68 90 00 87 
   525)      7329.7  Rx         04B0  8  27 10 27 10 27 10 27 10 
   526)      7338.1  Rx         0265  8  FC 00 00 00 00 36 00 00 
   527)      7343.4  Rx         0210  7  FF FF 30 68 90 00 88 
   528)      7343.7  Rx         04B0  8  27 10 27 10 27 10 27 10 
   529)      7348.0  Rx         0310  3  02 00 00 
   530)      7354.1  Rx         0610  8  06 7C 02 89 15 15 00 00 
   531)      7354.3  Rx         0611  8  06 59 03 F3 ED ED ED FE 
   532)      7357.5  Rx         0210  7  FF FF 30 68 90 00 89 
   533)      7357.7  Rx         04B0  8  27 10 27 10 27 10 27 10 
   534)      7368.1  Rx         0359  8  02 00 00 85 00 00 00 00 
   535)      7371.5  Rx         0210  7  FF FF 30 68 90 00 8A 
   536)      7371.7  Rx         04B0  8  27 10 27 10 27 10 27 10 
   537)      7385.5  Rx         0210  7  FF FF 30 68 90 00 8B 
   538)      7385.7  Rx         04B0  8  27 10 27 10 27 10 27 10 
   539)      7399.5  Rx         0210  7  FF FF 30 68 90 00 8C 
   540)      7399.7  Rx         04B0  8  27 10 27 10 27 10 27 10 
   541)      7412.4  Rx         0023  1  40 
   542)      7412.7  Rx         0460  8  03 E0 00 00 C0 00 00 00 
   543)      7413.5  Rx         0210  7  FF FF 30 68 90 00 8D 
   544)      7413.7  Rx         04B0  8  27 10 27 10 27 10 27 10 
   545)      7418.1  Rx         0251  8  40 00 00 00 00 00 00 00 
   546)      7419.8  Rx         0250  8  08 00 40 00 00 00 00 00 
   547)      7427.5  Rx         0210  7  FF FF 30 68 90 00 8E 
   548)      7427.7  Rx         04B0  8  27 10 27 10 27 10 27 10 
   549)      7428.1  Rx         0264  8  00 00 59 00 01 01 00 00 
   550)      7438.0  Rx         0408  8  0E 02 81 10 00 18 76 0B 
   551)      7438.3  Rx         0265  8  FC 00 00 00 00 36 00 00 
   552)      7438.9  Rx         040B  8  00 00 05 00 00 10 60 00 
   553)      7441.5  Rx         0210  7  FF FF 30 68 90 00 8F 
   554)      7441.7  Rx         04B0  8  27 10 27 10 27 10 27 10 
   555)      7448.0  Rx         0311  2  00 00 
   556)      7455.5  Rx         0210  7  FF FF 30 68 90 00 90 
   557)      7455.8  Rx         04B0  8  27 10 27 10 27 10 27 10 
   558)      7469.5  Rx         0210  7  FF FF 30 68 90 00 91 
   559)      7469.8  Rx         04B0  8  27 10 27 10 27 10 27 10 
   560)      7479.1  Rx         0301  8  00 00 0F 4E 00 34 00 C8 
   561)      7479.4  Rx         0302  8  00 00 00 00 0F 4E 00 00 
   562)      7479.5  Rx         0304  8  00 00 00 00 00 C8 00 C8 
   563)      7479.8  Rx         0305  8  00 00 01 40 00 00 00 00 
   564)      7480.1  Rx         0303  8  0F 59 00 00 00 00 00 00 
   565)      7483.5  Rx         0210  7  FF FF 30 68 90 00 92 
   566)      7483.8  Rx         04B0  8  27 10 27 10 27 10 27 10 
   567)      7497.5  Rx         0210  7  FF FF 30 68 90 00 93 
   568)      7497.8  Rx         04B0  8  27 10 27 10 27 10 27 10 
   569)      7511.5  Rx         0210  7  FF FF 30 68 90 00 94 
   570)      7511.8  Rx         04B0  8  27 10 27 10 27 10 27 10 
   571)      7512.4  Rx         0460  8  03 E0 00 00 C0 00 00 00 
   572)      7518.2  Rx         0251  8  40 00 00 00 00 00 00 00 
   573)      7519.9  Rx         0250  8  08 00 40 00 00 00 00 00 
   574)      7520.2  Rx         0440  8  0D 6E 09 0A 00 00 00 00 
   575)      7520.5  Rx         0441  8  00 00 00 00 00 00 00 00 
   576)      7520.9  Rx         0442  8  00 00 00 00 00 00 00 00 
   577)      7521.2  Rx         0443  8  00 00 00 00 00 00 00 00 
   578)      7521.6  Rx         0444  8  00 00 00 00 00 00 00 00 
   579)      7525.5  Rx         0210  7  FF FF 30 68 90 00 95 
   580)      7525.8  Rx         04B0  8  27 10 27 10 27 10 27 10 
   581)      7528.2  Rx         0265  8  FC 00 00 00 00 36 00 00 
   582)      7538.0  Rx         0310  3  02 00 00 
   583)      7539.6  Rx         0210  7  FF FF 30 68 90 00 96 
   584)      7539.8  Rx         04B0  8  27 10 27 10 27 10 27 10 
   585)      7553.6  Rx         0210  7  FF FF 30 68 90 00 97 
   586)      7553.8  Rx         04B0  8  27 10 27 10 27 10 27 10 
   587)      7554.1  Rx         0610  8  06 7C 03 C2 14 14 00 00 
   588)      7554.3  Rx         0611  8  06 60 02 BA ED ED ED FE 
   589)      7558.2  Rx         0359  8  02 00 00 85 00 00 00 00 
   590)      7567.6  Rx         0210  7  FF FF 30 68 90 00 98 
   591)      7567.8  Rx         04B0  8  27 10 27 10 27 10 27 10 
   592)      7581.6  Rx         0210  7  FF FF 30 68 90 00 99 
   593)      7581.8  Rx         04B0  8  27 10 27 10 27 10 27 10 
   594)      7595.6  Rx         0210  7  FF FF 30 68 90 00 9A 
   595)      7595.9  Rx         04B0  8  27 10 27 10 27 10 27 10 
   596)      7609.6  Rx         0210  7  FF FF 30 68 90 00 9B 
   597)      7609.8  Rx         04B0  8  27 10 27 10 27 10 27 10 
   598)      7612.1  Rx         0023  1  40 
   599)      7612.4  Rx         0460  8  03 E0 00 00 C0 00 00 00 
   600)      7618.2  Rx         0251  8  40 00 00 00 00 00 00 00 
   601)      7620.0  Rx         0250  8  08 00 40 00 00 00 00 00 
   602)      7623.6  Rx         0210  7  FF FF 30 68 90 00 9C 
   603)      7623.8  Rx         04B0  8  27 10 27 10 27 10 27 10 
   604)      7628.2  Rx         0264  8  00 00 59 00 01 01 00 00 
   605)      7637.6  Rx         0210  7  FF FF 30 68 90 00 9D 
   606)      7637.8  Rx         04B0  8  27 10 27 10 27 10 27 10 
   607)      7638.2  Rx         0265  8  FC 00 00 00 00 36 00 00 
   608)      7648.1  Rx         0311  2  00 00 
   609)      7651.6  Rx         0210  7  FF FF 30 68 90 00 9E 
   610)      7651.9  Rx         04B0  8  27 10 27 10 27 10 27 10 
   611)      7665.7  Rx         0210  7  FF FF 30 68 90 00 9F 
   612)      7665.9  Rx         04B0  8  27 10 27 10 27 10 27 10 
   613)      7667.8  Rx         0409  8  18 00 00 00 80 00 00 00 
   614)      7679.2  Rx         0301  8  00 04 0F 35 00 34 00 BE 
   615)      7679.4  Rx         0302  8  00 00 00 00 09 54 08 A2 
   616)      7679.6  Rx         0210  7  FF FF 30 68 90 00 A0 
   617)      7679.9  Rx         0304  8  00 00 00 00 00 BE 00 BE 
   618)      7680.2  Rx         0305  8  00 00 01 40 00 00 00 00 
   619)      7680.4  Rx         0303  8  0F 59 01 04 06 00 00 00 
   620)      7680.6  Rx         04B0  8  27 10 27 10 27 10 27 10 
   621)      7693.6  Rx         0210  7  FF FF 30 68 90 00 A1 
   622)      7693.9  Rx         04B0  8  27 10 27 10 27 10 27 10 
   623)      7707.7  Rx         0210  7  FF FF 30 68 90 00 A2 
   624)      7707.9  Rx         04B0  8  27 10 27 10 27 10 27 10 
   625)      7711.8  Rx         0460  8  03 E0 00 00 C0 00 00 00 
   626)      7718.1  Rx         0251  8  40 00 00 00 00 00 00 00 
   627)      7720.0  Rx         0250  8  08 00 40 00 00 00 00 00 
   628)      7720.3  Rx         0440  8  0D 6E 09 0A 00 00 00 00 
   629)      7720.7  Rx         0441  8  00 00 00 00 00 00 00 00 
   630)      7721.0  Rx         0442  8  00 00 00 00 00 00 00 00 
   631)      7721.4  Rx         0443  8  00 00 00 00 00 00 00 00 
   632)      7721.6  Rx         0210  7  FF FF 30 68 90 00 A3 
   633)      7721.8  Rx         0444  8  00 00 00 00 00 00 00 00 
   634)      7722.0  Rx         04B0  8  27 10 27 10 27 10 27 10 
   635)      7722.4  Rx         03A0  8  00 00 03 B4 00 00 00 00 
   636)      7722.7  Rx         03A1  8  80 18 08 00 25 00 EB 00 
   637)      7728.1  Rx         0265  8  FF F7 00 00 00 36 00 00 
   638)      7735.6  Rx         0210  7  FF FF 30 68 90 00 A4 
   639)      7735.8  Rx         04B0  8  27 10 27 10 27 10 27 10 
   640)      7738.0  Rx         0310  3  02 00 00 
   641)      7749.6  Rx         0210  7  FF FF 30 68 90 00 A5 
   642)      7749.8  Rx         04B0  8  27 10 27 10 27 10 27 10 
   643)      7754.1  Rx         0610  8  06 7C 04 99 13 13 00 00 
   644)      7754.4  Rx         0300  8  02 00 25 00 00 00 01 00 
   645)      7754.6  Rx         0306  8  00 00 00 00 00 00 00 00 
   646)      7754.9  Rx         0611  8  06 65 01 E3 D3 ED ED FE 
   647)      7755.1  Rx         0722  8  00 00 00 00 00 00 00 00 
   648)      7755.3  Rx         0723  8  00 00 00 00 00 00 00 00 
   649)      7755.6  Rx         0721  8  00 00 00 00 00 00 00 00 
   650)      7758.1  Rx         0359  8  02 00 00 85 00 00 00 00 
   651)      7763.6  Rx         0210  7  FF FF 30 68 90 00 A6 
   652)      7763.8  Rx         04B0  8  27 10 27 10 27 10 27 10 
   653)      7777.6  Rx         0210  7  FF FF 30 68 90 00 A7 
   654)      7777.8  Rx         04B0  8  27 10 27 10 27 10 27 10 
   655)      7791.6  Rx         0210  7  FF FF 30 68 90 00 A8 
   656)      7791.8  Rx         04B0  8  27 10 27 10 27 10 27 10 
   657)      7805.6  Rx         0210  7  FF FF 30 68 90 00 A9 
   658)      7805.8  Rx         04B0  8  27 10 27 10 27 10 27 10 
   659)      7811.7  Rx         0023  1  40 
   660)      7812.0  Rx         0460  8  03 E0 00 00 C0 00 00 00 
   661)      7818.2  Rx         0251  8  40 00 00 00 00 00 00 00 
   662)      7819.6  Rx         0210  7  FF FF 30 68 90 00 AA 
   663)      7819.9  Rx         04B0  8  27 10 27 10 27 10 27 10 
   664)      7820.3  Rx         0250  8  08 00 40 00 00 00 00 00 
   665)      7828.1  Rx         0263  6  00 00 24 76 04 00 
   666)      7833.6  Rx         0210  7  FF FF 30 68 90 00 AB 
   667)      7833.9  Rx         04B0  8  27 10 27 10 27 10 27 10 
   668)      7838.1  Rx         0264  8  00 00 51 00 01 01 00 00 
   669)      7847.7  Rx         0210  7  FF FF 30 68 90 00 AC 
   670)      7847.9  Rx         04B0  8  27 10 27 10 27 10 27 10 
   671)      7848.2  Rx         0265  8  FF FE 00 00 00 36 00 00 
   672)      7858.1  Rx         0311  2  00 00 
   673)      7861.6  Rx         0210  7  FF FF 30 68 90 00 AD 
   674)      7861.9  Rx         04B0  8  27 10 27 10 27 10 27 10 
   675)      7875.6  Rx         0210  7  FF FF 30 68 90 00 AE 
   676)      7875.9  Rx         04B0  8  27 10 27 10 27 10 27 10 
   677)      7879.1  Rx         0301  8  00 02 0F 39 00 34 00 BE 
   678)      7879.4  Rx         0302  8  00 00 00 00 09 54 08 A2 
   679)      7879.6  Rx         0304  8  00 00 00 00 00 C8 00 B4 
   680)      7879.9  Rx         0305  8  00 00 01 40 00 00 00 00 
   681)      7880.1  Rx         0303  8  0F 59 05 DC 06 00 00 00 
   682)      7889.7  Rx         0210  7  FF FF 30 68 90 00 AF 
   683)      7889.9  Rx         04B0  8  27 10 27 10 27 10 27 10 
   684)      7903.7  Rx         0210  7  FF FF 30 68 90 00 B0 
   685)      7903.9  Rx         04B0  8  27 10 27 10 27 10 27 10 
   686)      7911.4  Rx         0460  8  03 E0 00 00 C0 00 00 00 
   687)      7917.7  Rx         0210  7  FF FF 30 68 90 00 B1 
   688)      7917.9  Rx         04B0  8  27 10 27 10 27 10 27 10 
   689)      7918.2  Rx         0251  8  40 00 00 00 00 00 00 00 
   690)      7920.5  Rx         0250  8  08 00 40 00 00 00 00 00 
   691)      7920.9  Rx         0440  8  0D 6E 09 0A 00 00 00 00 
   692)      7921.2  Rx         0441  8  00 00 00 00 00 00 00 00 
   693)      7921.5  Rx         0442  8  00 00 00 00 00 00 00 00 
   694)      7922.0  Rx         0443  8  00 00 00 00 00 00 00 00 
   695)      7922.3  Rx         0444  8  00 00 00 00 00 00 00 00 
   696)      7928.2  Rx         0265  8  FF FF 00 00 00 36 00 00 
   697)      7931.7  Rx         0210  7  FF FF 30 68 90 00 B2 
   698)      7932.0  Rx         04B0  8  27 10 27 10 27 10 27 10 
   699)      7937.4  Rx         0408  8  0E 02 84 10 80 18 76 0B 
   700)      7938.1  Rx         0310  3  02 00 00 
   701)      7938.4  Rx         040B  8  00 00 05 00 00 10 60 00 
   702)      7945.7  Rx         0210  7  FF FF 30 68 90 00 B3 
   703)      7945.9  Rx         04B0  8  27 10 27 10 27 10 27 10 
   704)      7954.1  Rx         0610  8  06 7C 05 03 14 12 00 02 
   705)      7954.4  Rx         0611  8  06 69 01 79 62 ED ED FE 
   706)      7958.2  Rx         0359  8  02 00 00 85 00 00 00 00 
   707)      7959.7  Rx         0210  7  FF FF 30 68 90 00 B4 
   708)      7959.9  Rx         04B0  8  27 10 27 10 27 10 27 10 
   709)      7973.7  Rx         0210  7  FF FF 30 68 90 00 B5 
   710)      7973.9  Rx         04B0  8  27 10 27 10 27 10 27 10 
   711)      7987.7  Rx         0210  7  FF FF 30 68 90 00 B6 
   712)      7987.9  Rx         04B0  8  27 10 27 10 27 10 27 10 
   713)      8001.7  Rx         0210  7  FF FF 30 68 90 00 B7 
   714)      8002.0  Rx         04B0  8  27 10 27 10 27 10 27 10 
   715)      8011.1  Rx         0023  1  40 
   716)      8011.4  Rx         0460  8  03 E0 00 00 C0 00 00 00 
   717)      8015.7  Rx         0210  7  FF FF 30 68 90 00 B8 
   718)      8016.0  Rx         04B0  8  27 10 27 10 27 10 27 10 
   719)      8018.2  Rx         0251  8  40 00 00 00 00 00 00 00 
   720)      8020.6  Rx         0250  8  08 00 40 00 00 00 00 00 
   721)      8028.3  Rx         0264  8  00 00 51 00 01 01 00 00 
   722)      8029.8  Rx         0210  7  FF FF 30 68 90 00 B9 
   723)      8030.0  Rx         04B0  8  27 10 27 10 27 10 27 10 
   724)      8038.2  Rx         0265  8  FF FF 00 00 00 36 00 00 
   725)      8043.7  Rx         0210  7  FF FF 30 68 90 00 BA 
   726)      8044.0  Rx         04B0  8  27 10 27 10 27 10 27 10 
   727)      8048.1  Rx         0311  2  00 00 
   728)      8057.8  Rx         0210  7  FF FF 30 68 90 00 BB 
   729)      8058.0  Rx         04B0  8  27 10 27 10 27 10 27 10 
   730)      8071.8  Rx         0210  7  FF FF 30 68 90 00 BC 
   731)      8072.0  Rx         04B0  8  27 10 27 10 27 10 27 10 
   732)      8079.2  Rx         0301  8  00 01 0F 3C 00 34 00 B4 
   733)      8079.4  Rx         0302  8  00 00 00 00 09 54 08 A2 
   734)      8079.6  Rx         0304  8  00 00 00 00 00 BE 00 B4 
   735)      8079.9  Rx         0305  8  00 00 01 40 00 00 00 00 
   736)      8080.1  Rx         0303  8  0F 59 05 DC 06 00 00 00 
   737)      8085.8  Rx         0210  7  FF FF 30 68 90 00 BD 
   738)      8086.0  Rx         04B0  8  27 10 27 10 27 10 27 10 
   739)      8099.8  Rx         0210  7  FF FF 30 68 90 00 BE 
   740)      8100.0  Rx         04B0  8  27 10 27 10 27 10 27 10 
   741)      8111.1  Rx         0460  8  03 E0 00 00 C0 00 00 00 
   742)      8113.8  Rx         0210  7  FF FF 30 68 90 00 BF 
   743)      8114.1  Rx         04B0  8  27 10 27 10 27 10 27 10 
   744)      8118.3  Rx         0251  8  40 00 00 00 00 00 00 00 
   745)      8120.6  Rx         0250  8  08 00 40 00 00 00 00 00 
   746)      8120.9  Rx         0440  8  0D 6E 09 0A 00 00 00 00 
   747)      8121.4  Rx         0441  8  00 00 00 00 00 00 00 00 
   748)      8121.7  Rx         0442  8  00 00 00 00 00 00 00 00 
   749)      8122.0  Rx         0443  8  00 00 00 00 00 00 00 00 
   750)      8122.3  Rx         0444  8  00 00 00 00 00 00 00 00 
   751)      8127.8  Rx         0210  7  FF FF 30 68 90 00 C0 
   752)      8128.1  Rx         04B0  8  27 10 27 10 27 10 27 10 
   753)      8128.3  Rx         0265  8  FF FF 00 00 00 36 00 00 
   754)      8138.2  Rx         0310  3  02 00 00 
   755)      8141.8  Rx         0210  7  FF FF 30 68 90 00 C1 
   756)      8142.0  Rx         04B0  8  27 10 27 10 27 10 27 10 
   757)      8154.2  Rx         0610  8  06 7C 05 76 13 12 00 02 
   758)      8154.4  Rx         0611  8  06 6B 01 06 46 ED ED FE 
   759)      8155.8  Rx         0210  7  FF FF 30 68 90 00 C2 
   760)      8156.0  Rx         04B0  8  27 10 27 10 27 10 27 10 
   761)      8158.3  Rx         0359  8  02 00 00 85 00 00 00 00 
   762)      8167.3  Rx         0409  8  18 00 00 00 80 00 00 00 
   763)      8169.8  Rx         0210  7  FF FF 30 68 90 00 C3 
   764)      8170.1  Rx         04B0  8  27 10 27 10 27 10 27 10 
   765)      8183.8  Rx         0210  7  FF FF 30 68 90 00 C4 
   766)      8184.1  Rx         04B0  8  27 10 27 10 27 10 27 10 
   767)      8197.9  Rx         0210  7  FF FF 30 68 90 00 C5 
   768)      8198.1  Rx         04B0  8  27 10 27 10 27 10 27 10 
   769)      8210.7  Rx         0023  1  40 
   770)      8211.0  Rx         0460  8  03 E0 00 00 C0 00 00 00 
   771)      8211.8  Rx         0210  7  FF FF 30 68 90 00 C6 
   772)      8212.1  Rx         04B0  8  27 10 27 10 27 10 27 10 
   773)      8218.3  Rx         0251  8  40 00 00 00 00 00 00 00 
   774)      8220.7  Rx         0250  8  08 00 40 00 00 00 00 00 
   775)      8221.0  Rx         03A0  8  00 00 03 B4 00 00 00 00 
   776)      8221.4  Rx         03A1  8  80 18 08 00 24 00 EB 00 
   777)      8225.8  Rx         0210  7  FF FF 30 68 90 00 C7 
   778)      8226.1  Rx         04B0  8  27 10 27 10 27 10 27 10 
   779)      8228.3  Rx         0264  8  00 00 51 00 01 01 00 00 
   780)      8238.3  Rx         0265  8  FF FF 00 00 00 36 00 00 
   781)      8239.8  Rx         0210  7  FF FF 30 68 90 00 C8 
   782)      8240.1  Rx         04B0  8  27 10 27 10 27 10 27 10 
   783)      8248.2  Rx         0311  2  00 00 
   784)      8253.9  Rx         0210  7  FF FF 30 68 90 00 C9 
   785)      8254.1  Rx         04B0  8  27 10 27 10 27 10 27 10 
   786)      8267.9  Rx         0210  7  FF FF 30 68 90 00 CA 
   787)      8268.1  Rx         04B0  8  27 10 27 10 27 10 27 10 
   788)      8279.2  Rx         0301  8  00 01 0F 3C 00 34 00 B4 
   789)      8279.4  Rx         0302  8  00 00 00 00 09 54 08 A2 
   790)      8279.7  Rx         0304  8  00 00 00 00 00 BE 00 B4 
   791)      8279.9  Rx         0305  8  00 00 01 40 00 00 00 00 
   792)      8280.2  Rx         0303  8  0F 59 05 DC 06 00 00 00 
   793)      8281.9  Rx         0210  7  FF FF 30 68 90 00 CB 
   794)      8282.1  Rx         04B0  8  27 10 27 10 27 10 27 10 
   795)      8295.9  Rx         0210  7  FF FF 30 68 90 00 CC 
   796)      8296.1  Rx         04B0  8  27 10 27 10 27 10 27 10 
   797)      8309.9  Rx         0210  7  FF FF 30 68 90 00 CD 
   798)      8310.2  Rx         04B0  8  27 10 27 10 27 10 27 10 
   799)      8310.7  Rx         0460  8  03 E0 00 00 C0 00 00 00 
   800)      8318.3  Rx         0251  8  40 00 00 00 00 00 00 00 
   801)      8321.1  Rx         0250  8  08 00 40 00 00 00 00 00 
   802)      8321.4  Rx         0440  8  0D 6E 09 0A 00 00 00 00 
   803)      8321.8  Rx         0441  8  00 00 00 00 00 00 00 00 
   804)      8322.2  Rx         0442  8  00 00 00 00 00 00 00 00 
   805)      8322.5  Rx         0443  8  00 00 00 00 00 00 00 00 
   806)      8322.9  Rx         0444  8  00 00 00 00 00 00 00 00 
   807)      8323.9  Rx         0210  7  FF FF 30 68 90 00 CE 
   808)      8324.1  Rx         04B0  8  27 10 27 10 27 10 27 10 
   809)      8328.3  Rx         0263  6  00 00 24 76 05 00 
   810)      8337.9  Rx         0210  7  FF FF 30 68 90 00 CF 
   811)      8338.1  Rx         04B0  8  27 10 27 10 27 10 27 10 
   812)      8338.4  Rx         0265  8  FF FF 00 00 00 36 00 00 
   813)      8348.3  Rx         0310  3  02 00 00 
   814)      8351.9  Rx         0210  7  FF FF 30 68 90 00 D0 
   815)      8352.2  Rx         04B0  8  27 10 27 10 27 10 27 10 
   816)      8354.2  Rx         0610  8  06 7C 05 C6 13 12 00 02 
   817)      8354.4  Rx         0611  8  06 6D 00 B6 55 ED ED FE 
   818)      8365.9  Rx         0210  7  FF FF 30 68 90 00 D1 
   819)      8366.2  Rx         04B0  8  27 10 27 10 27 10 27 10 
   820)      8368.3  Rx         0359  8  02 00 00 85 00 00 00 00 
   821)      8380.0  Rx         0210  7  FF FF 30 68 90 00 D2 
   822)      8380.2  Rx         04B0  8  27 10 27 10 27 10 27 10 
   823)      8393.9  Rx         0210  7  FF FF 30 68 90 00 D3 
   824)      8394.2  Rx         04B0  8  27 10 27 10 27 10 27 10 
   825)      8407.9  Rx         0210  7  FF FF 30 68 90 00 D4 
   826)      8408.2  Rx         04B0  8  27 10 27 10 27 10 27 10 
   827)      8410.3  Rx         0023  1  40 
   828)      8410.6  Rx         0460  8  03 E0 00 00 C0 00 00 00 
   829)      8418.4  Rx         0251  8  40 00 00 00 00 00 00 00 
   830)      8421.2  Rx         0250  8  08 00 40 00 00 00 00 00 
   831)      8422.0  Rx         0210  7  FF FF 30 68 90 00 D5 
   832)      8422.2  Rx         04B0  8  27 10 27 10 27 10 27 10 
   833)      8428.4  Rx         0264  8  00 00 51 00 01 01 00 00 
   834)      8436.0  Rx         0210  7  FF FF 30 68 90 00 D6 
   835)      8436.2  Rx         04B0  8  27 10 27 10 27 10 27 10 
   836)      8436.9  Rx         0408  8  0E 02 84 10 80 18 76 0B 
   837)      8437.5  Rx         040B  8  00 00 05 00 00 00 60 00 
   838)      8438.4  Rx         0265  8  FF FF 00 00 00 36 00 00 
   839)      8448.3  Rx         0311  2  00 00 
   840)      8450.0  Rx         0210  7  FF FF 30 68 90 00 D7 
   841)      8450.2  Rx         04B0  8  27 10 27 10 27 10 27 10 
   842)      8464.0  Rx         0210  7  FF FF 30 68 90 00 D8 
   843)      8464.2  Rx         04B0  8  27 10 27 10 27 10 27 10 
   844)      8478.0  Rx         0210  7  FF FF 30 68 90 00 D9 
   845)      8478.2  Rx         04B0  8  27 10 27 10 27 10 27 10 
   846)      8479.2  Rx         0301  8  00 01 0F 3C 00 34 00 B4 
   847)      8479.5  Rx         0302  8  00 00 00 00 09 54 08 A2 
   848)      8479.7  Rx         0304  8  00 00 00 00 00 BE 00 B4 
   849)      8480.0  Rx         0305  8  00 00 01 40 00 00 00 00 
   850)      8480.2  Rx         0303  8  0F 59 05 DC 06 00 00 00 
   851)      8492.0  Rx         0210  7  FF FF 30 68 90 00 DA 
   852)      8492.3  Rx         04B0  8  27 10 27 10 27 10 27 10 
   853)      8506.0  Rx         0210  7  FF FF 30 68 90 00 DB 
   854)      8506.2  Rx         04B0  8  27 10 27 10 27 10 27 10 
   855)      8510.2  Rx         0460  8  03 E0 00 00 00 00 00 00 
   856)      8518.4  Rx         0251  8  40 00 00 00 00 00 00 00 
   857)      8520.0  Rx         0210  7  FF FF 30 68 90 00 DC 
   858)      8520.2  Rx         04B0  8  27 10 27 10 27 10 27 10 
   859)      8521.3  Rx         0250  8  08 00 40 00 00 00 00 00 
   860)      8521.7  Rx         0440  8  0D 6E 09 0A 00 00 00 00 
   861)      8522.1  Rx         0441  8  00 00 00 00 00 00 00 00 
   862)      8522.4  Rx         0442  8  00 00 00 00 00 00 00 00 
   863)      8522.7  Rx         0443  8  00 00 00 00 00 00 00 00 
   864)      8523.1  Rx         0444  8  00 00 00 00 00 00 00 00 
   865)      8528.4  Rx         0265  8  FF FF 00 00 00 36 00 00 
   866)      8534.0  Rx         0210  7  FF FF 30 68 90 00 DD 
   867)      8534.3  Rx         04B0  8  27 10 27 10 27 10 27 10 
   868)      8538.3  Rx         0310  3  02 00 00 
   869)      8548.1  Rx         0210  7  FF FF 30 68 90 00 DE 
   870)      8548.3  Rx         04B0  8  27 10 27 10 27 10 27 10 
   871)      8554.2  Rx         0610  8  06 7C 05 ED 13 12 00 02 
   872)      8554.5  Rx         0611  8  06 6E 00 8F 8A ED ED FE 
   873)      8558.4  Rx         0359  8  02 00 00 85 00 00 00 00 
   874)      8562.1  Rx         0210  7  FF FF 30 68 90 00 DF 
   875)      8562.3  Rx         04B0  8  27 10 27 10 27 10 27 10 
   876)      8576.0  Rx         0210  7  FF FF 30 68 90 00 E0 
   877)      8576.3  Rx         04B0  8  27 10 27 10 27 10 27 10 
   878)      8590.0  Rx         0210  7  FF FF 30 28 90 00 E1 
   879)      8590.3  Rx         04B0  8  27 10 27 10 27 10 27 10 
   880)      8604.1  Rx         0210  7  FF FF 30 28 90 00 E2 
   881)      8604.3  Rx         04B0  8  27 10 27 10 27 10 27 10 
   882)      8609.9  Rx         0023  1  40 
   883)      8610.3  Rx         0460  8  03 E0 00 00 00 00 00 00 
   884)      8618.1  Rx         0210  7  FF FF 30 28 90 00 E3 
   885)      8618.3  Rx         04B0  8  27 10 27 10 27 10 27 10 
   886)      8618.5  Rx         0251  8  40 00 00 00 00 00 00 00 
   887)      8621.3  Rx         0250  8  08 00 40 00 00 00 00 00 
   888)      8628.5  Rx         0264  8  00 00 41 00 01 01 00 00 
   889)      8632.1  Rx         0210  7  FF FF 30 28 90 00 E4 
   890)      8632.4  Rx         04B0  8  27 10 27 10 27 10 27 10 
   891)      8638.5  Rx         0265  8  FF FF 00 00 00 36 00 00 
   892)      8646.1  Rx         0210  7  FF FF 30 28 90 00 E5 
   893)      8646.3  Rx         04B0  8  27 10 27 10 27 10 27 10 
   894)      8648.3  Rx         0311  2  00 00 
   895)      8660.1  Rx         0210  7  FF FF 30 28 90 00 E6 
   896)      8660.3  Rx         04B0  8  27 10 27 10 27 10 27 10 
   897)      8666.7  Rx         0409  8  18 00 00 00 00 00 00 00 
   898)      8674.1  Rx         0210  7  FF FF 30 28 90 00 E7 
   899)      8674.3  Rx         04B0  8  27 10 27 10 27 10 27 10 
   900)      8679.3  Rx         0301  8  00 01 0F 3C 00 34 00 AA 
   901)      8679.6  Rx         0302  8  00 00 00 00 09 54 08 A2 
   902)      8679.8  Rx         0304  8  00 00 00 00 00 B4 00 AA 
   903)      8680.1  Rx         0305  8  00 00 01 40 00 00 00 00 
   904)      8680.3  Rx         0303  8  0F 59 05 DC 06 00 00 00 
   905)      8688.1  Rx         0210  7  FF FF 30 28 90 00 E8 
   906)      8688.3  Rx         04B0  8  27 10 27 10 27 10 27 10 
   907)      8702.1  Rx         0210  7  FF FF 30 28 90 00 E9 
   908)      8702.3  Rx         04B0  8  27 10 27 10 27 10 27 10 
   909)      8709.8  Rx         0460  8  03 E0 00 00 00 00 00 00 
   910)      8716.1  Rx         0210  7  FF FF 30 28 90 00 EA 
   911)      8716.4  Rx         04B0  8  27 10 27 10 27 10 27 10 
   912)      8718.5  Rx         0251  8  40 00 00 00 00 00 00 00 
   913)      8721.7  Rx         0250  8  08 00 40 00 00 00 00 00 
   914)      8722.0  Rx         0440  8  0D 6E 09 0A 00 00 00 00 
   915)      8722.4  Rx         0441  8  00 00 00 00 00 00 00 00 
   916)      8722.7  Rx         0442  8  00 00 00 00 00 00 00 00 
   917)      8723.1  Rx         0443  8  00 00 00 00 00 00 00 00 
   918)      8723.4  Rx         0444  8  00 00 00 00 00 00 00 00 
   919)      8723.8  Rx         03A0  8  00 00 03 B4 00 00 00 00 
   920)      8724.2  Rx         03A1  8  80 18 08 00 24 00 EB 00 
   921)      8728.5  Rx         0265  8  FF FF 00 00 00 36 00 00 
   922)      8730.2  Rx         0210  7  FF FF 30 28 90 00 EB 
   923)      8730.4  Rx         04B0  8  27 10 27 10 27 10 27 10 
   924)      8738.4  Rx         0310  3  02 00 00 
   925)      8744.2  Rx         0210  7  FF FF 30 28 90 00 EC 
   926)      8744.4  Rx         04B0  8  27 10 27 10 27 10 27 10 
   927)      8754.3  Rx         0610  8  06 7C 06 17 12 11 00 02 
   928)      8754.5  Rx         0300  8  02 00 25 00 00 00 01 00 
   929)      8754.7  Rx         0306  8  00 00 00 00 00 00 00 00 
   930)      8755.0  Rx         0611  8  06 6F 00 65 B5 ED ED FE 
   931)      8755.2  Rx         0722  8  00 00 00 00 00 00 00 00 
   932)      8755.5  Rx         0723  8  00 00 00 00 00 00 00 00 
   933)      8755.7  Rx         0721  8  00 00 00 00 00 00 00 00 
   934)      8758.1  Rx         0210  7  FF FF 30 28 90 00 ED 
   935)      8758.4  Rx         04B0  8  27 10 27 10 27 10 27 10 
   936)      8758.6  Rx         0359  8  02 00 00 85 00 00 00 00 
   937)      8772.2  Rx         0210  7  FF FF 30 28 90 00 EE 
   938)      8772.4  Rx         04B0  8  27 10 27 10 27 10 27 10 
   939)      8786.2  Rx         0210  7  FF FF 30 28 90 00 EF 
   940)      8786.5  Rx         04B0  8  27 10 27 10 27 10 27 10 
   941)      8800.2  Rx         0210  7  FF FF 30 28 90 00 F0 
   942)      8800.5  Rx         04B0  8  27 10 27 10 27 10 27 10 
   943)      8809.5  Rx         0023  1  40 
   944)      8809.9  Rx         0460  8  03 E0 00 00 00 00 00 00 
   945)      8814.2  Rx         0210  7  FF FF 30 28 90 00 F1 
   946)      8814.5  Rx         04B0  8  27 10 27 10 27 10 27 10 
   947)      8818.5  Rx         0251  8  40 00 00 00 00 00 00 00 
   948)      8821.7  Rx         0250  8  08 00 40 00 00 00 00 00 
   949)      8828.2  Rx         0210  7  FF FF 30 28 90 00 F2 
   950)      8828.4  Rx         04B0  8  27 10 27 10 27 10 27 10 
   951)      8828.7  Rx         0263  6  00 00 24 76 06 00 
   952)      8838.6  Rx         0264  8  00 00 41 00 01 01 00 00 
   953)      8842.2  Rx         0210  7  FF FF 30 28 90 00 F3 
   954)      8842.5  Rx         04B0  8  27 10 27 10 27 10 27 10 
   955)      8848.6  Rx         0265  8  FF FF 00 00 00 36 00 00 
   956)      8856.2  Rx         0210  7  FF FF 30 28 90 00 F4 
   957)      8856.5  Rx         04B0  8  27 10 27 10 27 10 27 10 
   958)      8858.4  Rx         0311  2  00 00 
   959)      8870.3  Rx         0210  7  FF FF 30 28 90 00 F5 
   960)      8870.5  Rx         04B0  8  27 10 27 10 27 10 27 10 
   961)      8879.3  Rx         0301  8  00 02 0F 3C 00 34 00 AA 
   962)      8879.6  Rx         0302  8  00 00 00 00 09 54 08 A2 
   963)      8879.8  Rx         0304  8  00 00 00 00 00 B4 00 AA 
   964)      8880.1  Rx         0305  8  00 00 01 40 00 00 00 00 
   965)      8880.3  Rx         0303  8  0F 59 05 DC 06 00 00 00 
   966)      8884.3  Rx         0210  7  FF FF 30 28 90 00 F6 
   967)      8884.5  Rx         04B0  8  27 10 27 10 27 10 27 10 
   968)      8898.2  Rx         0210  7  FF FF 30 28 90 00 F7 
   969)      8898.5  Rx         04B0  8  27 10 27 10 27 10 27 10 
   970)      8909.4  Rx         0460  8  03 E0 00 00 00 00 00 00 
   971)      8912.3  Rx         0210  7  FF FF 30 28 90 00 F8 
   972)      8912.5  Rx         04B0  8  27 10 27 10 27 10 27 10 
   973)      8918.6  Rx         0251  8  40 00 00 00 00 00 00 00 
   974)      8922.0  Rx         0250  8  08 00 40 00 00 00 00 00 
   975)      8922.4  Rx         0440  8  0D 6E 09 0A 00 00 00 00 
   976)      8922.7  Rx         0441  8  00 00 00 00 00 00 00 00 
   977)      8923.1  Rx         0442  8  00 00 00 00 00 00 00 00 
   978)      8923.4  Rx         0443  8  00 00 00 00 00 00 00 00 
   979)      8923.8  Rx         0444  8  00 00 00 00 00 00 00 00 
   980)      8926.3  Rx         0210  7  FF FF 30 28 90 00 F9 
   981)      8926.5  Rx         04B0  8  27 10 27 10 27 10 27 10 
   982)      8928.6  Rx         0265  8  FF FF 00 00 00 36 00 00 
   983)      8936.6  Rx         0408  8  0E 02 84 10 80 18 76 0B 
   984)      8937.2  Rx         040B  8  00 00 05 00 00 00 60 00 
   985)      8938.5  Rx         0310  3  02 00 00 
   986)      8940.3  Rx         0210  7  FF FF 30 28 90 00 FA 
   987)      8940.5  Rx         04B0  8  27 10 27 10 27 10 27 10 
   988)      8954.3  Rx         0210  7  FF FF 30 28 90 00 FB 
   989)      8954.5  Rx         04B0  8  27 10 27 10 27 10 27 10 
   990)      8954.8  Rx         0610  8  06 7C 06 1A 12 11 00 02 
   991)      8955.0  Rx         0611  8  06 70 00 62 D1 ED EC FE 
   992)      8958.6  Rx         0359  8  02 00 00 85 00 00 00 00 
   993)      8968.3  Rx         0210  7  FF FF 30 28 90 00 FC 
   994)      8968.5  Rx         04B0  8  27 10 27 10 27 10 27 10 
   995)      8982.3  Rx         0210  7  FF FF 30 28 90 00 FD 
   996)      8982.6  Rx         04B0  8  27 10 27 10 27 10 27 10 
   997)      8996.3  Rx         0210  7  FF FF 30 28 90 00 FE 
   998)      8996.5  Rx         04B0  8  27 10 27 10 27 10 27 10 
   999)      9009.2  Rx         0023  1  40 
  1000)      9009.5  Rx         0460  8  03 E0 00 00 00 00 00 00 
  1001)      9010.3  Rx         0210  7  FF FF 30 28 90 00 FF 
  1002)      9010.6  Rx         04B0  8  27 10 27 10 27 10 27 10 
  1003)      9018.7  Rx         0251  8  40 00 00 00 00 00 00 00 
  1004)      9022.0  Rx         0250  8  08 00 40 00 00 00 00 00 
  1005)      9024.3  Rx         0210  7  FF FF 30 28 90 00 00 
  1006)      9024.6  Rx         04B0  8  27 10 27 10 27 10 27 10 
  1007)      9028.6  Rx         0264  8  00 00 41 00 01 01 00 00 
  1008)      9038.4  Rx         0210  7  FF FF 30 28 90 00 01 
  1009)      9038.6  Rx         04B0  8  27 10 27 10 27 10 27 10 
  1010)      9038.8  Rx         0265  8  FF FF 00 00 00 36 00 00 
  1011)      9048.6  Rx         0311  2  00 00 
  1012)      9052.4  Rx         0210  7  FF FF 30 28 90 00 02 
  1013)      9052.6  Rx         04B0  8  27 10 27 10 27 10 27 10 
  1014)      9066.4  Rx         0210  7  FF FF 30 28 90 00 03 
  1015)      9066.6  Rx         04B0  8  27 10 27 10 27 10 27 10 
  1016)      9079.3  Rx         0301  8  00 01 0F 3C 00 34 00 AA 
  1017)      9079.6  Rx         0302  8  00 00 00 00 09 54 08 A2 
  1018)      9079.8  Rx         0304  8  00 00 00 00 00 B4 00 AA 
  1019)      9080.1  Rx         0305  8  00 00 01 40 00 00 00 00 
  1020)      9080.3  Rx         0303  8  0F 59 05 DC 06 00 00 00 
  1021)      9080.5  Rx         0210  7  FF FF 30 28 90 00 04 
  1022)      9080.8  Rx         04B0  8  27 10 27 10 27 10 27 10 
  1023)      9094.4  Rx         0210  7  FF FF 30 28 90 00 05 
  1024)      9094.6  Rx         04B0  8  27 10 27 10 27 10 27 10 
  1025)      9108.4  Rx         0210  7  FF FF 30 28 90 00 06 
  1026)      9108.6  Rx         04B0  8  27 10 27 10 27 10 27 10 
  1027)      9109.0  Rx         0460  8  03 E0 00 00 00 00 00 00 
  1028)      9118.7  Rx         0251  8  40 00 00 00 00 00 00 00 
  1029)      9122.1  Rx         0250  8  08 00 40 00 00 00 00 00 
  1030)      9122.4  Rx         0440  8  0D 6E 09 0A 00 00 00 00 
  1031)      9122.6  Rx         0210  7  FF FF 30 28 90 00 07 
  1032)      9122.9  Rx         0441  8  00 00 00 00 00 00 00 00 
  1033)      9123.1  Rx         04B0  8  27 10 27 10 27 10 27 10 
  1034)      9123.4  Rx         0442  8  00 00 00 00 00 00 00 00 
  1035)      9123.8  Rx         0443  8  00 00 00 00 00 00 00 00 
  1036)      9124.2  Rx         0444  8  00 00 00 00 00 00 00 00 
  1037)      9128.6  Rx         0265  8  FF FF 00 00 00 36 00 00 
  1038)      9136.4  Rx         0210  7  FF FF 30 28 90 00 08 
  1039)      9136.6  Rx         04B0  8  27 10 27 10 27 10 27 10 
  1040)      9138.6  Rx         0310  3  02 00 00 
  1041)      9150.4  Rx         0210  7  FF FF 30 28 90 00 09 
  1042)      9150.7  Rx         04B0  8  27 10 27 10 27 10 27 10 
  1043)      9154.3  Rx         0610  8  06 7C 06 1A 12 11 00 00 
  1044)      9154.5  Rx         0611  8  06 71 00 62 E0 ED EB FE 
  1045)      9158.6  Rx         0359  8  02 00 00 85 00 00 00 00 
  1046)      9164.4  Rx         0210  7  FF FF 30 28 90 00 0A 
  1047)      9164.7  Rx         04B0  8  27 10 27 10 27 10 27 10 
  1048)      9166.3  Rx         0409  8  18 00 00 00 00 00 00 00 
  1049)      9178.4  Rx         0210  7  FF FF 30 28 90 00 0B 
  1050)      9178.6  Rx         04B0  8  27 10 27 10 27 10 27 10 
  1051)      9192.4  Rx         0210  7  FF FF 30 28 90 00 0C 
  1052)      9192.6  Rx         04B0  8  27 10 27 10 27 10 27 10 
  1053)      9206.4  Rx         0210  7  FF FF 30 28 90 00 0D 
  1054)      9206.7  Rx         04B0  8  27 10 27 10 27 10 27 10 
  1055)      9208.7  Rx         0023  1  40 
  1056)      9209.1  Rx         0460  8  03 E0 00 00 00 00 00 00 
  1057)      9218.7  Rx         0251  8  40 00 00 00 00 00 00 00 
  1058)      9220.5  Rx         0210  7  FF FF 30 28 90 00 0E 
  1059)      9220.7  Rx         04B0  8  27 10 27 10 27 10 27 10 
  1060)      9222.2  Rx         0250  8  08 00 40 00 00 00 00 00 
  1061)      9222.6  Rx         03A0  8  00 00 03 B4 00 00 00 00 
  1062)      9222.9  Rx         03A1  8  80 18 08 00 24 00 EB 00 
  1063)      9228.7  Rx         0264  8  00 00 41 00 01 01 00 00 
  1064)      9234.5  Rx         0210  7  FF FF 30 28 90 00 0F 
  1065)      9234.7  Rx         04B0  8  27 10 27 10 27 10 27 10 
  1066)      9238.7  Rx         0265  8  FF FF 00 00 00 36 00 00 
  1067)      9248.4  Rx         0210  7  FF FF 30 28 90 00 10 
  1068)      9248.6  Rx         0311  2  00 00 
  1069)      9248.8  Rx         04B0  8  27 10 27 10 27 10 27 10 
  1070)      9262.5  Rx         0210  7  FF FF 30 28 90 00 11 
  1071)      9262.7  Rx         04B0  8  27 10 27 10 27 10 27 10 
  1072)      9276.5  Rx         0210  7  FF FF 30 28 90 00 12 
  1073)      9276.8  Rx         04B0  8  27 10 27 10 27 10 27 10 
  1074)      9279.3  Rx         0301  8  00 01 0F 3C 00 34 00 AA 
  1075)      9279.6  Rx         0302  8  00 00 00 00 09 54 08 A2 
  1076)      9279.9  Rx         0304  8  00 00 00 00 00 B4 00 AA 
  1077)      9280.1  Rx         0305  8  00 00 01 40 00 00 00 00 
  1078)      9280.3  Rx         0303  8  0F 59 05 DC 06 00 00 00 
  1079)      9290.5  Rx         0210  7  FF FF 30 28 90 00 13 
  1080)      9290.7  Rx         04B0  8  27 10 27 10 27 10 27 10 
  1081)      9304.5  Rx         0210  7  FF FF 30 28 90 00 14 
  1082)      9304.7  Rx         04B0  8  27 10 27 10 27 10 27 10 
  1083)      9308.6  Rx         0460  8  03 E0 00 00 00 00 00 00 
  1084)      9318.5  Rx         0210  7  FF FF 30 28 90 00 15 
  1085)      9318.8  Rx         0251  8  40 00 00 00 00 00 00 00 
  1086)      9319.0  Rx         04B0  8  27 10 27 10 27 10 27 10 
  1087)      9322.6  Rx         0250  8  08 00 40 00 00 00 00 00 
  1088)      9322.9  Rx         0440  8  0D 6E 09 0A 00 00 00 00 
  1089)      9323.3  Rx         0441  8  00 00 00 00 00 00 00 00 
  1090)      9323.7  Rx         0442  8  00 00 00 00 00 00 00 00 
  1091)      9324.1  Rx         0443  8  00 00 00 00 00 00 00 00 
  1092)      9324.4  Rx         0444  8  00 00 00 00 00 00 00 00 
  1093)      9328.7  Rx         0263  6  00 00 24 76 07 00 
  1094)      9332.5  Rx         0210  7  FF FF 30 28 90 00 16 
  1095)      9332.8  Rx         04B0  8  27 10 27 10 27 10 27 10 
  1096)      9338.7  Rx         0265  8  FF FF 00 00 00 36 00 00 
  1097)      9346.5  Rx         0210  7  FF FF 30 28 90 00 17 
  1098)      9346.8  Rx         04B0  8  27 10 27 10 27 10 27 10 
  1099)      9348.7  Rx         0310  3  02 00 00 
  1100)      9354.3  Rx         0610  8  06 7C 06 1A 12 11 00 00 
  1101)      9354.6  Rx         0611  8  06 71 00 62 E7 ED EA FD 
  1102)      9360.5  Rx         0210  7  FF FF 30 28 90 00 18 
  1103)      9360.7  Rx         04B0  8  27 10 27 10 27 10 27 10 
  1104)      9368.7  Rx         0359  8  02 00 00 85 00 00 00 00 
  1105)      9374.5  Rx         0210  7  FF FF 30 28 90 00 19 
  1106)      9374.8  Rx         04B0  8  27 10 27 10 27 10 27 10 
  1107)      9388.5  Rx         0210  7  FF FF 30 28 90 00 1A 
  1108)      9388.8  Rx         04B0  8  27 10 27 10 27 10 27 10 
  1109)      9402.6  Rx         0210  7  FF FF 30 28 90 00 1B 
  1110)      9402.8  Rx         04B0  8  27 10 27 10 27 10 27 10 
  1111)      9408.2  Rx         0023  1  40 
  1112)      9408.5  Rx         0460  8  03 E0 00 00 00 00 00 00 
  1113)      9416.6  Rx         0210  7  FF FF 30 28 90 00 1C 
  1114)      9416.8  Rx         04B0  8  27 10 27 10 27 10 27 10 
  1115)      9418.8  Rx         0251  8  40 00 00 00 00 00 00 00 
  1116)      9422.7  Rx         0250  8  08 00 40 00 00 00 00 00 
  1117)      9428.8  Rx         0264  8  00 00 41 00 01 01 00 00 
  1118)      9430.5  Rx         0210  7  FF FF 30 28 90 00 1D 
  1119)      9430.8  Rx         04B0  8  27 10 27 10 27 10 27 10 
  1120)      9436.1  Rx         0408  8  0E 02 84 10 80 18 76 0B 
  1121)      9436.6  Rx         040B  8  00 00 05 00 00 00 60 00 
  1122)      9438.8  Rx         0265  8  FF FF 00 00 00 36 00 00 
  1123)      9444.6  Rx         0210  7  FF FF 30 28 90 00 1E 
  1124)      9444.8  Rx         04B0  8  27 10 27 10 27 10 27 10 
  1125)      9448.7  Rx         0311  2  00 00 
  1126)      9458.6  Rx         0210  7  FF FF 30 28 90 00 1F 
  1127)      9458.8  Rx         04B0  8  27 10 27 10 27 10 27 10 
  1128)      9472.6  Rx         0210  7  FF FF 30 28 90 00 20 
  1129)      9472.8  Rx         04B0  8  27 10 27 10 27 10 27 10 
  1130)      9479.4  Rx         0301  8  00 01 0F 3C 00 34 00 AA 
  1131)      9479.6  Rx         0302  8  00 00 00 00 09 54 08 A2 
  1132)      9479.9  Rx         0304  8  00 00 00 00 00 B4 00 AA 
  1133)      9480.1  Rx         0305  8  00 00 01 40 00 00 00 00 
  1134)      9480.3  Rx         0303  8  0F 59 05 DC 06 00 00 00 
  1135)      9486.6  Rx         0210  7  FF FF 30 28 90 00 21 
  1136)      9486.8  Rx         04B0  8  27 10 27 10 27 10 27 10 
  1137)      9500.6  Rx         0210  7  FF FF 30 28 90 00 22 
  1138)      9500.9  Rx         04B0  8  27 10 27 10 27 10 27 10 
  1139)      9508.2  Rx         0460  8  03 E0 00 00 00 00 00 00 
  1140)      9514.6  Rx         0210  7  FF FF 30 28 90 00 23 
  1141)      9514.9  Rx         04B0  8  27 10 27 10 27 10 27 10 
  1142)      9518.8  Rx         0251  8  40 00 00 00 00 00 00 00 
  1143)      9522.9  Rx         0250  8  08 00 40 00 00 00 00 00 
  1144)      9523.2  Rx         0440  8  0D 6E 09 0A 00 00 00 00 
  1145)      9523.5  Rx         0441  8  00 00 00 00 00 00 00 00 
  1146)      9523.9  Rx         0442  8  00 00 00 00 00 00 00 00 
  1147)      9524.2  Rx         0443  8  00 00 00 00 00 00 00 00 
  1148)      9524.6  Rx         0444  8  00 00 00 00 00 00 00 00 
  1149)      9528.6  Rx         0210  7  FF FF 30 28 90 00 24 
  1150)      9528.9  Rx         0265  8  FF FF 00 00 00 36 00 00 
  1151)      9529.1  Rx         04B0  8  27 10 27 10 27 10 27 10 
  1152)      9538.7  Rx         0310  3  02 00 00 
  1153)      9542.6  Rx         0210  7  FF FF 30 28 90 00 25 
  1154)      9542.8  Rx         04B0  8  27 10 27 10 27 10 27 10 
  1155)      9554.4  Rx         0610  8  06 7C 06 1A 12 11 00 00 
  1156)      9554.6  Rx         0611  8  06 71 00 62 EA ED E9 FD 
  1157)      9556.6  Rx         0210  7  FF FF 30 28 90 00 26 
  1158)      9556.9  Rx         04B0  8  27 10 27 10 27 10 27 10 
  1159)      9558.8  Rx         0359  8  02 00 00 85 00 00 00 00 
  1160)      9570.7  Rx         0210  7  FF FF 30 28 90 00 27 
  1161)      9570.9  Rx         04B0  8  27 10 27 10 27 10 27 10 
  1162)      9584.7  Rx         0210  7  FF FF 30 28 90 00 28 
  1163)      9584.9  Rx         04B0  8  27 10 27 10 27 10 27 10 
  1164)      9598.7  Rx         0210  7  FF FF 30 28 90 00 29 
  1165)      9598.9  Rx         04B0  8  27 10 27 10 27 10 27 10 
  1166)      9607.8  Rx         0023  1  40 
  1167)      9608.1  Rx         0460  8  03 E0 00 00 00 00 00 00 
  1168)      9612.7  Rx         0210  7  FF FF 30 28 90 00 2A 
  1169)      9612.9  Rx         04B0  8  27 10 27 10 27 10 27 10 
  1170)      9618.8  Rx         0251  8  40 00 00 00 00 00 00 00 
  1171)      9622.9  Rx         0250  8  08 00 40 00 00 00 00 00 
  1172)      9626.7  Rx         0210  7  FF FF 30 28 90 00 2B 
  1173)      9626.9  Rx         04B0  8  27 10 27 10 27 10 27 10 
  1174)      9628.9  Rx         0264  8  00 00 41 00 01 01 00 00 
  1175)      9638.8  Rx         0265  8  FF FF 00 00 00 36 00 00 
  1176)      9640.7  Rx         0210  7  FF FF 30 28 90 00 2C 
  1177)      9640.9  Rx         04B0  8  27 10 27 10 27 10 27 10 
  1178)      9648.7  Rx         0311  2  00 00 
  1179)      9654.7  Rx         0210  7  FF FF 30 28 90 00 2D 
  1180)      9654.9  Rx         04B0  8  27 10 27 10 27 10 27 10 
  1181)      9665.8  Rx         0409  8  18 00 00 00 00 00 00 00 
  1182)      9668.7  Rx         0210  7  FF FF 30 28 90 00 2E 
  1183)      9669.0  Rx         04B0  8  27 10 27 10 27 10 27 10 
  1184)      9679.4  Rx         0301  8  00 01 0F 3C 00 38 00 AA 
  1185)      9679.6  Rx         0302  8  00 00 00 00 09 54 08 A2 
  1186)      9679.9  Rx         0304  8  00 00 00 00 00 B4 00 AA 
  1187)      9680.1  Rx         0305  8  00 00 01 40 00 00 00 00 
  1188)      9680.4  Rx         0303  8  0F 59 05 4F 06 00 00 00 
  1189)      9682.7  Rx         0210  7  FF FF 30 28 90 00 2F 
  1190)      9683.0  Rx         04B0  8  27 10 27 10 27 10 27 10 
  1191)      9696.7  Rx         0210  7  FF FF 30 28 90 00 30 
  1192)      9697.0  Rx         04B0  8  27 10 27 10 27 10 27 10 
  1193)      9707.9  Rx         0460  8  03 E0 00 00 00 00 00 00 
  1194)      9710.7  Rx         0210  7  FF FF 30 28 90 00 31 
  1195)      9710.9  Rx         04B0  8  27 10 27 10 27 10 27 10 
  1196)      9718.9  Rx         0251  8  40 00 00 00 00 00 00 00 
  1197)      9723.0  Rx         0250  8  08 00 40 00 00 00 00 00 
  1198)      9723.4  Rx         0440  8  0D 6E 09 0A 00 00 00 00 
  1199)      9723.7  Rx         0441  8  00 00 00 00 00 00 00 00 
  1200)      9724.0  Rx         0442  8  00 00 00 00 00 00 00 00 
  1201)      9724.4  Rx         0443  8  00 00 00 00 00 00 00 00 
  1202)      9724.7  Rx         0210  7  FF FF 30 28 90 00 32 
  1203)      9725.0  Rx         0444  8  00 00 00 00 00 00 00 00 
  1204)      9725.2  Rx         04B0  8  27 10 27 10 27 10 27 10 
  1205)      9725.5  Rx         03A0  8  00 00 03 B0 00 00 00 00 
  1206)      9725.8  Rx         03A1  8  80 18 08 00 24 00 EB 00 
  1207)      9728.9  Rx         0265  8  FF FF 00 00 00 3A 00 00 
  1208)      9738.7  Rx         0210  7  FF FF 30 28 90 00 33 
  1209)      9738.9  Rx         0310  3  02 00 00 
  1210)      9739.2  Rx         04B0  8  27 10 27 10 27 10 27 10 
  1211)      9752.8  Rx         0210  7  FF FF 30 28 90 00 34 
  1212)      9753.0  Rx         04B0  8  27 10 27 10 27 10 27 10 
  1213)      9754.4  Rx         0610  8  06 7C 06 1A 12 11 00 00 
  1214)      9754.7  Rx         0300  8  02 00 25 00 00 00 01 00 
  1215)      9754.9  Rx         0306  8  00 00 00 00 00 00 00 00 
  1216)      9755.2  Rx         0611  8  06 71 00 62 EC EC E8 FC 
  1217)      9755.4  Rx         0722  8  00 00 00 00 00 00 00 00 
  1218)      9755.7  Rx         0723  8  00 00 00 00 00 00 00 00 
  1219)      9755.9  Rx         0721  8  00 00 00 00 00 00 00 00 
  1220)      9758.9  Rx         0359  8  02 00 00 85 00 00 00 00 
  1221)      9766.8  Rx         0210  7  FF FF 30 28 90 00 35 
  1222)      9767.0  Rx         04B0  8  27 10 27 10 27 10 27 10 
  1223)      9780.8  Rx         0210  7  FF FF 30 28 90 00 36 
  1224)      9781.0  Rx         04B0  8  27 10 27 10 27 10 27 10 
  1225)      9794.8  Rx         0210  7  FF FF 30 28 90 00 37 
  1226)      9795.0  Rx         04B0  8  27 10 27 10 27 10 27 10 
  1227)      9807.4  Rx         0023  1  40 
  1228)      9807.7  Rx         0460  8  03 E0 00 00 00 00 00 00 
  1229)      9808.8  Rx         0210  7  FF FF 30 28 90 00 38 
  1230)      9809.0  Rx         04B0  8  27 10 27 10 27 10 27 10 
  1231)      9818.9  Rx         0251  8  40 00 00 00 00 00 00 00 
  1232)      9822.8  Rx         0210  7  FF FF 30 28 90 00 39 
  1233)      9823.1  Rx         04B0  8  27 10 27 10 27 10 27 10 
  1234)      9823.3  Rx         0250  8  08 00 40 00 00 00 00 00 
  1235)      9828.9  Rx         0263  6  00 00 24 76 08 00 
  1236)      9836.8  Rx         0210  7  FF FF 30 28 90 00 3A 
  1237)      9837.1  Rx         04B0  8  27 10 27 10 27 10 27 10 
  1238)      9839.0  Rx         0264  8  00 00 41 00 01 01 00 00 
  1239)      9848.9  Rx         0265  8  FF FF 00 00 00 3A 00 00 
  1240)      9850.8  Rx         0210  7  FF FF 30 28 90 00 3B 
  1241)      9851.1  Rx         04B0  8  27 10 27 10 27 10 27 10 
  1242)      9858.9  Rx         0311  2  00 00 
  1243)      9864.8  Rx         0210  7  FF FF 30 28 90 00 3C 
  1244)      9865.1  Rx         04B0  8  27 10 27 10 27 10 27 10 
  1245)      9878.8  Rx         0210  7  FF FF 30 28 90 00 3D 
  1246)      9879.1  Rx         04B0  8  27 10 27 10 27 10 27 10 
  1247)      9879.5  Rx         0301  8  00 01 0F 3C 00 38 00 AA 
  1248)      9879.7  Rx         0302  8  00 00 00 00 09 54 08 A2 
  1249)      9880.0  Rx         0304  8  00 00 00 00 00 B4 00 AA 
  1250)      9880.2  Rx         0305  8  00 00 01 40 00 00 00 00 
  1251)      9880.4  Rx         0303  8  0F 59 05 4F 06 00 00 00 
  1252)      9892.9  Rx         0210  7  FF FF 30 28 90 00 3E 
  1253)      9893.1  Rx         04B0  8  27 10 27 10 27 10 27 10 
  1254)      9906.9  Rx         0210  7  FF FF 30 28 90 00 3F 
  1255)      9907.1  Rx         04B0  8  27 10 27 10 27 10 27 10 
  1256)      9907.3  Rx         0460  8  03 E0 00 00 00 00 00 00 
  1257)      9919.0  Rx         0251  8  40 00 00 00 00 00 00 00 
  1258)      9920.9  Rx         0210  7  FF FF 30 28 90 00 40 
  1259)      9921.1  Rx         04B0  8  27 10 27 10 27 10 27 10 
  1260)      9923.4  Rx         0250  8  08 00 40 00 00 00 00 00 
  1261)      9923.7  Rx         0440  8  0D 6E 09 0A 00 00 00 00 
  1262)      9924.1  Rx         0441  8  00 00 00 00 00 00 00 00 
  1263)      9924.4  Rx         0442  8  00 00 00 00 00 00 00 00 
  1264)      9924.8  Rx         0443  8  00 00 00 00 00 00 00 00 
  1265)      9925.1  Rx         0444  8  00 00 00 00 00 00 00 00 
  1266)      9929.0  Rx         0265  8  FF FF 00 00 00 3A 00 00 
  1267)      9934.9  Rx         0210  7  FF FF 30 28 90 00 41 
  1268)      9935.1  Rx         04B0  8  27 10 27 10 27 10 27 10 
  1269)      9935.6  Rx         0408  8  0E 02 84 10 80 18 76 0B 
  1270)      9936.2  Rx         040B  8  00 00 05 00 00 00 60 00 
  1271)      9938.9  Rx         0310  3  02 00 00 
  1272)      9948.9  Rx         0210  7  FF FF 30 28 90 00 42 
  1273)      9949.1  Rx         04B0  8  27 10 27 10 27 10 27 10 
  1274)      9954.5  Rx         0610  8  06 7C 06 1A 12 11 00 00 
  1275)      9954.7  Rx         0611  8  06 72 00 62 ED EC E8 FC 
  1276)      9959.0  Rx         0359  8  02 00 00 85 00 00 00 00 
  1277)      9962.9  Rx         0210  7  FF FF 30 28 90 00 43 
  1278)      9963.1  Rx         04B0  8  27 10 27 10 27 10 27 10 
  1279)      9976.9  Rx         0210  7  FF FF 30 28 90 00 44 
  1280)      9977.1  Rx         04B0  8  27 10 27 10 27 10 27 10 
  1281)      9990.9  Rx         0210  7  FF FF 30 28 90 00 45 
  1282)      9991.2  Rx         04B0  8  27 10 27 10 27 10 27 10 
  1283)     10004.9  Rx         0210  7  FF FF 30 28 90 00 46 
  1284)     10005.2  Rx         04B0  8  27 10 27 10 27 10 27 10 
  1285)     10007.0  Rx         0023  1  40 
  1286)     10007.4  Rx         0460  8  03 E0 00 00 00 00 00 00 
  1287)     10018.9  Rx         0210  7  FF FF 30 28 90 00 47 
  1288)     10019.2  Rx         0251  8  40 00 00 00 00 00 00 00 
  1289)     10019.4  Rx         04B0  8  27 10 27 10 27 10 27 10 
  1290)     10023.5  Rx         0250  8  08 00 40 00 00 00 00 00 
  1291)     10029.0  Rx         0264  8  00 00 41 00 01 01 00 00 
  1292)     10032.9  Rx         0210  7  FF FF 30 28 90 00 48 
  1293)     10033.2  Rx         04B0  8  27 10 27 10 27 10 27 10 
  1294)     10039.0  Rx         0265  8  FF FF 00 00 00 3A 00 00 
  1295)     10046.9  Rx         0210  7  FF FF 30 28 90 00 49 
  1296)     10047.2  Rx         04B0  8  27 10 27 10 27 10 27 10 
  1297)     10048.9  Rx         0311  2  00 00 
  1298)     10061.0  Rx         0210  7  FF FF 30 28 90 00 4A 
  1299)     10061.2  Rx         04B0  8  27 10 27 10 27 10 27 10 
  1300)     10075.0  Rx         0210  7  FF FF 30 28 90 00 4B 
  1301)     10075.2  Rx         04B0  8  27 10 27 10 27 10 27 10 
  1302)     10079.5  Rx         0301  8  00 01 0F 3C 00 38 00 AA 
  1303)     10079.7  Rx         0302  8  00 00 00 00 09 54 08 A2 
  1304)     10080.0  Rx         0304  8  00 00 00 00 00 B4 00 AA 
  1305)     10080.2  Rx         0305  8  00 00 01 40 00 00 00 00 
  1306)     10080.5  Rx         0303  8  0F 59 05 4F 06 00 00 00 
  1307)     10089.0  Rx         0210  7  FF FF 30 28 90 00 4C 
  1308)     10089.2  Rx         04B0  8  27 10 27 10 27 10 27 10 
  1309)     10103.0  Rx         0210  7  FF FF 30 28 90 00 4D 
  1310)     10103.2  Rx         04B0  8  27 10 27 10 27 10 27 10 
  1311)     10106.9  Rx         0460  8  03 E0 00 00 00 00 00 00 
  1312)     10117.0  Rx         0210  7  FF FF 30 28 90 00 4E 
  1313)     10117.2  Rx         04B0  8  27 10 27 10 27 10 27 10 
  1314)     10119.0  Rx         0251  8  40 00 00 00 00 00 00 00 
  1315)     10123.5  Rx         0250  8  08 00 40 00 00 00 00 00 
  1316)     10123.9  Rx         0440  8  0D 6E 09 0A 00 00 00 00 
  1317)     10124.2  Rx         0441  8  00 00 00 00 00 00 00 00 
  1318)     10124.6  Rx         0442  8  00 00 00 00 00 00 00 00 
  1319)     10124.9  Rx         0443  8  00 00 00 00 00 00 00 00 
  1320)     10125.3  Rx         0444  8  00 00 00 00 00 00 00 00 
  1321)     10129.1  Rx         0265  8  FF FF 00 00 00 3A 00 00 
  1322)     10131.0  Rx         0210  7  FF FF 30 28 90 00 4F 
  1323)     10131.2  Rx         04B0  8  27 10 27 10 27 10 27 10 
  1324)     10139.0  Rx         0310  3  02 00 00 
  1325)     10145.0  Rx         0210  7  FF FF 30 28 90 00 50 
  1326)     10145.2  Rx         04B0  8  27 10 27 10 27 10 27 10 
  1327)     10154.5  Rx         0610  8  06 7C 06 1A 12 11 00 00 
  1328)     10154.7  Rx         0611  8  06 72 00 62 ED EC E7 FC 
  1329)     10159.0  Rx         0210  7  FF FF 30 28 90 00 51 
  1330)     10159.2  Rx         0359  8  02 00 00 85 00 00 00 00 
  1331)     10159.5  Rx         04B0  8  27 10 27 10 27 10 27 10 
  1332)     10165.4  Rx         0409  8  18 00 00 00 00 00 00 00 
  1333)     10173.0  Rx         0210  7  FF FF 30 28 90 00 52 
  1334)     10173.3  Rx         04B0  8  27 10 27 10 27 10 27 10 
  1335)     10187.0  Rx         0210  7  FF FF 30 28 90 00 53 
  1336)     10187.3  Rx         04B0  8  27 10 27 10 27 10 27 10 
  1337)     10201.0  Rx         0210  7  FF FF 30 28 90 00 54 
  1338)     10201.3  Rx         04B0  8  27 10 27 10 27 10 27 10 
  1339)     10206.8  Rx         0023  1  40 
  1340)     10207.0  Rx         0460  8  03 E0 00 00 00 00 00 00 
  1341)     10215.0  Rx         0210  7  FF FF 30 28 90 00 55 
  1342)     10215.3  Rx         04B0  8  27 10 27 10 27 10 27 10 
  1343)     10219.1  Rx         0251  8  40 00 00 00 00 00 00 00 
  1344)     10224.0  Rx         0250  8  08 00 40 00 00 00 00 00 
  1345)     10224.3  Rx         03A0  8  00 00 03 B0 00 00 00 00 
  1346)     10224.6  Rx         03A1  8  80 18 08 00 24 00 EB 00 
  1347)     10229.0  Rx         0210  7  FF FF 30 28 90 00 56 
  1348)     10229.3  Rx         0264  8  00 00 41 00 01 01 00 00 
  1349)     10229.5  Rx         04B0  8  27 10 27 10 27 10 27 10 
  1350)     10239.1  Rx         0265  8  FF FF 00 00 00 3A 00 00 
  1351)     10243.1  Rx         0210  7  FF FF 30 28 90 00 57 
  1352)     10243.3  Rx         04B0  8  27 10 27 10 27 10 27 10 
  1353)     10249.0  Rx         0311  2  00 00 
  1354)     10257.1  Rx         0210  7  FF FF 30 28 90 00 58 
  1355)     10257.3  Rx         04B0  8  27 10 27 10 27 10 27 10 
  1356)     10271.1  Rx         0210  7  FF FF 30 28 90 00 59 
  1357)     10271.3  Rx         04B0  8  27 10 27 10 27 10 27 10 
  1358)     10279.5  Rx         0301  8  00 01 0F 3C 00 38 00 AA 
  1359)     10279.8  Rx         0302  8  00 00 00 00 09 54 08 A2 
  1360)     10280.0  Rx         0304  8  00 00 00 00 00 B4 00 AA 
  1361)     10280.3  Rx         0305  8  00 00 01 40 00 00 00 00 
  1362)     10280.5  Rx         0303  8  0F 59 05 4F 06 00 00 00 
  1363)     10285.1  Rx         0210  7  FF FF 30 28 90 00 5A 
  1364)     10285.3  Rx         04B0  8  27 10 27 10 27 10 27 10 
  1365)     10299.1  Rx         0210  7  FF FF 30 28 90 00 5B 
  1366)     10299.3  Rx         04B0  8  27 10 27 10 27 10 27 10 
  1367)     10306.6  Rx         0460  8  03 E0 00 00 00 00 00 00 
  1368)     10313.1  Rx         0210  7  FF FF 30 28 90 00 5C 
  1369)     10313.3  Rx         04B0  8  27 10 27 10 27 10 27 10 
  1370)     10319.1  Rx         0251  8  40 00 00 00 00 00 00 00 
  1371)     10324.1  Rx         0250  8  08 00 40 00 00 00 00 00 
  1372)     10324.4  Rx         0440  8  0D 6E 09 0A 00 00 00 00 
  1373)     10324.8  Rx         0441  8  00 00 00 00 00 00 00 00 
  1374)     10325.2  Rx         0442  8  00 00 00 00 00 00 00 00 
  1375)     10325.5  Rx         0443  8  00 00 00 00 00 00 00 00 
  1376)     10325.8  Rx         0444  8  00 00 00 00 00 00 00 00 
  1377)     10327.1  Rx         0210  7  FF FF 30 28 90 00 5D 
  1378)     10327.3  Rx         04B0  8  27 10 27 10 27 10 27 10 
  1379)     10329.1  Rx         0263  6  00 00 24 76 09 00 
  1380)     10339.2  Rx         0265  8  FF FF 00 00 00 3A 00 00 
  1381)     10341.1  Rx         0210  7  FF FF 30 28 90 00 5E 
  1382)     10341.4  Rx         04B0  8  27 10 27 10 27 10 27 10 
  1383)     10349.0  Rx         0310  3  02 00 00 
  1384)     10354.5  Rx         0610  8  06 7C 06 1A 12 11 00 00 
  1385)     10354.7  Rx         0611  8  06 72 00 62 ED EC E7 FB 
  1386)     10355.1  Rx         0210  7  FF FF 30 28 90 00 5F 
  1387)     10355.4  Rx         04B0  8  27 10 27 10 27 10 27 10 
  1388)     10369.1  Rx         0210  7  FF FF 30 28 90 00 60 
  1389)     10369.4  Rx         0359  8  02 00 00 85 00 00 00 00 
  1390)     10369.6  Rx         04B0  8  27 10 27 10 27 10 27 10 
  1391)     10383.1  Rx         0210  7  FF FF 30 28 90 00 61 
  1392)     10383.4  Rx         04B0  8  27 10 27 10 27 10 27 10 
  1393)     10397.1  Rx         0210  7  FF FF 30 28 90 00 62 
  1394)     10397.4  Rx         04B0  8  27 10 27 10 27 10 27 10 
  1395)     10406.2  Rx         0023  1  40 
  1396)     10406.5  Rx         0460  8  03 E0 00 00 00 00 00 00 
  1397)     10411.2  Rx         0210  7  FF FF 30 28 90 00 63 
  1398)     10411.4  Rx         04B0  8  27 10 27 10 27 10 27 10 
  1399)     10419.1  Rx         0251  8  40 00 00 00 00 00 00 00 
  1400)     10424.0  Rx         0250  8  08 00 40 00 00 00 00 00 
  1401)     10425.2  Rx         0210  7  FF FF 30 28 90 00 64 
  1402)     10425.4  Rx         04B0  8  27 10 27 10 27 10 27 10 
  1403)     10429.2  Rx         0264  8  00 00 41 00 01 01 00 00 
  1404)     10435.2  Rx         0408  8  0E 02 84 10 80 18 76 0B 
  1405)     10435.8  Rx         040B  8  00 00 05 00 00 00 60 00 
  1406)     10439.2  Rx         0265  8  FF FF 00 00 00 3A 00 00 
  1407)     10439.4  Rx         0210  7  FF FF 30 28 90 00 65 
  1408)     10439.6  Rx         04B0  8  27 10 27 10 27 10 27 10 
  1409)     10449.1  Rx         0311  2  00 00 
  1410)     10453.2  Rx         0210  7  FF FF 30 28 90 00 66 
  1411)     10453.4  Rx         04B0  8  27 10 27 10 27 10 27 10 
  1412)     10467.2  Rx         0210  7  FF FF 30 28 90 00 67 
  1413)     10467.4  Rx         04B0  8  27 10 27 10 27 10 27 10 
  1414)     10479.5  Rx         0301  8  00 02 0F 3C 00 38 00 AA 
  1415)     10479.8  Rx         0302  8  00 00 00 00 09 54 08 A2 
  1416)     10480.0  Rx         0304  8  00 00 00 00 00 B4 00 AA 
  1417)     10480.3  Rx         0305  8  00 00 01 40 00 00 00 00 
  1418)     10480.5  Rx         0303  8  0F 59 05 4F 06 00 00 00 
  1419)     10481.2  Rx         0210  7  FF FF 30 28 90 00 68 
  1420)     10481.4  Rx         04B0  8  27 10 27 10 27 10 27 10 
  1421)     10495.2  Rx         0210  7  FF FF 30 28 90 00 69 
  1422)     10495.4  Rx         04B0  8  27 10 27 10 27 10 27 10 
  1423)     10506.1  Rx         0460  8  03 E0 00 00 00 00 00 00 
  1424)     10509.2  Rx         0210  7  FF FF 30 28 90 00 6A 
  1425)     10509.4  Rx         04B0  8  27 10 27 10 27 10 27 10 
  1426)     10519.2  Rx         0251  8  40 00 00 00 00 00 00 00 
  1427)     10523.2  Rx         0210  7  FF FF 30 28 90 00 6B 
  1428)     10523.5  Rx         04B0  8  27 10 27 10 27 10 27 10 
  1429)     10524.2  Rx         0250  8  08 00 40 00 00 00 00 00 
  1430)     10524.5  Rx         0440  8  0D 6E 09 0A 00 00 00 00 
  1431)     10524.9  Rx         0441  8  00 00 00 00 00 00 00 00 
  1432)     10525.3  Rx         0442  8  00 00 00 00 00 00 00 00 
  1433)     10525.6  Rx         0443  8  00 00 00 00 00 00 00 00 
  1434)     10525.9  Rx         0444  8  00 00 00 00 00 00 00 00 
  1435)     10529.2  Rx         0265  8  FF FF 00 00 00 3A 00 00 
  1436)     10537.2  Rx         0210  7  FF FF 30 28 90 00 6C 
  1437)     10537.5  Rx         04B0  8  27 10 27 10 27 10 27 10 
  1438)     10539.1  Rx         0310  3  02 00 00 
  1439)     10551.2  Rx         0210  7  FF FF 30 28 90 00 6D 
  1440)     10551.5  Rx         04B0  8  27 10 27 10 27 10 27 10 
  1441)     10554.5  Rx         0610  8  06 7C 06 1A 12 11 00 00 
  1442)     10554.8  Rx         0611  8  06 72 00 62 ED EC E7 FB 
  1443)     10559.2  Rx         0359  8  02 00 00 85 00 00 00 00 
  1444)     10565.2  Rx         0210  7  FF FF 30 28 90 00 6E 
  1445)     10565.5  Rx         04B0  8  27 10 27 10 27 10 27 10 
  1446)     10579.2  Rx         0210  7  FF FF 30 28 90 00 6F 
  1447)     10579.5  Rx         04B0  8  27 10 27 10 27 10 27 10 
  1448)     10593.3  Rx         0210  7  FF FF 30 28 90 00 70 
  1449)     10593.5  Rx         04B0  8  27 10 27 10 27 10 27 10 
  1450)     10605.7  Rx         0023  1  40 
  1451)     10606.0  Rx         0460  8  03 E0 00 00 00 00 00 00 
  1452)     10607.3  Rx         0210  7  FF FF 30 28 90 00 71 
  1453)     10607.5  Rx         04B0  8  27 10 27 10 27 10 27 10 
  1454)     10619.3  Rx         0251  8  40 00 00 00 00 00 00 00 
  1455)     10621.3  Rx         0210  7  FF FF 30 28 90 00 72 
  1456)     10621.6  Rx         04B0  8  27 10 27 10 27 10 27 10 
  1457)     10624.2  Rx         0250  8  08 00 40 00 00 00 00 00 
  1458)     10629.2  Rx         0264  8  00 00 41 00 01 01 00 00 
  1459)     10635.3  Rx         0210  7  FF FF 30 28 90 00 73 
  1460)     10635.5  Rx         04B0  8  27 10 27 10 27 10 27 10 
  1461)     10639.3  Rx         0265  8  FF FF 00 00 00 3A 00 00 
  1462)     10649.1  Rx         0311  2  00 00 
  1463)     10649.4  Rx         0210  7  FF FF 30 28 90 00 74 
  1464)     10649.6  Rx         04B0  8  27 10 27 10 27 10 27 10 
  1465)     10663.3  Rx         0210  7  FF FF 30 28 90 00 75 
  1466)     10663.5  Rx         04B0  8  27 10 27 10 27 10 27 10 
  1467)     10664.9  Rx         0409  8  18 00 00 00 00 00 00 00 
  1468)     10677.3  Rx         0210  7  FF FF 30 28 90 00 76 
  1469)     10677.5  Rx         04B0  8  27 10 27 10 27 10 27 10 
  1470)     10679.6  Rx         0301  8  00 01 0F 3C 00 38 00 AA 
  1471)     10679.8  Rx         0302  8  00 00 00 00 09 54 08 A2 
  1472)     10680.1  Rx         0304  8  00 00 00 00 00 B4 00 AA 
  1473)     10680.3  Rx         0305  8  00 00 01 40 00 00 00 00 
  1474)     10680.6  Rx         0303  8  0F 59 04 CE 06 00 00 00 
  1475)     10691.3  Rx         0210  7  FF FF 30 28 90 00 77 
  1476)     10691.6  Rx         04B0  8  27 10 27 10 27 10 27 10 
  1477)     10705.3  Rx         0210  7  FF FF 30 28 90 00 78 
  1478)     10705.6  Rx         04B0  8  27 10 27 10 27 10 27 10 
  1479)     10705.8  Rx         0460  8  03 E0 00 00 00 00 00 00 
  1480)     10719.3  Rx         0251  8  40 00 00 00 00 00 00 00 
  1481)     10719.5  Rx         0210  7  FF FF 30 28 90 00 79 
  1482)     10719.7  Rx         04B0  8  27 10 27 10 27 10 27 10 
  1483)     10724.7  Rx         0250  8  08 00 40 00 00 00 00 00 
  1484)     10725.0  Rx         0440  8  0D 6E 09 0A 00 00 00 00 
  1485)     10725.4  Rx         0441  8  00 00 00 00 00 00 00 00 
  1486)     10725.7  Rx         0442  8  00 00 00 00 00 00 00 00 
  1487)     10726.1  Rx         0443  8  00 00 00 00 00 00 00 00 
  1488)     10726.4  Rx         0444  8  00 00 00 00 00 00 00 00 
  1489)     10726.7  Rx         03A0  8  00 00 03 B0 00 00 00 00 
  1490)     10727.2  Rx         03A1  8  80 18 08 00 24 00 EB 00 
  1491)     10729.3  Rx         0265  8  FF FF 00 00 00 3A 00 00 
  1492)     10733.3  Rx         0210  7  FF FF 30 28 90 00 7A 
  1493)     10733.6  Rx         04B0  8  27 10 27 10 27 10 27 10 
  1494)     10739.2  Rx         0310  3  02 00 00 
  1495)     10747.3  Rx         0210  7  FF FF 30 28 90 00 7B 
  1496)     10747.6  Rx         04B0  8  27 10 27 10 27 10 27 10 
  1497)     10754.5  Rx         0610  8  06 7C 06 1A 12 11 00 00 
  1498)     10754.8  Rx         0300  8  02 00 25 00 00 00 01 00 
  1499)     10755.1  Rx         0306  8  00 00 00 00 00 00 00 00 
  1500)     10755.3  Rx         0611  8  06 72 00 62 ED EC E7 FA 
  1501)     10755.5  Rx         0722  8  00 00 00 00 00 00 00 00 
  1502)     10755.8  Rx         0723  8  00 00 00 00 00 00 00 00 
  1503)     10756.0  Rx         0721  8  00 00 00 00 00 00 00 00 
  1504)     10759.3  Rx         0359  8  02 00 00 85 00 00 00 00 
  1505)     10761.4  Rx         0210  7  FF FF 30 28 90 00 7C 
  1506)     10761.6  Rx         04B0  8  27 10 27 10 27 10 27 10 
  1507)     10775.4  Rx         0210  7  FF FF 30 28 90 00 7D 
  1508)     10775.6  Rx         04B0  8  27 10 27 10 27 10 27 10 
  1509)     10789.4  Rx         0210  7  FF FF 30 28 90 00 7E 
  1510)     10789.6  Rx         04B0  8  27 10 27 10 27 10 27 10 
  1511)     10803.4  Rx         0210  7  FF FF 30 28 90 00 7F 
  1512)     10803.6  Rx         04B0  8  27 10 27 10 27 10 27 10 
  1513)     10805.3  Rx         0023  1  40 
  1514)     10805.6  Rx         0460  8  03 E0 00 00 00 00 00 00 
  1515)     10817.4  Rx         0210  7  FF FF 30 28 90 00 80 
  1516)     10817.7  Rx         04B0  8  27 10 27 10 27 10 27 10 
  1517)     10819.3  Rx         0251  8  40 00 00 00 00 00 00 00 
  1518)     10824.8  Rx         0250  8  08 00 40 00 00 00 00 00 
  1519)     10829.3  Rx         0263  6  00 00 24 76 0A 00 
  1520)     10831.4  Rx         0210  7  FF FF 30 28 90 00 81 
  1521)     10831.6  Rx         04B0  8  27 10 27 10 27 10 27 10 
  1522)     10839.3  Rx         0264  8  00 00 41 00 01 01 00 00 
  1523)     10845.4  Rx         0210  7  FF FF 30 28 90 00 82 
  1524)     10845.6  Rx         04B0  8  27 10 27 10 27 10 27 10 
