;$FILEVERSION=1.1
;$STARTTIME=44374.9119449769
;
;   C:\Users\DALAS-win7\Desktop\ThinkTrace.trc
;
;   Start time: 6/27/2021 21:53:12.046.0
;   Generated by PCAN-View v4.2.4.564
;
;   Message Number
;   |         Time Offset (ms)
;   |         |        Type
;   |         |        |        ID (hex)
;   |         |        |        |     Data Length
;   |         |        |        |     |   Data Bytes (hex) ...
;   |         |        |        |     |   |
;---+--   ----+----  --+--  ----+---  +  -+ -- -- -- -- -- -- --
     1)         7.6  Rx         0023  1  40 
     2)         7.8  Rx         0460  8  03 E0 00 00 00 00 00 00 
     3)         9.9  Rx         0210  7  FF FF 30 20 90 00 36 
     4)        10.1  Rx         04B0  8  27 10 27 10 27 10 27 10 
     5)        17.8  Rx         0251  8  40 00 00 00 00 00 00 00 
     6)        19.0  Rx         0495  2  7F 00 
     7)        23.9  Rx         0210  7  FF FF 30 20 90 00 37 
     8)        24.1  Rx         04B0  8  27 10 27 10 27 10 27 10 
     9)        27.8  Rx         0265  8  FC 00 00 00 00 10 00 00 
    10)        37.7  Rx         0310  3  02 00 00 
    11)        37.9  Rx         0210  7  FF FF 30 20 90 00 38 
    12)        38.2  Rx         04B0  8  27 10 27 10 27 10 27 10 
    13)        43.8  Rx         0250  8  08 00 40 00 00 00 00 00 
    14)        44.3  Rx         0440  8  06 6E 04 0F 00 00 00 00 
    15)        44.7  Rx         0441  8  00 00 00 00 00 00 00 00 
    16)        45.2  Rx         0442  8  00 00 00 00 00 00 00 00 
    17)        45.7  Rx         0443  8  00 00 00 00 00 00 00 00 
    18)        46.1  Rx         0444  8  00 00 00 00 00 00 00 00 
    19)        51.9  Rx         0210  7  FF FF 30 20 90 00 39 
    20)        52.1  Rx         04B0  8  27 10 27 10 27 10 27 10 
    21)        57.8  Rx         0359  8  03 00 00 85 00 00 00 00 
    22)        65.9  Rx         0210  7  FF FF 30 20 90 00 3A 
    23)        66.1  Rx         04B0  8  27 10 27 10 27 10 27 10 
    24)        79.9  Rx         0210  7  FF FF 30 20 90 00 3B 
    25)        80.2  Rx         04B0  8  27 10 27 10 27 10 27 10 
    26)        94.0  Rx         0210  7  FF FF 30 20 90 00 3C 
    27)        94.2  Rx         04B0  8  27 10 27 10 27 10 27 10 
    28)       107.4  Rx         0460  8  03 E0 00 00 00 00 00 00 
    29)       108.0  Rx         0210  7  FF FF 30 20 90 00 3D 
    30)       108.2  Rx         04B0  8  27 10 27 10 27 10 27 10 
    31)       115.2  Rx         0301  8  00 00 00 02 00 10 00 BE 
    32)       115.5  Rx         0302  8  01 00 00 00 09 54 00 00 
    33)       115.7  Rx         0304  8  00 00 04 00 00 D2 00 B4 
    34)       115.9  Rx         0305  8  00 00 0F 40 00 00 00 00 
    35)       116.2  Rx         0303  8  0F 59 00 00 00 00 18 00 
    36)       117.8  Rx         0251  8  40 00 00 00 00 00 00 00 
    37)       119.0  Rx         0495  2  7F 00 
    38)       121.9  Rx         0210  7  FF FF 30 20 90 00 3E 
    39)       122.2  Rx         04B0  8  27 10 27 10 27 10 27 10 
    40)       127.8  Rx         0263  6  00 00 26 7C A8 00 
    41)       135.9  Rx         0210  7  FF FF 30 20 90 00 3F 
    42)       136.2  Rx         04B0  8  27 10 27 10 27 10 27 10 
    43)       137.8  Rx         0264  8  00 00 09 00 04 21 00 00 
    44)       144.0  Rx         0250  8  08 00 40 00 00 00 00 00 
    45)       147.8  Rx         0265  8  FC 00 00 00 00 10 00 00 
    46)       150.0  Rx         0210  7  FF FF 30 20 90 00 40 
    47)       150.2  Rx         04B0  8  27 10 27 10 27 10 27 10 
    48)       157.7  Rx         0311  2  00 00 
    49)       164.0  Rx         0210  7  FF FF 30 20 90 00 41 
    50)       164.2  Rx         04B0  8  27 10 27 10 27 10 27 10 
    51)       178.0  Rx         0210  7  FF FF 30 20 90 00 42 
    52)       178.2  Rx         04B0  8  27 10 27 10 27 10 27 10 
    53)       190.2  Rx         0610  8  06 87 06 81 15 12 01 AC 
    54)       190.4  Rx         0611  8  06 83 00 06 F6 F6 F2 F4 
    55)       192.0  Rx         0210  7  FF FF 30 20 90 00 43 
    56)       192.2  Rx         04B0  8  27 10 27 10 27 10 27 10 
    57)       204.5  Rx         0409  8  18 00 00 00 00 00 00 00 
    58)       206.0  Rx         0210  7  FF FF 30 20 90 00 44 
    59)       206.2  Rx         04B0  8  27 10 27 10 27 10 27 10 
    60)       207.1  Rx         0023  1  40 
    61)       207.4  Rx         0460  8  03 E0 00 00 00 00 00 00 
    62)       217.9  Rx         0251  8  40 00 00 00 00 00 00 00 
    63)       219.0  Rx         0495  2  7F 00 
    64)       220.0  Rx         0210  7  FF FF 30 20 90 00 45 
    65)       220.2  Rx         04B0  8  27 10 27 10 27 10 27 10 
    66)       227.8  Rx         0265  8  FC 00 00 00 00 10 00 00 
    67)       234.0  Rx         0210  7  FF FF 30 20 90 00 46 
    68)       234.2  Rx         04B0  8  27 10 27 10 27 10 27 10 
    69)       237.8  Rx         0310  3  02 00 00 
    70)       244.1  Rx         0250  8  08 00 40 00 00 00 00 00 
    71)       244.6  Rx         0440  8  06 6E 04 0F 00 00 00 00 
    72)       245.0  Rx         0441  8  00 00 00 00 00 00 00 00 
    73)       245.5  Rx         0442  8  00 00 00 00 00 00 00 00 
    74)       246.0  Rx         0443  8  00 00 00 00 00 00 00 00 
    75)       246.4  Rx         0444  8  00 00 00 00 00 00 00 00 
    76)       248.0  Rx         0210  7  FF FF 30 20 90 00 47 
    77)       248.2  Rx         04B0  8  27 10 27 10 27 10 27 10 
    78)       257.8  Rx         0359  8  03 00 00 85 00 00 00 00 
    79)       262.0  Rx         0210  7  FF FF 30 20 90 00 48 
    80)       262.3  Rx         04B0  8  27 10 27 10 27 10 27 10 
    81)       276.0  Rx         0210  7  FF FF 30 20 90 00 49 
    82)       276.3  Rx         04B0  8  27 10 27 10 27 10 27 10 
    83)       290.1  Rx         0210  7  FF FF 30 20 90 00 4A 
    84)       290.3  Rx         04B0  8  27 10 27 10 27 10 27 10 
    85)       304.0  Rx         0210  7  FF FF 30 20 90 00 4B 
    86)       304.3  Rx         04B0  8  27 10 27 10 27 10 27 10 
    87)       306.9  Rx         0460  8  03 E0 00 00 00 00 00 00 
    88)       315.2  Rx         0301  8  00 00 00 02 00 10 00 BE 
    89)       315.5  Rx         0302  8  01 00 00 00 09 54 00 00 
    90)       315.7  Rx         0304  8  00 00 04 00 00 D2 00 B4 
    91)       315.9  Rx         0305  8  00 00 0F 40 00 00 00 00 
    92)       316.2  Rx         0303  8  0F 59 00 00 00 00 18 00 
    93)       317.9  Rx         0251  8  40 00 00 00 00 00 00 00 
    94)       318.1  Rx         0210  7  FF FF 30 20 90 00 4C 
    95)       318.3  Rx         04B0  8  27 10 27 10 27 10 27 10 
    96)       319.0  Rx         0495  2  7F 00 
    97)       327.9  Rx         0264  8  00 00 09 00 04 21 00 00 
    98)       332.1  Rx         0210  7  FF FF 30 20 90 00 4D 
    99)       332.3  Rx         04B0  8  27 10 27 10 27 10 27 10 
   100)       337.9  Rx         0265  8  FC 00 00 00 00 10 00 00 
   101)       344.2  Rx         0250  8  08 00 40 00 00 00 00 00 
   102)       346.1  Rx         0210  7  FF FF 30 20 90 00 4E 
   103)       346.3  Rx         04B0  8  27 10 27 10 27 10 27 10 
   104)       347.8  Rx         0311  2  00 00 
   105)       360.1  Rx         0210  7  FF FF 30 20 90 00 4F 
   106)       360.3  Rx         04B0  8  27 10 27 10 27 10 27 10 
   107)       374.1  Rx         0210  7  FF FF 30 20 90 00 50 
   108)       374.3  Rx         04B0  8  27 10 27 10 27 10 27 10 
   109)       388.1  Rx         0210  7  FF FF 30 20 90 00 51 
   110)       388.3  Rx         04B0  8  27 10 27 10 27 10 27 10 
   111)       390.2  Rx         0610  8  06 87 06 81 15 12 01 AC 
   112)       390.4  Rx         0611  8  06 83 00 06 F6 F6 F2 F4 
   113)       402.1  Rx         0210  7  FF FF 30 20 90 00 52 
   114)       402.3  Rx         04B0  8  27 10 27 10 27 10 27 10 
   115)       406.6  Rx         0023  1  40 
   116)       406.9  Rx         0460  8  03 E0 00 00 00 00 00 00 
   117)       416.1  Rx         0210  7  FF FF 30 20 90 00 53 
   118)       416.3  Rx         04B0  8  27 10 27 10 27 10 27 10 
   119)       417.9  Rx         0251  8  40 00 00 00 00 00 00 00 
   120)       419.0  Rx         0495  2  7F 00 
   121)       427.9  Rx         0265  8  FC 00 00 00 00 10 00 00 
   122)       430.1  Rx         0210  7  FF FF 30 20 90 00 54 
   123)       430.3  Rx         04B0  8  27 10 27 10 27 10 27 10 
   124)       437.8  Rx         0310  3  02 00 00 
   125)       444.1  Rx         0210  7  FF FF 30 20 90 00 55 
   126)       444.4  Rx         0250  8  08 00 40 00 00 00 00 00 
   127)       444.6  Rx         04B0  8  27 10 27 10 27 10 27 10 
   128)       444.8  Rx         0440  8  06 6E 04 0F 00 00 00 00 
   129)       445.3  Rx         0441  8  00 00 00 00 00 00 00 00 
   130)       445.8  Rx         0442  8  00 00 00 00 00 00 00 00 
   131)       446.3  Rx         0443  8  00 00 00 00 00 00 00 00 
   132)       446.7  Rx         0444  8  00 00 00 00 00 00 00 00 
   133)       457.9  Rx         0359  8  03 00 00 85 00 00 00 00 
   134)       458.2  Rx         0210  7  FF FF 30 20 90 00 56 
   135)       458.4  Rx         04B0  8  27 10 27 10 27 10 27 10 
   136)       472.1  Rx         0210  7  FF FF 30 20 90 00 57 
   137)       472.4  Rx         04B0  8  27 10 27 10 27 10 27 10 
   138)       473.9  Rx         0408  8  08 02 01 10 00 00 7B 07 
   139)       486.1  Rx         0210  7  FF FF 30 20 90 00 58 
   140)       486.3  Rx         04B0  8  27 10 27 10 27 10 27 10 
   141)       500.1  Rx         0210  7  FF FF 30 20 90 00 59 
   142)       500.3  Rx         04B0  8  27 10 27 10 27 10 27 10 
   143)       506.5  Rx         0460  8  03 E0 00 00 00 00 00 00 
   144)       514.1  Rx         0210  7  FF FF 30 20 90 00 5A 
   145)       514.3  Rx         04B0  8  27 10 27 10 27 10 27 10 
   146)       515.2  Rx         0301  8  00 00 00 02 00 10 00 BE 
   147)       515.4  Rx         0302  8  01 00 00 00 09 54 00 00 
   148)       515.7  Rx         0304  8  00 00 04 00 00 D2 00 B4 
   149)       515.9  Rx         0305  8  00 00 0F 40 00 00 00 00 
   150)       516.2  Rx         0303  8  0F 59 00 00 00 00 18 00 
   151)       517.9  Rx         0251  8  40 00 00 00 00 00 00 00 
   152)       518.9  Rx         0495  2  7F 00 
   153)       527.9  Rx         0264  8  00 00 09 00 04 21 00 00 
   154)       528.1  Rx         0210  7  FF FF 30 20 90 00 5B 
   155)       528.3  Rx         04B0  8  27 10 27 10 27 10 27 10 
   156)       537.9  Rx         0265  8  FC 00 00 00 00 10 00 00 
   157)       542.1  Rx         0210  7  FF FF 30 20 90 00 5C 
   158)       542.3  Rx         04B0  8  27 10 27 10 27 10 27 10 
   159)       544.3  Rx         0250  8  08 00 40 00 00 00 00 00 
   160)       547.8  Rx         0311  2  00 00 
   161)       556.1  Rx         0210  7  FF FF 30 20 90 00 5D 
   162)       556.3  Rx         04B0  8  27 10 27 10 27 10 27 10 
   163)       570.1  Rx         0210  7  FF FF 30 20 90 00 5E 
   164)       570.4  Rx         04B0  8  27 10 27 10 27 10 27 10 
   165)       584.1  Rx         0210  7  FF FF 30 20 90 00 5F 
   166)       584.4  Rx         04B0  8  27 10 27 10 27 10 27 10 
   167)       590.2  Rx         0610  8  06 87 06 81 15 12 01 AC 
   168)       590.4  Rx         0611  8  06 83 00 06 F6 F6 F2 F4 
   169)       598.1  Rx         0210  7  FF FF 30 20 90 00 60 
   170)       598.4  Rx         04B0  8  27 10 27 10 27 10 27 10 
   171)       606.2  Rx         0023  1  40 
   172)       606.5  Rx         0460  8  03 E0 00 00 00 00 00 00 
   173)       612.1  Rx         0210  7  FF FF 30 20 90 00 61 
   174)       612.4  Rx         04B0  8  27 10 27 10 27 10 27 10 
   175)       617.9  Rx         0251  8  40 00 00 00 00 00 00 00 
   176)       618.9  Rx         0495  2  7F 00 
   177)       626.1  Rx         0210  7  FF FF 30 20 90 00 62 
   178)       626.4  Rx         04B0  8  27 10 27 10 27 10 27 10 
   179)       627.9  Rx         0263  6  00 00 26 7C A9 00 
   180)       637.9  Rx         0265  8  FC 00 00 00 00 10 00 00 
   181)       640.2  Rx         0210  7  FF FF 30 20 90 00 63 
   182)       640.4  Rx         04B0  8  27 10 27 10 27 10 27 10 
   183)       644.4  Rx         0250  8  08 00 40 00 00 00 00 00 
   184)       644.9  Rx         0440  8  06 6E 04 0F 00 00 00 00 
   185)       645.3  Rx         0441  8  00 00 00 00 00 00 00 00 
   186)       645.8  Rx         0442  8  00 00 00 00 00 00 00 00 
   187)       646.3  Rx         0443  8  00 00 00 00 00 00 00 00 
   188)       646.7  Rx         0444  8  00 00 00 00 00 00 00 00 
   189)       647.8  Rx         0310  3  02 00 00 
   190)       654.2  Rx         0210  7  FF FF 30 20 90 00 64 
   191)       654.4  Rx         04B0  8  27 10 27 10 27 10 27 10 
   192)       668.0  Rx         0359  8  03 00 00 85 00 00 00 00 
   193)       668.2  Rx         0210  7  FF FF 30 20 90 00 65 
   194)       668.4  Rx         04B0  8  27 10 27 10 27 10 27 10 
   195)       682.2  Rx         0210  7  FF FF 30 20 90 00 66 
   196)       682.4  Rx         04B0  8  27 10 27 10 27 10 27 10 
   197)       696.2  Rx         0210  7  FF FF 30 20 90 00 67 
   198)       696.4  Rx         04B0  8  27 10 27 10 27 10 27 10 
   199)       703.7  Rx         0409  8  18 00 00 00 00 00 00 00 
   200)       706.1  Rx         0460  8  03 E0 00 00 00 00 00 00 
   201)       710.2  Rx         0210  7  FF FF 30 20 90 00 68 
   202)       710.4  Rx         04B0  8  27 10 27 10 27 10 27 10 
   203)       715.2  Rx         0301  8  00 00 00 02 00 10 00 BE 
   204)       715.4  Rx         0302  8  01 00 00 00 09 54 00 00 
   205)       715.7  Rx         0304  8  00 00 04 00 00 D2 00 B4 
   206)       715.9  Rx         0305  8  00 00 0F 40 00 00 00 00 
   207)       716.2  Rx         0303  8  0F 59 00 00 00 00 18 00 
   208)       718.0  Rx         0251  8  40 00 00 00 00 00 00 00 
   209)       718.9  Rx         0495  2  7F 00 
   210)       724.2  Rx         0210  7  FF FF 30 20 90 00 69 
   211)       724.4  Rx         04B0  8  27 10 27 10 27 10 27 10 
   212)       727.9  Rx         0264  8  00 00 09 00 04 21 00 00 
   213)       737.9  Rx         0265  8  FC 00 00 00 00 10 00 00 
   214)       738.2  Rx         0210  7  FF FF 30 20 90 00 6A 
   215)       738.4  Rx         04B0  8  27 10 27 10 27 10 27 10 
   216)       744.7  Rx         0250  8  08 00 40 00 00 00 00 00 
   217)       747.9  Rx         0311  2  00 00 
   218)       752.2  Rx         0210  7  FF FF 30 20 90 00 6B 
   219)       752.4  Rx         04B0  8  27 10 27 10 27 10 27 10 
   220)       766.2  Rx         0210  7  FF FF 30 20 90 00 6C 
   221)       766.5  Rx         04B0  8  27 10 27 10 27 10 27 10 
   222)       780.2  Rx         0210  7  FF FF 30 20 90 00 6D 
   223)       780.5  Rx         04B0  8  27 10 27 10 27 10 27 10 
   224)       790.2  Rx         0610  8  06 87 06 81 15 12 01 AC 
   225)       790.4  Rx         0611  8  06 83 00 06 F6 F6 F2 F4 
   226)       794.2  Rx         0210  7  FF FF 30 20 90 00 6E 
   227)       794.5  Rx         04B0  8  27 10 27 10 27 10 27 10 
   228)       805.8  Rx         0023  1  40 
   229)       806.1  Rx         0460  8  03 E0 00 00 00 00 00 00 
   230)       808.2  Rx         0210  7  FF FF 30 20 90 00 6F 
   231)       808.5  Rx         04B0  8  27 10 27 10 27 10 27 10 
   232)       818.0  Rx         0251  8  40 00 00 00 00 00 00 00 
   233)       818.9  Rx         0495  2  7F 00 
   234)       822.3  Rx         0210  7  FF FF 30 20 90 00 70 
   235)       822.5  Rx         04B0  8  27 10 27 10 27 10 27 10 
   236)       827.9  Rx         0265  8  FC 00 00 00 00 10 00 00 
   237)       836.3  Rx         0210  7  FF FF 30 20 90 00 71 
   238)       836.5  Rx         04B0  8  27 10 27 10 27 10 27 10 
   239)       837.9  Rx         0310  3  02 00 00 
   240)       844.8  Rx         0250  8  08 00 40 00 00 00 00 00 
   241)       845.2  Rx         0440  8  06 6E 04 0F 00 00 00 00 
   242)       845.7  Rx         0441  8  00 00 00 00 00 00 00 00 
   243)       846.2  Rx         0442  8  00 00 00 00 00 00 00 00 
   244)       846.6  Rx         0443  8  00 00 00 00 00 00 00 00 
   245)       847.1  Rx         0444  8  00 00 00 00 00 00 00 00 
   246)       850.3  Rx         0210  7  FF FF 30 20 90 00 72 
   247)       850.5  Rx         04B0  8  27 10 27 10 27 10 27 10 
   248)       858.0  Rx         0359  8  03 00 00 85 00 00 00 00 
   249)       864.3  Rx         0210  7  FF FF 30 20 90 00 73 
   250)       864.5  Rx         04B0  8  27 10 27 10 27 10 27 10 
   251)       878.3  Rx         0210  7  FF FF 30 20 90 00 74 
   252)       878.5  Rx         04B0  8  27 10 27 10 27 10 27 10 
   253)       892.3  Rx         0210  7  FF FF 30 20 90 00 75 
   254)       892.5  Rx         04B0  8  27 10 27 10 27 10 27 10 
   255)       905.6  Rx         0460  8  03 E0 00 00 00 00 00 00 
   256)       906.3  Rx         0210  7  FF FF 30 20 90 00 76 
   257)       906.5  Rx         04B0  8  27 10 27 10 27 10 27 10 
   258)       915.2  Rx         0301  8  00 00 00 02 00 10 00 BE 
   259)       915.5  Rx         0302  8  01 00 00 00 09 54 00 00 
   260)       915.7  Rx         0304  8  00 00 04 00 00 D2 00 B4 
   261)       915.9  Rx         0305  8  00 00 0F 40 00 00 00 00 
   262)       916.2  Rx         0303  8  0F 59 00 00 00 00 18 00 
   263)       918.0  Rx         0251  8  40 00 00 00 00 00 00 00 
   264)       918.8  Rx         0495  2  7F 00 
   265)       920.3  Rx         0210  7  FF FF 30 20 90 00 77 
   266)       920.5  Rx         04B0  8  27 10 27 10 27 10 27 10 
   267)       928.0  Rx         0264  8  00 00 09 00 04 21 00 00 
   268)       934.3  Rx         0210  7  FF FF 30 20 90 00 78 
   269)       934.5  Rx         04B0  8  27 10 27 10 27 10 27 10 
   270)       938.0  Rx         0265  8  FC 00 00 00 00 10 00 00 
   271)       944.9  Rx         0250  8  08 00 40 00 00 00 00 00 
   272)       947.9  Rx         0311  2  00 00 
   273)       948.3  Rx         0210  7  FF FF 30 20 90 00 79 
   274)       948.6  Rx         04B0  8  27 10 27 10 27 10 27 10 
   275)       962.3  Rx         0210  7  FF FF 30 20 90 00 7A 
   276)       962.6  Rx         04B0  8  27 10 27 10 27 10 27 10 
   277)       973.3  Rx         0408  8  08 02 01 10 00 00 7B 07 
   278)       976.3  Rx         0210  7  FF FF 30 20 90 00 7B 
   279)       976.6  Rx         04B0  8  27 10 27 10 27 10 27 10 
   280)       990.2  Rx         0610  8  06 87 06 81 15 12 01 AC 
   281)       990.4  Rx         0210  7  FF FF 30 20 90 00 7C 
   282)       990.7  Rx         0306  8  00 00 00 00 00 00 00 00 
   283)       990.9  Rx         0300  8  02 00 25 00 00 00 01 00 
   284)       991.1  Rx         04B0  8  27 10 27 10 27 10 27 10 
   285)       991.4  Rx         0611  8  06 83 00 06 F6 F6 F2 F4 
   286)       991.6  Rx         0721  8  00 00 00 00 00 00 00 00 
   287)       991.9  Rx         0723  8  00 0A 00 00 A0 10 00 00 
   288)       992.1  Rx         0722  8  00 00 00 00 00 00 00 00 
   289)      1004.4  Rx         0210  7  FF FF 30 20 90 00 7D 
   290)      1004.6  Rx         04B0  8  27 10 27 10 27 10 27 10 
   291)      1005.2  Rx         0023  1  40 
   292)      1005.5  Rx         0460  8  03 E0 00 00 00 00 00 00 
   293)      1018.1  Rx         0251  8  40 00 00 00 00 00 00 00 
   294)      1018.4  Rx         0210  7  FF FF 30 20 90 00 7E 
   295)      1018.6  Rx         04B0  8  27 10 27 10 27 10 27 10 
   296)      1018.8  Rx         0495  2  7F 00 
   297)      1028.1  Rx         0265  8  FC 00 00 00 00 10 00 00 
   298)      1032.4  Rx         0210  7  FF FF 30 20 90 00 7F 
   299)      1032.6  Rx         04B0  8  27 10 27 10 27 10 27 10 
   300)      1038.0  Rx         0310  3  02 00 00 
   301)      1045.0  Rx         0250  8  08 00 40 00 00 00 00 00 
   302)      1045.5  Rx         0440  8  06 6E 04 0F 00 00 00 00 
   303)      1046.0  Rx         0441  8  00 00 00 00 00 00 00 00 
   304)      1046.4  Rx         0210  7  FF FF 30 20 90 00 80 
   305)      1046.7  Rx         0442  8  00 00 00 00 00 00 00 00 
   306)      1046.9  Rx         04B0  8  27 10 27 10 27 10 27 10 
   307)      1047.2  Rx         0443  8  00 00 00 00 00 00 00 00 
   308)      1047.6  Rx         0444  8  00 00 00 00 00 00 00 00 
   309)      1058.0  Rx         0359  8  03 00 00 85 00 00 00 00 
   310)      1060.4  Rx         0210  7  FF FF 30 20 90 00 81 
   311)      1060.6  Rx         04B0  8  27 10 27 10 27 10 27 10 
   312)      1074.4  Rx         0210  7  FF FF 30 20 90 00 82 
   313)      1074.6  Rx         04B0  8  27 10 27 10 27 10 27 10 
   314)      1088.4  Rx         0210  7  FF FF 30 20 90 00 83 
   315)      1088.6  Rx         04B0  8  27 10 27 10 27 10 27 10 
   316)      1102.4  Rx         0210  7  FF FF 30 20 90 00 84 
   317)      1102.6  Rx         04B0  8  27 10 27 10 27 10 27 10 
   318)      1105.2  Rx         0460  8  03 E0 00 00 00 00 00 00 
   319)      1115.2  Rx         0301  8  00 00 00 02 00 10 00 BE 
   320)      1115.5  Rx         0302  8  01 00 00 00 09 54 00 00 
   321)      1115.7  Rx         0304  8  00 00 04 00 00 D2 00 B4 
   322)      1115.9  Rx         0305  8  00 00 0F 40 00 00 00 00 
   323)      1116.2  Rx         0303  8  0F 59 00 00 00 00 18 00 
   324)      1116.4  Rx         0210  7  FF FF 30 20 90 00 85 
   325)      1116.7  Rx         04B0  8  27 10 27 10 27 10 27 10 
   326)      1118.1  Rx         0251  8  40 00 00 00 00 00 00 00 
   327)      1118.8  Rx         0495  2  7F 00 
   328)      1128.0  Rx         0263  6  00 00 25 7C AA 00 
   329)      1130.4  Rx         0210  7  FF FF 30 20 90 00 86 
   330)      1130.7  Rx         04B0  8  27 10 27 10 27 10 27 10 
   331)      1138.1  Rx         0264  8  00 00 09 00 04 21 00 00 
   332)      1144.4  Rx         0210  7  FF FF 30 20 90 00 87 
   333)      1144.7  Rx         04B0  8  27 10 27 10 27 10 27 10 
   334)      1145.2  Rx         0250  8  08 00 40 00 00 00 00 00 
   335)      1148.1  Rx         0265  8  FC 00 00 00 00 10 00 00 
   336)      1158.0  Rx         0311  2  00 00 
   337)      1158.4  Rx         0210  7  FF FF 30 20 90 00 88 
   338)      1158.7  Rx         04B0  8  27 10 27 10 27 10 27 10 
   339)      1172.4  Rx         0210  7  FF FF 30 20 90 00 89 
   340)      1172.7  Rx         04B0  8  27 10 27 10 27 10 27 10 
   341)      1186.5  Rx         0210  7  FF FF 30 20 90 00 8A 
   342)      1186.7  Rx         04B0  8  27 10 27 10 27 10 27 10 
   343)      1190.5  Rx         0610  8  06 87 06 81 15 12 01 AC 
   344)      1190.7  Rx         0611  8  06 83 00 06 F6 F6 F2 F4 
   345)      1200.5  Rx         0210  7  FF FF 30 20 90 00 8B 
   346)      1200.7  Rx         04B0  8  27 10 27 10 27 10 27 10 
   347)      1203.2  Rx         0409  8  18 00 00 00 00 00 00 00 
   348)      1204.9  Rx         0023  1  40 
   349)      1205.1  Rx         0460  8  03 E0 00 00 00 00 00 00 
   350)      1214.5  Rx         0210  7  FF FF 30 20 90 00 8C 
   351)      1214.7  Rx         04B0  8  27 10 27 10 27 10 27 10 
   352)      1218.1  Rx         0251  8  40 00 00 00 00 00 00 00 
   353)      1218.8  Rx         0495  2  7F 00 
   354)      1228.1  Rx         0265  8  FC 00 00 00 00 10 00 00 
   355)      1228.5  Rx         0210  7  FF FF 30 20 90 00 8D 
   356)      1228.7  Rx         04B0  8  27 10 27 10 27 10 27 10 
   357)      1238.0  Rx         0310  3  02 00 00 
   358)      1242.5  Rx         0210  7  FF FF 30 20 90 00 8E 
   359)      1242.7  Rx         04B0  8  27 10 27 10 27 10 27 10 
   360)      1245.3  Rx         0250  8  08 00 40 00 00 00 00 00 
   361)      1245.8  Rx         0440  8  06 6E 04 0F 00 00 00 00 
   362)      1246.2  Rx         0441  8  00 00 00 00 00 00 00 00 
   363)      1246.7  Rx         0442  8  00 00 00 00 00 00 00 00 
   364)      1247.1  Rx         0443  8  00 00 00 00 00 00 00 00 
   365)      1247.7  Rx         0444  8  00 00 00 00 00 00 00 00 
   366)      1256.5  Rx         0210  7  FF FF 30 20 90 00 8F 
   367)      1256.7  Rx         04B0  8  27 10 27 10 27 10 27 10 
   368)      1258.1  Rx         0359  8  03 00 00 85 00 00 00 00 
   369)      1270.5  Rx         0210  7  FF FF 30 20 90 00 90 
   370)      1270.7  Rx         04B0  8  27 10 27 10 27 10 27 10 
   371)      1284.5  Rx         0210  7  FF FF 30 20 90 00 91 
   372)      1284.7  Rx         04B0  8  27 10 27 10 27 10 27 10 
   373)      1298.5  Rx         0210  7  FF FF 30 20 90 00 92 
   374)      1298.8  Rx         04B0  8  27 10 27 10 27 10 27 10 
   375)      1304.8  Rx         0460  8  03 E0 00 00 00 00 00 00 
   376)      1312.5  Rx         0210  7  FF FF 30 20 90 00 93 
   377)      1312.8  Rx         04B0  8  27 10 27 10 27 10 27 10 
   378)      1315.2  Rx         0301  8  00 00 00 02 00 10 00 BE 
   379)      1315.5  Rx         0302  8  01 00 00 00 09 54 00 00 
   380)      1315.7  Rx         0304  8  00 00 04 00 00 D2 00 B4 
   381)      1316.0  Rx         0305  8  00 00 0F 40 00 00 00 00 
   382)      1316.2  Rx         0303  8  0F 59 00 00 00 00 18 00 
   383)      1318.1  Rx         0251  8  40 00 00 00 00 00 00 00 
   384)      1318.8  Rx         0495  2  7F 00 
   385)      1326.5  Rx         0210  7  FF FF 30 20 90 00 94 
   386)      1326.8  Rx         04B0  8  27 10 27 10 27 10 27 10 
   387)      1328.2  Rx         0264  8  00 00 09 00 04 21 00 00 
   388)      1338.1  Rx         0265  8  FC 00 00 00 00 10 00 00 
   389)      1340.5  Rx         0210  7  FF FF 30 20 90 00 95 
   390)      1340.8  Rx         04B0  8  27 10 27 10 27 10 27 10 
   391)      1345.5  Rx         0250  8  08 00 40 00 00 00 00 00 
   392)      1348.0  Rx         0311  2  00 00 
   393)      1354.5  Rx         0210  7  FF FF 30 20 90 00 96 
   394)      1354.8  Rx         04B0  8  27 10 27 10 27 10 27 10 
   395)      1368.6  Rx         0210  7  FF FF 30 20 90 00 97 
   396)      1368.8  Rx         04B0  8  27 10 27 10 27 10 27 10 
   397)      1382.6  Rx         0210  7  FF FF 30 20 90 00 98 
   398)      1382.8  Rx         04B0  8  27 10 27 10 27 10 27 10 
   399)      1390.2  Rx         0610  8  06 87 06 81 15 12 01 AC 
   400)      1390.5  Rx         0611  8  06 83 00 06 F6 F6 F2 F4 
   401)      1396.6  Rx         0210  7  FF FF 30 20 90 00 99 
   402)      1396.8  Rx         04B0  8  27 10 27 10 27 10 27 10 
   403)      1404.5  Rx         0023  1  40 
   404)      1404.7  Rx         0460  8  03 E0 00 00 00 00 00 00 
   405)      1410.6  Rx         0210  7  FF FF 30 20 90 00 9A 
   406)      1410.8  Rx         04B0  8  27 10 27 10 27 10 27 10 
   407)      1418.2  Rx         0251  8  40 00 00 00 00 00 00 00 
   408)      1418.7  Rx         0495  2  7F 00 
   409)      1424.6  Rx         0210  7  FF FF 30 20 90 00 9B 
   410)      1424.8  Rx         04B0  8  27 10 27 10 27 10 27 10 
   411)      1428.2  Rx         0265  8  FC 00 00 00 00 10 00 00 
   412)      1438.1  Rx         0310  3  02 00 00 
   413)      1438.6  Rx         0210  7  FF FF 30 20 90 00 9C 
   414)      1438.8  Rx         04B0  8  27 10 27 10 27 10 27 10 
   415)      1445.5  Rx         0250  8  08 00 40 00 00 00 00 00 
   416)      1446.0  Rx         0440  8  06 6E 04 0F 00 00 00 00 
   417)      1446.4  Rx         0441  8  00 00 00 00 00 00 00 00 
   418)      1446.9  Rx         0442  8  00 00 00 00 00 00 00 00 
   419)      1447.4  Rx         0443  8  00 00 00 00 00 00 00 00 
   420)      1447.8  Rx         0444  8  00 00 00 00 00 00 00 00 
   421)      1452.6  Rx         0210  7  FF FF 30 20 90 00 9D 
   422)      1452.8  Rx         04B0  8  27 10 27 10 27 10 27 10 
   423)      1458.2  Rx         0359  8  03 00 00 85 00 00 00 00 
   424)      1466.6  Rx         0210  7  FF FF 30 20 90 00 9E 
   425)      1466.8  Rx         04B0  8  27 10 27 10 27 10 27 10 
   426)      1472.8  Rx         0408  8  08 02 01 10 00 00 7B 07 
   427)      1480.5  Rx         0210  7  FF FF 30 20 90 00 9F 
   428)      1480.8  Rx         04B0  8  27 10 27 10 27 10 27 10 
   429)      1494.6  Rx         0210  7  FF FF 30 20 90 00 A0 
   430)      1494.8  Rx         04B0  8  27 10 27 10 27 10 27 10 
   431)      1504.4  Rx         0460  8  03 E0 00 00 00 00 00 00 
   432)      1508.6  Rx         0210  7  FF FF 30 20 90 00 A1 
   433)      1508.8  Rx         04B0  8  27 10 27 10 27 10 27 10 
   434)      1515.2  Rx         0301  8  00 00 00 02 00 10 00 BE 
   435)      1515.4  Rx         0302  8  01 00 00 00 09 54 00 00 
   436)      1515.7  Rx         0304  8  00 00 04 00 00 D2 00 B4 
   437)      1516.0  Rx         0305  8  00 00 0F 40 00 00 00 00 
   438)      1516.2  Rx         0303  8  0F 59 00 00 00 00 18 00 
   439)      1518.1  Rx         0251  8  40 00 00 00 00 00 00 00 
   440)      1518.7  Rx         0495  2  7F 00 
   441)      1522.6  Rx         0210  7  FF FF 30 20 90 00 A2 
   442)      1522.8  Rx         04B0  8  27 10 27 10 27 10 27 10 
   443)      1528.2  Rx         0264  8  00 00 09 00 04 21 00 00 
   444)      1536.6  Rx         0210  7  FF FF 30 20 90 00 A3 
   445)      1536.8  Rx         04B0  8  27 10 27 10 27 10 27 10 
   446)      1538.1  Rx         0265  8  FC 00 00 00 00 10 00 00 
   447)      1545.6  Rx         0250  8  08 00 40 00 00 00 00 00 
   448)      1548.0  Rx         0311  2  00 00 
   449)      1550.6  Rx         0210  7  FF FF 30 20 90 00 A4 
   450)      1550.8  Rx         04B0  8  27 10 27 10 27 10 27 10 
   451)      1564.6  Rx         0210  7  FF FF 30 20 90 00 A5 
   452)      1564.8  Rx         04B0  8  27 10 27 10 27 10 27 10 
   453)      1578.6  Rx         0210  7  FF FF 30 20 90 00 A6 
   454)      1578.8  Rx         04B0  8  27 10 27 10 27 10 27 10 
   455)      1590.2  Rx         0610  8  06 87 06 80 15 12 01 AC 
   456)      1590.4  Rx         0611  8  06 83 00 07 F6 F6 F2 F4 
   457)      1592.6  Rx         0210  7  FF FF 30 20 90 00 A7 
   458)      1592.8  Rx         04B0  8  27 10 27 10 27 10 27 10 
   459)      1603.9  Rx         0023  1  40 
   460)      1604.2  Rx         0460  8  03 E0 00 00 00 00 00 00 
   461)      1606.6  Rx         0210  7  FF FF 30 20 90 00 A8 
   462)      1606.8  Rx         04B0  8  27 10 27 10 27 10 27 10 
   463)      1618.2  Rx         0251  8  40 00 00 00 00 00 00 00 
   464)      1618.6  Rx         0495  2  7F 00 
   465)      1620.6  Rx         0210  7  FF FF 30 20 90 00 A9 
   466)      1620.9  Rx         04B0  8  27 10 27 10 27 10 27 10 
   467)      1628.1  Rx         0263  6  00 00 26 7C AB 00 
   468)      1634.6  Rx         0210  7  FF FF 30 20 90 00 AA 
   469)      1634.9  Rx         04B0  8  27 10 27 10 27 10 27 10 
   470)      1638.1  Rx         0265  8  FC 00 00 00 00 10 00 00 
   471)      1645.7  Rx         0250  8  08 00 40 00 00 00 00 00 
   472)      1646.1  Rx         0440  8  06 6E 04 0F 00 00 00 00 
   473)      1646.6  Rx         0441  8  00 00 00 00 00 00 00 00 
   474)      1647.1  Rx         0442  8  00 00 00 00 00 00 00 00 
   475)      1647.5  Rx         0443  8  00 00 00 00 00 00 00 00 
   476)      1648.0  Rx         0444  8  00 00 00 00 00 00 00 00 
   477)      1648.1  Rx         0310  3  02 00 00 
   478)      1648.6  Rx         0210  7  FF FF 30 20 90 00 AB 
   479)      1648.9  Rx         04B0  8  27 10 27 10 27 10 27 10 
   480)      1662.6  Rx         0210  7  FF FF 30 20 90 00 AC 
   481)      1662.9  Rx         04B0  8  27 10 27 10 27 10 27 10 
   482)      1668.2  Rx         0359  8  03 00 00 85 00 00 00 00 
   483)      1676.6  Rx         0210  7  FF FF 30 20 90 00 AD 
   484)      1676.9  Rx         04B0  8  27 10 27 10 27 10 27 10 
   485)      1690.7  Rx         0210  7  FF FF 30 20 90 00 AE 
   486)      1690.9  Rx         04B0  8  27 10 27 10 27 10 27 10 
   487)      1702.5  Rx         0409  8  18 00 00 00 00 00 00 00 
   488)      1703.7  Rx         0460  8  03 E0 00 00 00 00 00 00 
   489)      1704.7  Rx         0210  7  FF FF 30 20 90 00 AF 
   490)      1704.9  Rx         04B0  8  27 10 27 10 27 10 27 10 
   491)      1715.2  Rx         0301  8  00 00 00 02 00 10 00 BE 
   492)      1715.5  Rx         0302  8  01 00 00 00 09 54 00 00 
   493)      1715.7  Rx         0304  8  00 00 04 00 00 D2 00 B4 
   494)      1716.0  Rx         0305  8  00 00 0F 40 00 00 00 00 
   495)      1716.2  Rx         0303  8  0F 59 00 00 00 00 18 00 
   496)      1718.2  Rx         0251  8  40 00 00 00 00 00 00 00 
   497)      1718.7  Rx         0210  7  FF FF 30 20 90 00 B0 
   498)      1718.8  Rx         0495  2  7F 00 
   499)      1719.0  Rx         04B0  8  27 10 27 10 27 10 27 10 
   500)      1728.2  Rx         0264  8  00 00 09 00 04 21 00 00 
   501)      1732.7  Rx         0210  7  FF FF 30 20 90 00 B1 
   502)      1732.9  Rx         04B0  8  27 10 27 10 27 10 27 10 
   503)      1738.2  Rx         0265  8  FC 00 00 00 00 10 00 00 
   504)      1745.9  Rx         0250  8  08 00 40 00 00 00 00 00 
   505)      1746.7  Rx         0210  7  FF FF 30 20 90 00 B2 
   506)      1746.9  Rx         04B0  8  27 10 27 10 27 10 27 10 
   507)      1748.1  Rx         0311  2  00 00 
   508)      1760.7  Rx         0210  7  FF FF 30 20 90 00 B3 
   509)      1760.9  Rx         04B0  8  27 10 27 10 27 10 27 10 
   510)      1774.7  Rx         0210  7  FF FF 30 20 90 00 B4 
   511)      1774.9  Rx         04B0  8  27 10 27 10 27 10 27 10 
   512)      1788.7  Rx         0210  7  FF FF 30 20 90 00 B5 
   513)      1788.9  Rx         04B0  8  27 10 27 10 27 10 27 10 
   514)      1790.2  Rx         0610  8  06 87 06 80 15 12 01 AC 
   515)      1790.5  Rx         0611  8  06 83 00 07 F6 F6 F2 F4 
   516)      1802.7  Rx         0210  7  FF FF 30 20 90 00 B6 
   517)      1803.0  Rx         04B0  8  27 10 27 10 27 10 27 10 
   518)      1803.5  Rx         0023  1  40 
   519)      1803.9  Rx         0460  8  03 E0 00 00 00 00 00 00 
   520)      1816.7  Rx         0210  7  FF FF 30 20 90 00 B7 
   521)      1817.0  Rx         04B0  8  27 10 27 10 27 10 27 10 
   522)      1818.2  Rx         0251  8  40 00 00 00 00 00 00 00 
   523)      1818.6  Rx         0495  2  7F 00 
   524)      1828.3  Rx         0265  8  FC 00 00 00 00 10 00 00 
   525)      1830.7  Rx         0210  7  FF FF 30 20 90 00 B8 
   526)      1831.0  Rx         04B0  8  27 10 27 10 27 10 27 10 
   527)      1838.2  Rx         0310  3  02 00 00 
   528)      1844.7  Rx         0210  7  FF FF 30 20 90 00 B9 
   529)      1845.0  Rx         04B0  8  27 10 27 10 27 10 27 10 
   530)      1846.0  Rx         0250  8  08 00 40 00 00 00 00 00 
   531)      1846.5  Rx         0440  8  06 6E 04 0F 00 00 00 00 
   532)      1847.0  Rx         0441  8  00 00 00 00 00 00 00 00 
   533)      1847.4  Rx         0442  8  00 00 00 00 00 00 00 00 
   534)      1847.9  Rx         0443  8  00 00 00 00 00 00 00 00 
   535)      1848.4  Rx         0444  8  00 00 00 00 00 00 00 00 
   536)      1858.3  Rx         0359  8  03 00 00 85 00 00 00 00 
   537)      1858.7  Rx         0210  7  FF FF 30 20 90 00 BA 
   538)      1859.0  Rx         04B0  8  27 10 27 10 27 10 27 10 
   539)      1872.8  Rx         0210  7  FF FF 30 20 90 00 BB 
   540)      1873.0  Rx         04B0  8  27 10 27 10 27 10 27 10 
   541)      1886.8  Rx         0210  7  FF FF 30 20 90 00 BC 
   542)      1887.0  Rx         04B0  8  27 10 27 10 27 10 27 10 
   543)      1900.8  Rx         0210  7  FF FF 30 20 90 00 BD 
   544)      1901.0  Rx         04B0  8  27 10 27 10 27 10 27 10 
   545)      1903.4  Rx         0460  8  03 E0 00 00 00 00 00 00 
   546)      1914.8  Rx         0210  7  FF FF 30 20 90 00 BE 
   547)      1915.0  Rx         04B0  8  27 10 27 10 27 10 27 10 
   548)      1915.3  Rx         0301  8  00 00 00 02 00 10 00 BE 
   549)      1915.5  Rx         0302  8  01 00 00 00 09 54 00 00 
   550)      1915.7  Rx         0304  8  00 00 04 00 00 D2 00 B4 
   551)      1916.0  Rx         0305  8  00 00 0F 40 00 00 00 00 
   552)      1916.2  Rx         0303  8  0F 59 00 00 00 00 18 00 
   553)      1918.3  Rx         0251  8  40 00 00 00 00 00 00 00 
   554)      1918.6  Rx         0495  2  7F 00 
   555)      1928.3  Rx         0264  8  00 00 09 00 04 21 00 00 
   556)      1928.8  Rx         0210  7  FF FF 30 20 90 00 BF 
   557)      1929.0  Rx         04B0  8  27 10 27 10 27 10 27 10 
   558)      1938.3  Rx         0265  8  FC 00 00 00 00 10 00 00 
   559)      1942.8  Rx         0210  7  FF FF 30 20 90 00 C0 
   560)      1943.0  Rx         04B0  8  27 10 27 10 27 10 27 10 
   561)      1946.0  Rx         0250  8  08 00 40 00 00 00 00 00 
   562)      1948.2  Rx         0311  2  00 00 
   563)      1956.8  Rx         0210  7  FF FF 30 20 90 00 C1 
   564)      1957.0  Rx         04B0  8  27 10 27 10 27 10 27 10 
   565)      1970.8  Rx         0210  7  FF FF 30 20 90 00 C2 
   566)      1971.1  Rx         04B0  8  27 10 27 10 27 10 27 10 
   567)      1972.3  Rx         0408  8  08 02 01 10 00 00 7B 07 
   568)      1984.8  Rx         0210  7  FF FF 30 20 90 00 C3 
   569)      1985.1  Rx         04B0  8  27 10 27 10 27 10 27 10 
   570)      1990.2  Rx         0610  8  06 87 06 80 15 12 01 AC 
   571)      1990.5  Rx         0300  8  02 00 25 00 00 00 01 00 
   572)      1990.7  Rx         0306  8  00 00 00 00 00 00 00 00 
   573)      1991.0  Rx         0611  8  06 83 00 07 F6 F6 F2 F4 
   574)      1991.2  Rx         0722  8  00 00 00 00 00 00 00 00 
   575)      1991.5  Rx         0723  8  00 0A 00 00 A0 10 00 00 
   576)      1991.7  Rx         0721  8  00 00 00 00 00 00 00 00 
   577)      1998.8  Rx         0210  7  FF FF 30 20 90 00 C4 
   578)      1999.1  Rx         04B0  8  27 10 27 10 27 10 27 10 
   579)      2003.3  Rx         0023  1  40 
   580)      2003.6  Rx         0460  8  03 E0 00 00 00 00 00 00 
   581)      2012.8  Rx         0210  7  FF FF 30 20 90 00 C5 
   582)      2013.1  Rx         04B0  8  27 10 27 10 27 10 27 10 
   583)      2018.3  Rx         0251  8  40 00 00 00 00 00 00 00 
   584)      2018.6  Rx         0495  2  7F 00 
   585)      2026.8  Rx         0210  7  FF FF 30 20 90 00 C6 
   586)      2027.1  Rx         04B0  8  27 10 27 10 27 10 27 10 
   587)      2028.3  Rx         0265  8  FC 00 00 00 00 10 00 00 
   588)      2038.2  Rx         0310  3  02 00 00 
   589)      2040.9  Rx         0210  7  FF FF 30 20 90 00 C7 
   590)      2041.1  Rx         04B0  8  27 10 27 10 27 10 27 10 
   591)      2046.1  Rx         0250  8  08 00 40 00 00 00 00 00 
   592)      2046.6  Rx         0440  8  06 6E 04 0F 00 00 00 00 
   593)      2047.1  Rx         0441  8  00 00 00 00 00 00 00 00 
   594)      2047.5  Rx         0442  8  00 00 00 00 00 00 00 00 
   595)      2048.0  Rx         0443  8  00 00 00 00 00 00 00 00 
   596)      2048.5  Rx         0444  8  00 00 00 00 00 00 00 00 
   597)      2054.9  Rx         0210  7  FF FF 30 20 90 00 C8 
   598)      2055.1  Rx         04B0  8  27 10 27 10 27 10 27 10 
   599)      2058.3  Rx         0359  8  03 00 00 85 00 00 00 00 
   600)      2068.9  Rx         0210  7  FF FF 30 20 90 00 C9 
   601)      2069.1  Rx         04B0  8  27 10 27 10 27 10 27 10 
   602)      2082.9  Rx         0210  7  FF FF 30 20 90 00 CA 
   603)      2083.1  Rx         04B0  8  27 10 27 10 27 10 27 10 
   604)      2096.9  Rx         0210  7  FF FF 30 20 90 00 CB 
   605)      2097.1  Rx         04B0  8  27 10 27 10 27 10 27 10 
   606)      2103.0  Rx         0460  8  03 E0 00 00 00 00 00 00 
   607)      2110.9  Rx         0210  7  FF FF 30 20 90 00 CC 
   608)      2111.1  Rx         04B0  8  27 10 27 10 27 10 27 10 
   609)      2115.3  Rx         0301  8  00 00 00 02 00 10 00 BE 
   610)      2115.5  Rx         0302  8  01 00 00 00 09 54 00 00 
   611)      2115.8  Rx         0304  8  00 00 04 00 00 D2 00 B4 
   612)      2116.0  Rx         0305  8  00 00 0F 40 00 00 00 00 
   613)      2116.3  Rx         0303  8  0F 59 00 00 00 00 18 00 
   614)      2118.3  Rx         0251  8  40 00 00 00 00 00 00 00 
   615)      2118.6  Rx         0495  2  7F 00 
   616)      2124.9  Rx         0210  7  FF FF 30 20 90 00 CD 
   617)      2125.1  Rx         04B0  8  27 10 27 10 27 10 27 10 
   618)      2128.3  Rx         0263  6  00 00 26 7C AC 00 
   619)      2138.4  Rx         0264  8  00 00 09 00 04 21 00 00 
   620)      2138.9  Rx         0210  7  FF FF 30 20 90 00 CE 
   621)      2139.1  Rx         04B0  8  27 10 27 10 27 10 27 10 
   622)      2146.3  Rx         0250  8  08 00 40 00 00 00 00 00 
   623)      2148.3  Rx         0265  8  FC 00 00 00 00 10 00 00 
   624)      2152.9  Rx         0210  7  FF FF 30 20 90 00 CF 
   625)      2153.2  Rx         04B0  8  27 10 27 10 27 10 27 10 
   626)      2158.2  Rx         0311  2  00 00 
   627)      2166.9  Rx         0210  7  FF FF 30 20 90 00 D0 
   628)      2167.2  Rx         04B0  8  27 10 27 10 27 10 27 10 
   629)      2180.9  Rx         0210  7  FF FF 30 20 90 00 D1 
   630)      2181.2  Rx         04B0  8  27 10 27 10 27 10 27 10 
   631)      2190.2  Rx         0610  8  06 87 06 80 15 12 01 AC 
   632)      2190.5  Rx         0611  8  06 83 00 07 F6 F6 F2 F4 
   633)      2194.9  Rx         0210  7  FF FF 30 20 90 00 D2 
   634)      2195.2  Rx         04B0  8  27 10 27 10 27 10 27 10 
   635)      2202.1  Rx         0409  8  18 00 00 00 00 00 00 00 
   636)      2202.7  Rx         0023  1  40 
   637)      2203.0  Rx         0460  8  03 E0 00 00 00 00 00 00 
   638)      2208.9  Rx         0210  7  FF FF 30 20 90 00 D3 
   639)      2209.2  Rx         04B0  8  27 10 27 10 27 10 27 10 
   640)      2218.4  Rx         0251  8  40 00 00 00 00 00 00 00 
   641)      2218.6  Rx         0495  2  7F 00 
   642)      2223.0  Rx         0210  7  FF FF 30 20 90 00 D4 
   643)      2223.2  Rx         04B0  8  27 10 27 10 27 10 27 10 
   644)      2228.4  Rx         0265  8  FC 00 00 00 00 10 00 00 
   645)      2237.0  Rx         0210  7  FF FF 30 20 90 00 D5 
   646)      2237.2  Rx         04B0  8  27 10 27 10 27 10 27 10 
   647)      2238.3  Rx         0310  3  02 00 00 
   648)      2246.5  Rx         0250  8  08 00 40 00 00 00 00 00 
   649)      2246.9  Rx         0440  8  06 6E 04 0F 00 00 00 00 
   650)      2247.4  Rx         0441  8  00 00 00 00 00 00 00 00 
   651)      2247.8  Rx         0442  8  00 00 00 00 00 00 00 00 
   652)      2248.3  Rx         0443  8  00 00 00 00 00 00 00 00 
   653)      2248.8  Rx         0444  8  00 00 00 00 00 00 00 00 
   654)      2251.0  Rx         0210  7  FF FF 30 20 90 00 D6 
   655)      2251.2  Rx         04B0  8  27 10 27 10 27 10 27 10 
   656)      2258.4  Rx         0359  8  03 00 00 85 00 00 00 00 
   657)      2265.0  Rx         0210  7  FF FF 30 20 90 00 D7 
   658)      2265.2  Rx         04B0  8  27 10 27 10 27 10 27 10 
   659)      2279.0  Rx         0210  7  FF FF 30 20 90 00 D8 
   660)      2279.2  Rx         04B0  8  27 10 27 10 27 10 27 10 
   661)      2293.0  Rx         0210  7  FF FF 30 20 90 00 D9 
   662)      2293.2  Rx         04B0  8  27 10 27 10 27 10 27 10 
   663)      2302.6  Rx         0460  8  03 E0 00 00 00 00 00 00 
   664)      2307.0  Rx         0210  7  FF FF 30 20 90 00 DA 
   665)      2307.2  Rx         04B0  8  27 10 27 10 27 10 27 10 
   666)      2315.3  Rx         0301  8  00 00 00 02 00 10 00 BE 
   667)      2315.5  Rx         0302  8  01 00 00 00 09 54 00 00 
   668)      2315.8  Rx         0304  8  00 00 04 00 00 D2 00 B4 
   669)      2316.0  Rx         0305  8  00 00 0F 40 00 00 00 00 
   670)      2316.3  Rx         0303  8  0F 59 00 00 00 00 18 00 
   671)      2318.4  Rx         0251  8  40 00 00 00 00 00 00 00 
   672)      2318.6  Rx         0495  2  7F 00 
   673)      2321.0  Rx         0210  7  FF FF 30 20 90 00 DB 
   674)      2321.2  Rx         04B0  8  27 10 27 10 27 10 27 10 
   675)      2328.4  Rx         0264  8  00 00 09 00 04 21 00 00 
   676)      2335.0  Rx         0210  7  FF FF 30 20 90 00 DC 
   677)      2335.3  Rx         04B0  8  27 10 27 10 27 10 27 10 
   678)      2338.4  Rx         0265  8  FC 00 00 00 00 10 00 00 
   679)      2346.6  Rx         0250  8  08 00 40 00 00 00 00 00 
   680)      2348.3  Rx         0311  2  00 00 
   681)      2349.0  Rx         0210  7  FF FF 30 20 90 00 DD 
   682)      2349.3  Rx         04B0  8  27 10 27 10 27 10 27 10 
   683)      2363.0  Rx         0210  7  FF FF 30 20 90 00 DE 
   684)      2363.3  Rx         04B0  8  27 10 27 10 27 10 27 10 
   685)      2377.0  Rx         0210  7  FF FF 30 20 90 00 DF 
   686)      2377.3  Rx         04B0  8  27 10 27 10 27 10 27 10 
   687)      2390.3  Rx         0610  8  06 87 06 80 15 12 01 AC 
   688)      2390.5  Rx         0611  8  06 83 00 07 F6 F6 F2 F4 
   689)      2391.0  Rx         0210  7  FF FF 30 20 90 00 E0 
   690)      2391.3  Rx         04B0  8  27 10 27 10 27 10 27 10 
   691)      2402.2  Rx         0023  1  40 
   692)      2402.5  Rx         0460  8  03 E0 00 00 00 00 00 00 
   693)      2405.1  Rx         0210  7  FF FF 30 20 90 00 E1 
   694)      2405.3  Rx         04B0  8  27 10 27 10 27 10 27 10 
   695)      2418.4  Rx         0251  8  40 00 00 00 00 00 00 00 
   696)      2418.6  Rx         0495  2  7F 00 
   697)      2419.1  Rx         0210  7  FF FF 30 20 90 00 E2 
   698)      2419.3  Rx         04B0  8  27 10 27 10 27 10 27 10 
   699)      2428.5  Rx         0265  8  FC 00 00 00 00 10 00 00 
   700)      2433.1  Rx         0210  7  FF FF 30 20 90 00 E3 
   701)      2433.3  Rx         04B0  8  27 10 27 10 27 10 27 10 
   702)      2438.3  Rx         0310  3  02 00 00 
   703)      2446.7  Rx         0250  8  08 00 40 00 00 00 00 00 
   704)      2447.1  Rx         0210  7  FF FF 30 20 90 00 E4 
   705)      2447.3  Rx         0440  8  06 6E 04 0F 00 00 00 00 
   706)      2447.6  Rx         04B0  8  27 10 27 10 27 10 27 10 
   707)      2447.8  Rx         0441  8  00 00 00 00 00 00 00 00 
   708)      2448.2  Rx         0442  8  00 00 00 00 00 00 00 00 
   709)      2448.6  Rx         0443  8  00 00 00 00 00 00 00 00 
   710)      2449.1  Rx         0444  8  00 00 00 00 00 00 00 00 
   711)      2458.4  Rx         0359  8  03 00 00 85 00 00 00 00 
   712)      2461.1  Rx         0210  7  FF FF 30 20 90 00 E5 
   713)      2461.3  Rx         04B0  8  27 10 27 10 27 10 27 10 
   714)      2472.1  Rx         0408  8  08 02 01 10 00 00 7B 07 
   715)      2475.1  Rx         0210  7  FF FF 30 20 90 00 E6 
   716)      2475.3  Rx         04B0  8  27 10 27 10 27 10 27 10 
   717)      2489.0  Rx         0210  7  FF FF 30 20 90 00 E7 
   718)      2489.2  Rx         04B0  8  27 10 27 10 27 10 27 10 
   719)      2502.1  Rx         0460  8  03 E0 00 00 00 00 00 00 
   720)      2503.0  Rx         0210  7  FF FF 30 20 90 00 E8 
   721)      2503.2  Rx         04B0  8  27 10 27 10 27 10 27 10 
   722)      2515.2  Rx         0301  8  00 00 00 02 00 10 00 BE 
   723)      2515.5  Rx         0302  8  01 00 00 00 09 54 00 00 
   724)      2515.7  Rx         0304  8  00 00 04 00 00 D2 00 B4 
   725)      2516.0  Rx         0305  8  00 00 0F 40 00 00 00 00 
   726)      2516.2  Rx         0303  8  0F 59 00 00 00 00 18 00 
   727)      2517.0  Rx         0210  7  FF FF 30 20 90 00 E9 
   728)      2517.3  Rx         04B0  8  27 10 27 10 27 10 27 10 
   729)      2518.4  Rx         0251  8  40 00 00 00 00 00 00 00 
   730)      2518.5  Rx         0495  2  7F 00 
   731)      2528.4  Rx         0264  8  00 00 09 00 04 21 00 00 
   732)      2531.0  Rx         0210  7  FF FF 30 20 90 00 EA 
   733)      2531.3  Rx         04B0  8  27 10 27 10 27 10 27 10 
   734)      2538.4  Rx         0265  8  FC 00 00 00 00 10 00 00 
   735)      2545.1  Rx         0210  7  FF FF 30 20 90 00 EB 
   736)      2545.3  Rx         04B0  8  27 10 27 10 27 10 27 10 
   737)      2546.6  Rx         0250  8  08 00 40 00 00 00 00 00 
   738)      2548.3  Rx         0311  2  00 00 
   739)      2559.0  Rx         0210  7  FF FF 30 20 90 00 EC 
   740)      2559.3  Rx         04B0  8  27 10 27 10 27 10 27 10 
   741)      2573.0  Rx         0210  7  FF FF 30 20 90 00 ED 
   742)      2573.3  Rx         04B0  8  27 10 27 10 27 10 27 10 
   743)      2587.1  Rx         0210  7  FF FF 30 20 90 00 EE 
   744)      2587.3  Rx         04B0  8  27 10 27 10 27 10 27 10 
   745)      2590.2  Rx         0610  8  06 87 06 80 15 12 01 AC 
   746)      2590.4  Rx         0611  8  06 83 00 07 F6 F6 F2 F4 
   747)      2601.1  Rx         0210  7  FF FF 30 20 90 00 EF 
   748)      2601.3  Rx         04B0  8  27 10 27 10 27 10 27 10 
   749)      2601.7  Rx         0023  1  40 
   750)      2602.0  Rx         0460  8  03 E0 00 00 00 00 00 00 
   751)      2615.1  Rx         0210  7  FF FF 30 20 90 00 F0 
   752)      2615.3  Rx         04B0  8  27 10 27 10 27 10 27 10 
   753)      2618.4  Rx         0251  8  40 00 00 00 00 00 00 00 
   754)      2618.6  Rx         0495  2  7F 00 
   755)      2628.4  Rx         0263  6  00 00 26 7C AD 00 
   756)      2629.1  Rx         0210  7  FF FF 30 20 90 00 F1 
   757)      2629.3  Rx         04B0  8  27 10 27 10 27 10 27 10 
   758)      2638.4  Rx         0265  8  FC 00 00 00 00 10 00 00 
   759)      2643.1  Rx         0210  7  FF FF 30 20 90 00 F2 
   760)      2643.3  Rx         04B0  8  27 10 27 10 27 10 27 10 
   761)      2646.9  Rx         0250  8  08 00 40 00 00 00 00 00 
   762)      2647.3  Rx         0440  8  06 6E 04 0F 00 00 00 00 
   763)      2647.8  Rx         0441  8  00 00 00 00 00 00 00 00 
   764)      2648.2  Rx         0442  8  00 00 00 00 00 00 00 00 
   765)      2648.4  Rx         0310  3  02 00 00 
   766)      2648.7  Rx         0443  8  00 00 00 00 00 00 00 00 
   767)      2649.2  Rx         0444  8  00 00 00 00 00 00 00 00 
   768)      2657.1  Rx         0210  7  FF FF 30 20 90 00 F3 
   769)      2657.3  Rx         04B0  8  27 10 27 10 27 10 27 10 
   770)      2668.4  Rx         0359  8  03 00 00 85 00 00 00 00 
   771)      2671.1  Rx         0210  7  FF FF 30 20 90 00 F4 
   772)      2671.3  Rx         04B0  8  27 10 27 10 27 10 27 10 
   773)      2685.1  Rx         0210  7  FF FF 30 20 90 00 F5 
   774)      2685.3  Rx         04B0  8  27 10 27 10 27 10 27 10 
   775)      2699.1  Rx         0210  7  FF FF 30 20 90 00 F6 
   776)      2699.4  Rx         04B0  8  27 10 27 10 27 10 27 10 
   777)      2701.5  Rx         0409  8  18 00 00 00 00 00 00 00 
   778)      2701.8  Rx         0460  8  03 E0 00 00 00 00 00 00 
   779)      2713.2  Rx         0210  7  FF FF 30 20 90 00 F7 
   780)      2713.4  Rx         04B0  8  27 10 27 10 27 10 27 10 
   781)      2715.2  Rx         0301  8  00 00 00 02 00 10 00 BE 
   782)      2715.5  Rx         0302  8  01 00 00 00 09 54 00 00 
   783)      2715.7  Rx         0304  8  00 00 04 00 00 D2 00 B4 
   784)      2716.0  Rx         0305  8  00 00 0F 40 00 00 00 00 
   785)      2716.2  Rx         0303  8  0F 59 00 00 00 00 18 00 
   786)      2718.4  Rx         0251  8  40 00 00 00 00 00 00 00 
   787)      2718.6  Rx         0495  2  7F 00 
   788)      2727.1  Rx         0210  7  FF FF 30 20 90 00 F8 
   789)      2727.4  Rx         04B0  8  27 10 27 10 27 10 27 10 
   790)      2728.5  Rx         0264  8  00 00 09 00 04 21 00 00 
   791)      2738.5  Rx         0265  8  FC 00 00 00 00 10 00 00 
   792)      2741.1  Rx         0210  7  FF FF 30 20 90 00 F9 
   793)      2741.4  Rx         04B0  8  27 10 27 10 27 10 27 10 
   794)      2747.0  Rx         0250  8  08 00 40 00 00 00 00 00 
   795)      2748.4  Rx         0311  2  00 00 
   796)      2755.1  Rx         0210  7  FF FF 30 20 90 00 FA 
   797)      2755.4  Rx         04B0  8  27 10 27 10 27 10 27 10 
   798)      2769.2  Rx         0210  7  FF FF 30 20 90 00 FB 
   799)      2769.4  Rx         04B0  8  27 10 27 10 27 10 27 10 
   800)      2783.2  Rx         0210  7  FF FF 30 20 90 00 FC 
   801)      2783.4  Rx         04B0  8  27 10 27 10 27 10 27 10 
   802)      2790.2  Rx         0610  8  06 87 06 80 15 12 01 AC 
   803)      2790.5  Rx         0611  8  06 83 00 07 F6 F6 F2 F4 
   804)      2797.2  Rx         0210  7  FF FF 30 20 90 00 FD 
   805)      2797.4  Rx         04B0  8  27 10 27 10 27 10 27 10 
   806)      2801.3  Rx         0023  1  40 
   807)      2801.6  Rx         0460  8  03 E0 00 00 00 00 00 00 
   808)      2811.2  Rx         0210  7  FF FF 30 20 90 00 FE 
   809)      2811.4  Rx         04B0  8  27 10 27 10 27 10 27 10 
   810)      2818.5  Rx         0251  8  40 00 00 00 00 00 00 00 
   811)      2818.6  Rx         0495  2  7F 00 
   812)      2825.2  Rx         0210  7  FF FF 30 20 90 00 FF 
   813)      2825.4  Rx         04B0  8  27 10 27 10 27 10 27 10 
   814)      2828.5  Rx         0265  8  FC 00 00 00 00 10 00 00 
   815)      2838.4  Rx         0310  3  02 00 00 
   816)      2839.2  Rx         0210  7  FF FF 30 20 90 00 00 
   817)      2839.4  Rx         04B0  8  27 10 27 10 27 10 27 10 
   818)      2847.0  Rx         0250  8  08 00 40 00 00 00 00 00 
   819)      2847.5  Rx         0440  8  06 6E 04 0F 00 00 00 00 
   820)      2848.0  Rx         0441  8  00 00 00 00 00 00 00 00 
   821)      2848.4  Rx         0442  8  00 00 00 00 00 00 00 00 
   822)      2848.9  Rx         0443  8  00 00 00 00 00 00 00 00 
   823)      2849.4  Rx         0444  8  00 00 00 00 00 00 00 00 
   824)      2853.2  Rx         0210  7  FF FF 30 20 90 00 01 
   825)      2853.4  Rx         04B0  8  27 10 27 10 27 10 27 10 
   826)      2858.5  Rx         0359  8  03 00 00 85 00 00 00 00 
   827)      2867.2  Rx         0210  7  FF FF 30 20 90 00 02 
   828)      2867.4  Rx         04B0  8  27 10 27 10 27 10 27 10 
   829)      2881.2  Rx         0210  7  FF FF 30 20 90 00 03 
   830)      2881.5  Rx         04B0  8  27 10 27 10 27 10 27 10 
   831)      2895.2  Rx         0210  7  FF FF 30 20 90 00 04 
   832)      2895.5  Rx         04B0  8  27 10 27 10 27 10 27 10 
   833)      2901.3  Rx         0460  8  03 E0 00 00 00 00 00 00 
   834)      2909.2  Rx         0210  7  FF FF 30 20 90 00 05 
   835)      2909.5  Rx         04B0  8  27 10 27 10 27 10 27 10 
   836)      2915.3  Rx         0301  8  00 00 00 02 00 10 00 BE 
   837)      2915.5  Rx         0302  8  01 00 00 00 09 54 00 00 
   838)      2915.7  Rx         0304  8  00 00 04 00 00 D2 00 B4 
   839)      2916.0  Rx         0305  8  00 00 0F 40 00 00 00 00 
   840)      2916.2  Rx         0303  8  0F 59 00 00 00 00 18 00 
   841)      2918.4  Rx         0495  2  7F 00 
   842)      2918.6  Rx         0251  8  40 00 00 00 00 00 00 00 
   843)      2923.2  Rx         0210  7  FF FF 30 20 90 00 06 
   844)      2923.5  Rx         04B0  8  27 10 27 10 27 10 27 10 
   845)      2928.5  Rx         0264  8  00 00 09 00 04 21 00 00 
   846)      2937.2  Rx         0210  7  FF FF 30 20 90 00 07 
   847)      2937.5  Rx         04B0  8  27 10 27 10 27 10 27 10 
   848)      2938.5  Rx         0265  8  FC 00 00 00 00 10 00 00 
   849)      2947.1  Rx         0250  8  08 00 40 00 00 00 00 00 
   850)      2948.4  Rx         0311  2  00 00 
   851)      2951.3  Rx         0210  7  FF FF 30 20 90 00 08 
   852)      2951.5  Rx         04B0  8  27 10 27 10 27 10 27 10 
   853)      2965.3  Rx         0210  7  FF FF 30 20 90 00 09 
   854)      2965.5  Rx         04B0  8  27 10 27 10 27 10 27 10 
   855)      2971.4  Rx         0408  8  08 02 01 10 00 00 7B 07 
   856)      2979.3  Rx         0210  7  FF FF 30 20 90 00 0A 
   857)      2979.5  Rx         04B0  8  27 10 27 10 27 10 27 10 
   858)      2990.3  Rx         0610  8  06 87 06 81 15 12 01 AC 
   859)      2990.5  Rx         0300  8  02 00 25 00 00 00 01 00 
   860)      2990.7  Rx         0306  8  00 00 00 00 00 00 00 00 
   861)      2991.0  Rx         0611  8  06 83 00 06 F6 F6 F2 F4 
   862)      2991.2  Rx         0722  8  00 00 00 00 00 00 00 00 
   863)      2991.5  Rx         0723  8  00 0A 00 00 A0 10 00 00 
   864)      2991.7  Rx         0721  8  00 00 00 00 00 00 00 00 
   865)      2993.3  Rx         0210  7  FF FF 30 20 90 00 0B 
   866)      2993.5  Rx         04B0  8  27 10 27 10 27 10 27 10 
   867)      3000.9  Rx         0023  1  40 
   868)      3001.3  Rx         0460  8  03 E0 00 00 00 00 00 00 
   869)      3007.3  Rx         0210  7  FF FF 30 20 90 00 0C 
   870)      3007.5  Rx         04B0  8  27 10 27 10 27 10 27 10 
   871)      3018.4  Rx         0495  2  7F 00 
   872)      3018.6  Rx         0251  8  40 00 00 00 00 00 00 00 
   873)      3021.3  Rx         0210  7  FF FF 30 20 90 00 0D 
   874)      3021.5  Rx         04B0  8  27 10 27 10 27 10 27 10 
   875)      3028.6  Rx         0265  8  FC 00 00 00 00 10 00 00 
   876)      3035.3  Rx         0210  7  FF FF 30 20 90 00 0E 
   877)      3035.5  Rx         04B0  8  27 10 27 10 27 10 27 10 
   878)      3038.5  Rx         0310  3  02 00 00 
   879)      3047.4  Rx         0250  8  08 00 40 00 00 00 00 00 
   880)      3047.8  Rx         0440  8  06 6E 04 0F 00 00 00 00 
   881)      3048.3  Rx         0441  8  00 00 00 00 00 00 00 00 
   882)      3048.8  Rx         0442  8  00 00 00 00 00 00 00 00 
   883)      3049.2  Rx         0443  8  00 00 00 00 00 00 00 00 
   884)      3049.4  Rx         0210  7  FF FF 30 20 90 00 0F 
   885)      3049.7  Rx         04B0  8  27 10 27 10 27 10 27 10 
   886)      3050.0  Rx         0444  8  00 00 00 00 00 00 00 00 
   887)      3058.6  Rx         0359  8  03 00 00 85 00 00 00 00 
   888)      3063.3  Rx         0210  7  FF FF 30 20 90 00 10 
   889)      3063.6  Rx         04B0  8  27 10 27 10 27 10 27 10 
   890)      3077.4  Rx         0210  7  FF FF 30 20 90 00 11 
   891)      3077.6  Rx         04B0  8  27 10 27 10 27 10 27 10 
   892)      3091.3  Rx         0210  7  FF FF 30 20 90 00 12 
   893)      3091.6  Rx         04B0  8  27 10 27 10 27 10 27 10 
   894)      3100.8  Rx         0460  8  03 E0 00 00 00 00 00 00 
   895)      3105.3  Rx         0210  7  FF FF 30 20 90 00 13 
   896)      3105.6  Rx         04B0  8  27 10 27 10 27 10 27 10 
   897)      3115.3  Rx         0301  8  00 00 00 02 00 10 00 BE 
   898)      3115.5  Rx         0302  8  01 00 00 00 09 54 00 00 
   899)      3115.8  Rx         0304  8  00 00 04 00 00 D2 00 B4 
   900)      3116.0  Rx         0305  8  00 00 0F 40 00 00 00 00 
   901)      3116.3  Rx         0303  8  0F 59 00 00 00 00 18 00 
   902)      3118.4  Rx         0495  2  7F 00 
   903)      3118.6  Rx         0251  8  40 00 00 00 00 00 00 00 
   904)      3119.3  Rx         0210  7  FF FF 30 20 90 00 14 
   905)      3119.6  Rx         04B0  8  27 10 27 10 27 10 27 10 
   906)      3128.6  Rx         0263  6  00 00 26 7C AE 00 
   907)      3133.4  Rx         0210  7  FF FF 30 20 90 00 15 
   908)      3133.6  Rx         04B0  8  27 10 27 10 27 10 27 10 
   909)      3138.6  Rx         0264  8  00 00 09 00 04 21 00 00 
   910)      3147.4  Rx         0210  7  FF FF 30 20 90 00 16 
   911)      3147.6  Rx         0250  8  08 00 40 00 00 00 00 00 
   912)      3147.8  Rx         04B0  8  27 10 27 10 27 10 27 10 
   913)      3148.6  Rx         0265  8  FC 00 00 00 00 10 00 00 
   914)      3158.5  Rx         0311  2  00 00 
   915)      3161.4  Rx         0210  7  FF FF 30 20 90 00 17 
   916)      3161.6  Rx         04B0  8  27 10 27 10 27 10 27 10 
   917)      3175.4  Rx         0210  7  FF FF 30 20 90 00 18 
   918)      3175.6  Rx         04B0  8  27 10 27 10 27 10 27 10 
   919)      3189.4  Rx         0210  7  FF FF 30 20 90 00 19 
   920)      3189.6  Rx         04B0  8  27 10 27 10 27 10 27 10 
   921)      3190.3  Rx         0610  8  06 87 06 81 15 12 01 AC 
   922)      3190.5  Rx         0611  8  06 83 00 06 F6 F6 F2 F4 
   923)      3200.6  Rx         0023  1  40 
   924)      3200.9  Rx         0460  8  03 E0 00 00 00 00 00 00 
   925)      3201.1  Rx         0409  8  18 00 00 00 00 00 00 00 
   926)      3203.4  Rx         0210  7  FF FF 30 20 90 00 1A 
   927)      3203.6  Rx         04B0  8  27 10 27 10 27 10 27 10 
   928)      3217.4  Rx         0210  7  FF FF 30 20 90 00 1B 
   929)      3217.6  Rx         04B0  8  27 10 27 10 27 10 27 10 
   930)      3218.4  Rx         0495  2  7F 00 
   931)      3218.6  Rx         0251  8  40 00 00 00 00 00 00 00 
   932)      3228.6  Rx         0265  8  FC 00 00 00 00 10 00 00 
   933)      3231.4  Rx         0210  7  FF FF 30 20 90 00 1C 
   934)      3231.6  Rx         04B0  8  27 10 27 10 27 10 27 10 
   935)      3238.5  Rx         0310  3  02 00 00 
   936)      3245.4  Rx         0210  7  FF FF 30 20 90 00 1D 
   937)      3245.7  Rx         04B0  8  27 10 27 10 27 10 27 10 
   938)      3247.7  Rx         0250  8  08 00 40 00 00 00 00 00 
   939)      3248.1  Rx         0440  8  06 6E 04 0F 00 00 00 00 
   940)      3248.7  Rx         0441  8  00 00 00 00 00 00 00 00 
   941)      3249.1  Rx         0442  8  00 00 00 00 00 00 00 00 
   942)      3249.6  Rx         0443  8  00 00 00 00 00 00 00 00 
   943)      3250.1  Rx         0444  8  00 00 00 00 00 00 00 00 
   944)      3258.6  Rx         0359  8  03 00 00 85 00 00 00 00 
   945)      3259.5  Rx         0210  7  FF FF 30 20 90 00 1E 
   946)      3259.7  Rx         04B0  8  27 10 27 10 27 10 27 10 
   947)      3273.4  Rx         0210  7  FF FF 30 20 90 00 1F 
   948)      3273.7  Rx         04B0  8  27 10 27 10 27 10 27 10 
   949)      3287.4  Rx         0210  7  FF FF 30 20 90 00 20 
   950)      3287.7  Rx         04B0  8  27 10 27 10 27 10 27 10 
   951)      3300.4  Rx         0460  8  03 E0 00 00 00 00 00 00 
   952)      3301.4  Rx         0210  7  FF FF 30 20 90 00 21 
   953)      3301.7  Rx         04B0  8  27 10 27 10 27 10 27 10 
   954)      3315.3  Rx         0301  8  00 00 00 02 00 10 00 BE 
   955)      3315.5  Rx         0210  7  FF FF 30 20 90 00 22 
   956)      3315.8  Rx         0304  8  00 00 04 00 00 D2 00 B4 
   957)      3316.0  Rx         0302  8  01 00 00 00 09 54 00 00 
   958)      3316.2  Rx         0305  8  00 00 0F 40 00 00 00 00 
   959)      3316.5  Rx         0303  8  0F 59 00 00 00 00 18 00 
   960)      3316.8  Rx         04B0  8  27 10 27 10 27 10 27 10 
   961)      3318.3  Rx         0495  2  7F 00 
   962)      3318.7  Rx         0251  8  40 00 00 00 00 00 00 00 
   963)      3328.7  Rx         0264  8  00 00 09 00 04 21 00 00 
   964)      3329.5  Rx         0210  7  FF FF 30 20 90 00 23 
   965)      3329.7  Rx         04B0  8  27 10 27 10 27 10 27 10 
   966)      3338.6  Rx         0265  8  FC 00 00 00 00 10 00 00 
   967)      3343.5  Rx         0210  7  FF FF 30 20 90 00 24 
   968)      3343.7  Rx         04B0  8  27 10 27 10 27 10 27 10 
   969)      3347.7  Rx         0250  8  08 00 40 00 00 00 00 00 
   970)      3348.5  Rx         0311  2  00 00 
   971)      3357.5  Rx         0210  7  FF FF 30 20 90 00 25 
   972)      3357.7  Rx         04B0  8  27 10 27 10 27 10 27 10 
   973)      3371.5  Rx         0210  7  FF FF 30 20 90 00 26 
   974)      3371.7  Rx         04B0  8  27 10 27 10 27 10 27 10 
   975)      3385.5  Rx         0210  7  FF FF 30 20 90 00 27 
   976)      3385.7  Rx         04B0  8  27 10 27 10 27 10 27 10 
   977)      3390.3  Rx         0610  8  06 87 06 80 15 12 01 AC 
   978)      3390.5  Rx         0611  8  06 83 00 07 F6 F6 F2 F4 
   979)      3399.5  Rx         0210  7  FF FF 30 20 90 00 28 
   980)      3399.7  Rx         04B0  8  27 10 27 10 27 10 27 10 
   981)      3400.1  Rx         0023  1  40 
   982)      3400.4  Rx         0460  8  03 E0 00 00 00 00 00 00 
   983)      3413.5  Rx         0210  7  FF FF 30 20 90 00 29 
   984)      3413.7  Rx         04B0  8  27 10 27 10 27 10 27 10 
   985)      3418.3  Rx         0495  2  7F 00 
   986)      3418.7  Rx         0251  8  40 00 00 00 00 00 00 00 
   987)      3427.5  Rx         0210  7  FF FF 30 20 90 00 2A 
   988)      3427.8  Rx         04B0  8  27 10 27 10 27 10 27 10 
   989)      3428.7  Rx         0265  8  FC 00 00 00 00 10 00 00 
   990)      3438.6  Rx         0310  3  02 00 00 
   991)      3441.5  Rx         0210  7  FF FF 30 20 90 00 2B 
   992)      3441.8  Rx         04B0  8  27 10 27 10 27 10 27 10 
   993)      3447.8  Rx         0250  8  08 00 40 00 00 00 00 00 
   994)      3448.2  Rx         0440  8  06 6E 04 0F 00 00 00 00 
   995)      3448.8  Rx         0441  8  00 00 00 00 00 00 00 00 
   996)      3449.2  Rx         0442  8  00 00 00 00 00 00 00 00 
   997)      3449.7  Rx         0443  8  00 00 00 00 00 00 00 00 
   998)      3450.2  Rx         0444  8  00 00 00 00 00 00 00 00 
   999)      3455.5  Rx         0210  7  FF FF 30 20 90 00 2C 
  1000)      3455.8  Rx         04B0  8  27 10 27 10 27 10 27 10 
  1001)      3458.7  Rx         0359  8  03 00 00 85 00 00 00 00 
  1002)      3469.5  Rx         0210  7  FF FF 30 20 90 00 2D 
  1003)      3469.8  Rx         04B0  8  27 10 27 10 27 10 27 10 
  1004)      3470.8  Rx         0408  8  08 02 01 10 00 00 7B 07 
  1005)      3483.5  Rx         0210  7  FF FF 30 20 90 00 2E 
  1006)      3483.7  Rx         04B0  8  27 10 27 10 27 10 27 10 
  1007)      3497.5  Rx         0210  7  FF FF 30 20 90 00 2F 
  1008)      3497.7  Rx         04B0  8  27 10 27 10 27 10 27 10 
  1009)      3499.9  Rx         0460  8  03 E0 00 00 00 00 00 00 
  1010)      3511.5  Rx         0210  7  FF FF 30 20 90 00 30 
  1011)      3511.8  Rx         04B0  8  27 10 27 10 27 10 27 10 
  1012)      3515.3  Rx         0301  8  00 00 00 02 00 10 00 BE 
  1013)      3515.5  Rx         0302  8  01 00 00 00 09 54 00 00 
  1014)      3515.8  Rx         0304  8  00 00 04 00 00 D2 00 B4 
  1015)      3516.0  Rx         0305  8  00 00 0F 40 00 00 00 00 
  1016)      3516.3  Rx         0303  8  0F 59 00 00 00 00 18 00 
  1017)      3518.3  Rx         0495  2  7F 00 
  1018)      3518.7  Rx         0251  8  40 00 00 00 00 00 00 00 
  1019)      3525.5  Rx         0210  7  FF FF 30 20 90 00 31 
  1020)      3525.8  Rx         04B0  8  27 10 27 10 27 10 27 10 
  1021)      3528.7  Rx         0264  8  00 00 09 00 04 21 00 00 
  1022)      3538.7  Rx         0265  8  FC 00 00 00 00 10 00 00 
  1023)      3539.6  Rx         0210  7  FF FF 30 20 90 00 32 
  1024)      3539.8  Rx         04B0  8  27 10 27 10 27 10 27 10 
  1025)      3548.0  Rx         0250  8  08 00 40 00 00 00 00 00 
  1026)      3548.6  Rx         0311  2  00 00 
  1027)      3553.6  Rx         0210  7  FF FF 30 20 90 00 33 
  1028)      3553.8  Rx         04B0  8  27 10 27 10 27 10 27 10 
  1029)      3567.5  Rx         0210  7  FF FF 30 20 90 00 34 
  1030)      3567.8  Rx         04B0  8  27 10 27 10 27 10 27 10 
  1031)      3581.6  Rx         0210  7  FF FF 30 20 90 00 35 
  1032)      3581.8  Rx         04B0  8  27 10 27 10 27 10 27 10 
  1033)      3590.3  Rx         0610  8  06 87 06 81 15 12 01 AC 
  1034)      3590.5  Rx         0611  8  06 83 00 06 F6 F6 F2 F4 
  1035)      3595.6  Rx         0210  7  FF FF 30 20 90 00 36 
  1036)      3595.8  Rx         04B0  8  27 10 27 10 27 10 27 10 
  1037)      3599.5  Rx         0023  1  40 
  1038)      3599.8  Rx         0460  8  03 E0 00 00 00 00 00 00 
  1039)      3609.6  Rx         0210  7  FF FF 30 20 90 00 37 
  1040)      3609.8  Rx         04B0  8  27 10 27 10 27 10 27 10 
  1041)      3618.3  Rx         0495  2  7F 00 
  1042)      3618.7  Rx         0251  8  40 00 00 00 00 00 00 00 
  1043)      3623.6  Rx         0210  7  FF FF 30 20 90 00 38 
  1044)      3623.8  Rx         04B0  8  27 10 27 10 27 10 27 10 
  1045)      3628.7  Rx         0263  6  00 00 26 7C AF 00 
  1046)      3637.6  Rx         0210  7  FF FF 30 20 90 00 39 
  1047)      3637.9  Rx         04B0  8  27 10 27 10 27 10 27 10 
  1048)      3638.7  Rx         0265  8  FC 00 00 00 00 10 00 00 
  1049)      3648.1  Rx         0250  8  08 00 40 00 00 00 00 00 
  1050)      3648.5  Rx         0440  8  06 6E 04 0F 00 00 00 00 
  1051)      3648.7  Rx         0310  3  02 00 00 
  1052)      3649.1  Rx         0441  8  00 00 00 00 00 00 00 00 
  1053)      3649.5  Rx         0442  8  00 00 00 00 00 00 00 00 
  1054)      3650.0  Rx         0443  8  00 00 00 00 00 00 00 00 
  1055)      3650.4  Rx         0444  8  00 00 00 00 00 00 00 00 
  1056)      3651.6  Rx         0210  7  FF FF 30 20 90 00 3A 
  1057)      3651.9  Rx         04B0  8  27 10 27 10 27 10 27 10 
  1058)      3665.6  Rx         0210  7  FF FF 30 20 90 00 3B 
  1059)      3665.8  Rx         04B0  8  27 10 27 10 27 10 27 10 
  1060)      3668.7  Rx         0359  8  03 00 00 85 00 00 00 00 
  1061)      3679.6  Rx         0210  7  FF FF 30 20 90 00 3C 
  1062)      3679.8  Rx         04B0  8  27 10 27 10 27 10 27 10 
  1063)      3693.6  Rx         0210  7  FF FF 30 20 90 00 3D 
  1064)      3693.9  Rx         04B0  8  27 10 27 10 27 10 27 10 
  1065)      3699.5  Rx         0460  8  03 E0 00 00 00 00 00 00 
  1066)      3700.6  Rx         0409  8  18 00 00 00 00 00 00 00 
  1067)      3707.7  Rx         0210  7  FF FF 30 20 90 00 3E 
  1068)      3707.9  Rx         04B0  8  27 10 27 10 27 10 27 10 
  1069)      3715.3  Rx         0301  8  00 00 00 02 00 10 00 BE 
  1070)      3715.6  Rx         0302  8  01 00 00 00 09 54 00 00 
  1071)      3715.8  Rx         0304  8  00 00 04 00 00 D2 00 B4 
  1072)      3716.0  Rx         0305  8  00 00 0F 40 00 00 00 00 
  1073)      3716.3  Rx         0303  8  0F 59 00 00 00 00 18 00 
  1074)      3718.2  Rx         0495  2  7F 00 
  1075)      3718.8  Rx         0251  8  40 00 00 00 00 00 00 00 
  1076)      3721.7  Rx         0210  7  FF FF 30 20 90 00 3F 
  1077)      3721.9  Rx         04B0  8  27 10 27 10 27 10 27 10 
  1078)      3728.7  Rx         0264  8  00 00 09 00 04 21 00 00 
  1079)      3735.6  Rx         0210  7  FF FF 30 20 90 00 40 
  1080)      3735.9  Rx         04B0  8  27 10 27 10 27 10 27 10 
  1081)      3738.7  Rx         0265  8  FC 00 00 00 00 10 00 00 
  1082)      3748.2  Rx         0250  8  08 00 40 00 00 00 00 00 
  1083)      3748.7  Rx         0311  2  00 00 
  1084)      3749.6  Rx         0210  7  FF FF 30 20 90 00 41 
  1085)      3749.9  Rx         04B0  8  27 10 27 10 27 10 27 10 
  1086)      3763.7  Rx         0210  7  FF FF 30 20 90 00 42 
  1087)      3763.9  Rx         04B0  8  27 10 27 10 27 10 27 10 
  1088)      3777.7  Rx         0210  7  FF FF 30 20 90 00 43 
  1089)      3777.9  Rx         04B0  8  27 10 27 10 27 10 27 10 
  1090)      3790.3  Rx         0610  8  06 87 06 81 15 12 01 AC 
  1091)      3790.5  Rx         0611  8  06 83 00 06 F6 F6 F2 F4 
  1092)      3791.7  Rx         0210  7  FF FF 30 20 90 00 44 
  1093)      3791.9  Rx         04B0  8  27 10 27 10 27 10 27 10 
  1094)      3799.1  Rx         0023  1  40 
  1095)      3799.4  Rx         0460  8  03 E0 00 00 00 00 00 00 
  1096)      3805.7  Rx         0210  7  FF FF 30 20 90 00 45 
  1097)      3805.9  Rx         04B0  8  27 10 27 10 27 10 27 10 
  1098)      3818.2  Rx         0495  2  7F 00 
  1099)      3818.8  Rx         0251  8  40 00 00 00 00 00 00 00 
  1100)      3819.7  Rx         0210  7  FF FF 30 20 90 00 46 
  1101)      3819.9  Rx         04B0  8  27 10 27 10 27 10 27 10 
  1102)      3828.7  Rx         0265  8  FC 00 00 00 00 10 00 00 
  1103)      3833.7  Rx         0210  7  FF FF 30 20 90 00 47 
  1104)      3834.0  Rx         04B0  8  27 10 27 10 27 10 27 10 
  1105)      3838.7  Rx         0310  3  02 00 00 
  1106)      3847.7  Rx         0210  7  FF FF 30 20 90 00 48 
  1107)      3847.9  Rx         04B0  8  27 10 27 10 27 10 27 10 
  1108)      3848.3  Rx         0250  8  08 00 40 00 00 00 00 00 
  1109)      3848.8  Rx         0440  8  06 6E 04 0F 00 00 00 00 
  1110)      3849.3  Rx         0441  8  00 00 00 00 00 00 00 00 
  1111)      3849.7  Rx         0442  8  00 00 00 00 00 00 00 00 
  1112)      3850.2  Rx         0443  8  00 00 00 00 00 00 00 00 
  1113)      3850.6  Rx         0444  8  00 00 00 00 00 00 00 00 
  1114)      3858.8  Rx         0359  8  03 00 00 85 00 00 00 00 
  1115)      3861.7  Rx         0210  7  FF FF 30 20 90 00 49 
  1116)      3861.9  Rx         04B0  8  27 10 27 10 27 10 27 10 
  1117)      3875.7  Rx         0210  7  FF FF 30 20 90 00 4A 
  1118)      3876.0  Rx         04B0  8  27 10 27 10 27 10 27 10 
  1119)      3889.8  Rx         0210  7  FF FF 30 20 90 00 4B 
  1120)      3890.0  Rx         04B0  8  27 10 27 10 27 10 27 10 
  1121)      3899.0  Rx         0460  8  03 E0 00 00 00 00 00 00 
  1122)      3903.8  Rx         0210  7  FF FF 30 20 90 00 4C 
  1123)      3904.0  Rx         04B0  8  27 10 27 10 27 10 27 10 
  1124)      3915.3  Rx         0301  8  00 00 00 02 00 10 00 BE 
  1125)      3915.6  Rx         0302  8  01 00 00 00 09 54 00 00 
  1126)      3915.8  Rx         0304  8  00 00 04 00 00 D2 00 B4 
  1127)      3916.0  Rx         0305  8  00 00 0F 40 00 00 00 00 
  1128)      3916.3  Rx         0303  8  0F 59 00 00 00 00 18 00 
  1129)      3917.7  Rx         0210  7  FF FF 30 20 90 00 4D 
  1130)      3918.0  Rx         04B0  8  27 10 27 10 27 10 27 10 
  1131)      3918.2  Rx         0495  2  7F 00 
  1132)      3918.8  Rx         0251  8  40 00 00 00 00 00 00 00 
  1133)      3928.8  Rx         0264  8  00 00 09 00 04 21 00 00 
  1134)      3931.7  Rx         0210  7  FF FF 30 20 90 00 4E 
  1135)      3932.0  Rx         04B0  8  27 10 27 10 27 10 27 10 
  1136)      3938.8  Rx         0265  8  FC 00 00 00 00 10 00 00 
  1137)      3945.8  Rx         0210  7  FF FF 30 20 90 00 4F 
  1138)      3946.0  Rx         04B0  8  27 10 27 10 27 10 27 10 
  1139)      3948.5  Rx         0250  8  08 00 40 00 00 00 00 00 
  1140)      3948.7  Rx         0311  2  00 00 
  1141)      3959.8  Rx         0210  7  FF FF 30 20 90 00 50 
  1142)      3960.0  Rx         04B0  8  27 10 27 10 27 10 27 10 
  1143)      3970.3  Rx         0408  8  08 02 01 10 00 00 7B 07 
  1144)      3973.8  Rx         0210  7  FF FF 30 20 90 00 51 
  1145)      3974.0  Rx         04B0  8  27 10 27 10 27 10 27 10 
  1146)      3987.8  Rx         0210  7  FF FF 30 20 90 00 52 
  1147)      3988.0  Rx         04B0  8  27 10 27 10 27 10 27 10 
  1148)      3990.3  Rx         0610  8  06 87 06 81 15 12 01 AC 
  1149)      3990.6  Rx         0300  8  02 00 25 00 00 00 01 00 
  1150)      3990.8  Rx         0306  8  00 00 00 00 00 00 00 00 
  1151)      3991.0  Rx         0611  8  06 83 00 06 F6 F6 F2 F4 
