  can0  1DB   [8]  00 04 C2 62 00 00 03 B6
  can0  1DC   [8]  B4 07 8F FD 08 C0 C3 DD
  can0  1ED   [3]  FF E3 62
  can0  55B   [8]  D8 80 00 00 E7 00 11 23
  can0  5BC   [8]  BB 80 CE 64 C0 13 FF FF
  can0  1C2   [1]  5A
  can0  1DB   [8]  00 04 C2 62 00 00 00 BC
  can0  1DC   [8]  B4 07 8F FD 0C CC DC 0A
  can0  1ED   [3]  FF E0 68
  can0  1C2   [1]  5B
  can0  1DB   [8]  00 04 C2 62 00 00 01 39
  can0  1DC   [8]  B4 07 8F FD 01 2C D5 C6
  can0  1ED   [3]  FF E1 ED
  can0  1C2   [1]  5C
  can0  1DB   [8]  00 04 C2 62 00 00 02 33
  can0  1DC   [8]  B4 07 8F FD 05 10 CA DB
  can0  1ED   [3]  FF E2 E7
  can0  1C2   [1]  5D
  can0  1DB   [8]  00 04 C2 62 00 00 03 B6
  can0  1DC   [8]  B4 07 8F FD 08 C0 C3 DD
  can0  1ED   [3]  FF E3 62
  can0  1C2   [1]  5E
  can0  1DB   [8]  00 04 C2 62 00 00 00 BC
  can0  1DC   [8]  B4 07 8F FD 0C CC DC 0A
  can0  1ED   [3]  FF E0 68
  can0  1C2   [1]  5F
  can0  1DB   [8]  00 04 C2 62 00 00 01 39
  can0  1DC   [8]  B4 07 8F FD 01 2C D5 C6
  can0  1ED   [3]  FF E1 ED
  can0  1C2   [1]  50
  can0  1DB   [8]  00 04 C2 62 00 00 02 33
  can0  1DC   [8]  B4 07 8F FD 05 10 CA DB
  can0  1ED   [3]  FF E2 E7
  can0  1C2   [1]  51
  can0  1DB   [8]  00 04 C2 62 00 00 03 B6
  can0  1DC   [8]  B4 07 8F FD 08 C0 C3 DD
  can0  1ED   [3]  FF E3 62
  can0  1C2   [1]  52
  can0  1DB   [8]  00 04 C2 62 00 00 00 BC
  can0  1DC   [8]  B4 07 8F FD 0C CC DC 0A
  can0  1ED   [3]  FF E0 68
  can0  1C2   [1]  53
  can0  1DB   [8]  00 04 C2 62 00 00 01 39
  can0  1DC   [8]  B4 07 8F FD 01 2C D5 C6
  can0  1ED   [3]  FF E1 ED
  can0  55B   [8]  D8 80 00 00 E7 00 12 29
  can0  5BC   [8]  9F 40 CE 64 C0 03 FF FF
  can0  1C2   [1]  54
  can0  1DB   [8]  00 04 C2 62 00 00 02 33
  can0  1DC   [8]  B4 07 8F FD 05 10 CA DB
  can0  1ED   [3]  FF E2 E7
  can0  1C2   [1]  55
  can0  1DB   [8]  00 04 C2 62 00 00 03 B6
  can0  1DC   [8]  B4 07 8F FD 08 C0 C3 DD
  can0  1ED   [3]  FF E3 62
  can0  1C2   [1]  56
  can0  1DB   [8]  00 04 C2 62 00 00 00 BC
  can0  1DC   [8]  B4 07 8F FD 0C CC DC 0A
  can0  1ED   [3]  FF E0 68
  can0  1C2   [1]  57
  can0  1DB   [8]  00 04 C2 62 00 00 01 39
  can0  1DC   [8]  B4 07 8F FD 01 2C D5 C6
  can0  1ED   [3]  FF E1 ED
  can0  1C2   [1]  58
  can0  1DB   [8]  00 04 C2 62 00 00 02 33
  can0  1DC   [8]  B4 07 8F FD 05 10 CA DB
  can0  1ED   [3]  FF E2 E7
  can0  1C2   [1]  59
  can0  1DB   [8]  00 04 C2 62 00 00 03 B6
  can0  1DC   [8]  B4 07 8F FD 08 C0 C3 DD
  can0  1ED   [3]  FF E3 62
  can0  1C2   [1]  5A
  can0  1DB   [8]  00 04 C2 62 00 00 00 BC
  can0  1DC   [8]  B4 07 8F FD 0C CC DC 0A
  can0  1ED   [3]  FF E0 68
  can0  1C2   [1]  5B
  can0  1DB   [8]  00 04 C2 62 00 00 01 39
  can0  1DC   [8]  B4 07 8F FD 01 2C D5 C6
  can0  1ED   [3]  FF E1 ED
  can0  1C2   [1]  5C
  can0  380   [8]  00 04 10 21 00 00 00 36
  can0  1DB   [8]  00 04 C2 62 00 00 02 33
  can0  1DC   [8]  B4 07 8F FD 05 10 CA DB
  can0  1ED   [3]  FF E2 E7
  can0  1C2   [1]  5D
  can0  1DB   [8]  00 04 C2 62 00 00 03 B6
  can0  1DC   [8]  B4 07 8F FD 08 C0 C3 DD
  can0  1ED   [3]  FF E3 62
  can0  55B   [8]  D8 80 00 00 E7 00 13 AC
  can0  5BC   [8]  BB 80 CE 64 C0 13 FF FF
  can0  1C2   [1]  5E
  can0  380   [8]  02 04 10 21 00 00 00 05
  can0  1DB   [8]  00 04 C2 62 00 00 00 BC
  can0  1DC   [8]  B4 07 8F FD 0C CC DC 0A
  can0  1ED   [3]  FF E0 68
  can0  59E   [8]  00 00 25 2F A0 00 00 AC
  can0  5C0   [8]  00 FE FF FF F9 FF FF 00
  can0  5EB   [8]  FF 0F FF FF FF FF FF FF
  can0  1C2   [1]  5F
  can0  1DB   [8]  00 04 C2 62 00 00 01 39
  can0  1DC   [8]  B4 07 8F FD 01 2C D5 C6
  can0  1ED   [3]  FF E1 ED
  can0  1C2   [1]  50
  can0  1DB   [8]  00 04 C2 62 00 00 02 33
  can0  1DC   [8]  B4 07 8F FD 05 10 CA DB
  can0  1ED   [3]  FF E2 E7
  can0  1C2   [1]  51
  can0  1DB   [8]  00 04 C2 62 00 00 03 B6
  can0  1DC   [8]  B4 07 8F FD 08 C0 C3 DD
  can0  1ED   [3]  FF E3 62
  can0  1C2   [1]  52
  can0  1DB   [8]  00 04 C2 62 00 00 00 BC
  can0  1DC   [8]  B4 07 8F FD 0C CC DC 0A
  can0  1ED   [3]  FF E0 68
  can0  1C2   [1]  53
  can0  1DB   [8]  00 04 C2 62 00 00 01 39
  can0  1DC   [8]  B4 07 8F FD 01 2C D5 C6
  can0  1ED   [3]  FF E1 ED
  can0  1C2   [1]  54
  can0  1DB   [8]  00 04 C2 62 00 00 02 33
  can0  1DC   [8]  B4 07 8F FD 05 10 CA DB
  can0  1ED   [3]  FF E2 E7
  can0  1C2   [1]  55
  can0  380   [8]  02 04 10 21 00 00 00 16
  can0  5BF   [8]  00 00 00 00 10 00 00 33
  can0  1DB   [8]  00 04 C2 62 00 00 03 B6
  can0  1DC   [8]  B4 07 8F FD 08 C0 C3 DD
  can0  1ED   [3]  FF E3 62
  can0  1C2   [1]  56
  can0  1DB   [8]  00 04 C2 62 00 00 00 BC
  can0  1DC   [8]  B4 07 8F FD 0C CC DC 0A
  can0  1ED   [3]  FF E0 68
  can0  1C2   [1]  57
  can0  1DB   [8]  00 04 C2 62 00 00 01 39
  can0  1DC   [8]  B4 07 8F FD 01 2C D5 C6
  can0  1ED   [3]  FF E1 ED
  can0  55B   [8]  D8 80 00 00 E7 00 10 A6
  can0  5BC   [8]  9F 40 F0 64 C1 03 FF FF
  can0  1C2   [1]  58
  can0  1DB   [8]  00 04 C2 62 00 00 02 33
  can0  1DC   [8]  B4 07 8F FD 05 10 CA DB
  can0  1ED   [3]  FF E2 E7
  can0  1C2   [1]  59
  can0  1DB   [8]  00 04 C2 62 00 00 03 B6
  can0  1DC   [8]  B4 07 8F FD 08 C0 C3 DD
  can0  1ED   [3]  FF E3 62
  can0  1C2   [1]  5A
  can0  1DB   [8]  00 04 C2 62 00 00 00 BC
  can0  1DC   [8]  B4 07 8F FD 0C CC DC 0A
  can0  1ED   [3]  FF E0 68
  can0  1C2   [1]  5B
  can0  1DB   [8]  00 04 C2 62 00 00 01 39
  can0  1DC   [8]  B4 07 8F FD 01 2C D5 C6
  can0  1ED   [3]  FF E1 ED
  can0  1C2   [1]  5C
  can0  1DB   [8]  00 04 C2 62 00 00 02 33
  can0  1DC   [8]  B4 07 8F FD 05 10 CA DB
  can0  1ED   [3]  FF E2 E7
  can0  1C2   [1]  5D
  can0  1DB   [8]  00 04 C2 62 00 00 03 B6
  can0  1DC   [8]  B4 07 8F FD 08 C0 C3 DD
  can0  1ED   [3]  FF E3 62
  can0  1C2   [1]  5E
  can0  1DB   [8]  00 04 C2 62 00 00 00 BC
  can0  1DC   [8]  B4 07 8F FD 0C CC DC 0A
  can0  1ED   [3]  FF E0 68
  can0  1C2   [1]  5F
  can0  380   [8]  02 04 10 21 00 00 00 27
  can0  5BF   [8]  00 00 00 00 18 00 00 08
  can0  1DB   [8]  00 04 C2 62 00 00 01 39
  can0  1DC   [8]  B4 07 8F FD 01 2C D5 C6
  can0  1ED   [3]  FF E1 ED
  can0  1C2   [1]  50
  can0  1DB   [8]  00 04 C2 62 00 00 02 33
  can0  1DC   [8]  B4 07 8F FD 05 10 CA DB
  can0  1ED   [3]  FF E2 E7
  can0  1C2   [1]  51
  can0  1DB   [8]  00 04 C2 62 00 00 03 B6
  can0  1DC   [8]  B4 07 8F FD 08 C0 C3 DD
  can0  1ED   [3]  FF E3 62
  can0  55B   [8]  D8 80 00 00 E7 00 11 23
  can0  5BC   [8]  BB 80 F0 64 C1 13 FF FF
  can0  1C2   [1]  52
  can0  1DB   [8]  00 04 C2 62 00 00 00 BC
  can0  1DC   [8]  B4 07 9F FD 0C CC DC 58
  can0  1ED   [3]  FF E0 68
  can0  1C2   [1]  53
  can0  1DB   [8]  00 04 C2 A2 00 00 01 1E
  can0  1DC   [8]  B4 07 9F FD 01 2C D5 94
  can0  1ED   [3]  FF E1 ED
  can0  1C2   [1]  54
  can0  1DB   [8]  00 04 C2 A2 00 00 02 14
  can0  1DC   [8]  B4 07 9F FD 05 10 CA 89
  can0  1ED   [3]  FF E2 E7
  can0  1C2   [1]  55
  can0  1DB   [8]  00 04 C2 A2 00 00 03 91
  can0  1DC   [8]  B4 07 9F FD 08 C0 C3 8F
  can0  1ED   [3]  FF E3 62
  can0  1C2   [1]  56
  can0  1DB   [8]  00 04 C2 A2 00 00 00 9B
  can0  1DC   [8]  B4 07 9F FD 0C CC DC 58
  can0  1ED   [3]  FF E0 68
  can0  1C2   [1]  57
  can0  1DB   [8]  00 04 C2 62 00 00 01 39
  can0  1DC   [8]  B4 07 9F FD 01 2C D5 94
  can0  1ED   [3]  FF E1 ED
  can0  1C2   [1]  58
  can0  1DB   [8]  00 04 C2 62 00 00 02 33
  can0  1DC   [8]  B4 07 9F FD 05 10 CA 89
  can0  1ED   [3]  FF E2 E7
  can0  1C2   [1]  59
  can0  380   [8]  02 04 10 21 00 00 00 38
  can0  5BF   [8]  00 00 00 00 18 00 00 19
  can0  1DB   [8]  00 04 C2 62 00 00 03 B6
  can0  1DC   [8]  B4 07 9F FD 08 C0 C3 8F
  can0  1ED   [3]  FF E3 62
  can0  1C2   [1]  5A
  can0  1DB   [8]  00 04 C2 62 00 00 00 BC
  can0  1DC   [8]  B4 07 9F FD 0C CC DC 58
  can0  1ED   [3]  FF E0 68
  can0  1C2   [1]  5B
  can0  1DB   [8]  00 04 C2 62 00 00 01 39
  can0  1DC   [8]  B4 07 9F FD 01 2C D5 94
  can0  1ED   [3]  FF E1 ED
  can0  55B   [8]  D8 80 00 00 E7 00 12 29
  can0  5BC   [8]  9F 40 F0 64 C1 03 FF FF
  can0  1C2   [1]  5C
  can0  1DB   [8]  00 04 C2 62 00 00 02 33
  can0  1DC   [8]  B4 07 8F FD 05 10 CA DB
  can0  1ED   [3]  FF E2 E7
  can0  1C2   [1]  5D
  can0  1DB   [8]  00 04 C2 62 00 00 03 B6
  can0  1DC   [8]  B4 07 8F FD 08 C0 C3 DD
  can0  1ED   [3]  FF E3 62
  can0  1C2   [1]  5E
  can0  1DB   [8]  00 04 C2 62 00 00 00 BC
  can0  1DC   [8]  B4 07 8F FD 0C CC DC 0A
  can0  1ED   [3]  FF E0 68
  can0  1C2   [1]  5F
  can0  1DB   [8]  00 04 C2 62 00 00 01 39
  can0  1DC   [8]  B4 07 8F FD 01 2C D5 C6
  can0  1ED   [3]  FF E1 ED
  can0  1C2   [1]  50
  can0  1DB   [8]  00 04 C2 62 00 00 02 33
  can0  1DC   [8]  B4 07 8F FD 05 10 CA DB
  can0  1ED   [3]  FF E2 E7
  can0  1C2   [1]  51
  can0  1DB   [8]  00 04 C2 62 00 00 03 B6
  can0  1DC   [8]  B4 07 8F FD 08 C0 C3 DD
  can0  1ED   [3]  FF E3 62
  can0  1C2   [1]  52
  can0  1DB   [8]  00 04 C2 62 00 00 00 BC
  can0  1DC   [8]  B4 07 8F FD 0C CC DC 0A
  can0  1ED   [3]  FF E0 68
  can0  1C2   [1]  53
  can0  380   [8]  02 04 10 21 00 00 00 05
  can0  5BF   [8]  00 00 00 00 18 00 00 2A
  can0  1DB   [8]  00 04 C2 62 00 00 01 39
  can0  1DC   [8]  B4 07 8F FD 01 2C D5 C6
  can0  1ED   [3]  FF E1 ED
  can0  1C2   [1]  54
  can0  1DB   [8]  00 04 C2 62 00 00 02 33
  can0  1DC   [8]  B4 07 8F FD 05 10 CA DB
  can0  1ED   [3]  FF E2 E7
  can0  1C2   [1]  55
  can0  1DB   [8]  00 04 C2 62 00 00 03 B6
  can0  1DC   [8]  B4 07 8F FD 08 C0 C3 DD
  can0  1ED   [3]  FF E3 62
  can0  55B   [8]  D8 80 00 00 E7 00 13 AC
  can0  5BC   [8]  BB 80 F0 64 C1 13 FF FF
  can0  1C2   [1]  56
  can0  1DB   [8]  00 04 C2 62 00 00 00 BC
  can0  1DC   [8]  B4 07 8F FD 0C CC DC 0A
  can0  1ED   [3]  FF E0 68
  can0  1C2   [1]  57
  can0  1DB   [8]  00 04 C2 62 00 00 01 39
  can0  1DC   [8]  B4 07 8F FD 01 2C D5 C6
  can0  1ED   [3]  FF E1 ED
  can0  1C2   [1]  58
  can0  1DB   [8]  00 04 C2 62 00 00 02 33
  can0  1DC   [8]  B4 07 8F FD 05 10 CA DB
  can0  1ED   [3]  FF E2 E7
  can0  1C2   [1]  59
  can0  1DB   [8]  00 04 C2 62 00 00 03 B6
  can0  1DC   [8]  B4 07 8F FD 08 C0 C3 DD
  can0  1ED   [3]  FF E3 62
  can0  1C2   [1]  5A
  can0  1DB   [8]  00 04 C2 62 00 00 00 BC
  can0  1DC   [8]  B4 07 8F FD 0C CC DC 0A
  can0  1ED   [3]  FF E0 68
  can0  1C2   [1]  5B
  can0  1DB   [8]  00 04 C2 62 00 00 01 39
  can0  1DC   [8]  B4 07 8F FD 01 2C D5 C6
  can0  1ED   [3]  FF E1 ED
  can0  1C2   [1]  5C
  can0  1DB   [8]  00 04 C2 62 00 00 02 33
  can0  1DC   [8]  B4 07 8F FD 05 10 CA DB
  can0  1ED   [3]  FF E2 E7
  can0  1C2   [1]  5D
  can0  380   [8]  02 04 10 21 00 00 00 16
  can0  5BF   [8]  00 00 00 00 18 00 00 3B
  can0  1DB   [8]  00 04 C2 62 00 00 03 B6
  can0  1DC   [8]  B4 07 8F FD 08 C0 C3 DD
  can0  1ED   [3]  FF E3 62
  can0  1C2   [1]  5E
  can0  1DB   [8]  00 04 C2 62 00 00 00 BC
  can0  1DC   [8]  B4 07 8F FD 0C CC DC 0A
  can0  1ED   [3]  FF E0 68
  can0  1C2   [1]  5F
  can0  1DB   [8]  00 04 C2 62 00 00 01 39
  can0  1DC   [8]  B4 07 8F FD 01 2C D5 C6
  can0  1ED   [3]  FF E1 ED
  can0  55B   [8]  D8 80 00 00 E7 00 10 A6
  can0  5BC   [8]  9F 40 F0 64 C1 03 FF FF
  can0  1C2   [1]  50
  can0  1DB   [8]  00 04 C2 62 00 00 02 33
  can0  1DC   [8]  B4 07 8F FD 05 10 CA DB
  can0  1ED   [3]  FF E2 E7
  can0  59E   [8]  00 00 25 2F A0 00 00 AC
  can0  5C0   [8]  00 FE FF FF F9 FF FF 00
  can0  5EB   [8]  FF 0F FF FF FF FF FF FF
  can0  1C2   [1]  51
  can0  1DB   [8]  00 04 C2 62 00 00 03 B6
  can0  1DC   [8]  B4 07 8F FD 08 C0 C3 DD
  can0  1ED   [3]  FF E3 62
  can0  1C2   [1]  52
  can0  1DB   [8]  00 04 C2 62 00 00 00 BC
  can0  1DC   [8]  B4 07 8F FD 0C CC DC 0A
  can0  1ED   [3]  FF E0 68
  can0  1C2   [1]  53
  can0  1DB   [8]  00 04 C2 62 00 00 01 39
  can0  1DC   [8]  B4 07 8F FD 01 2C D5 C6
  can0  1ED   [3]  FF E1 ED
  can0  1C2   [1]  54
  can0  1DB   [8]  00 04 C2 62 00 00 02 33
  can0  1DC   [8]  B4 07 8F FD 05 10 CA DB
  can0  1ED   [3]  FF E2 E7
  can0  1C2   [1]  55
  can0  1DB   [8]  00 04 C2 62 00 00 03 B6
  can0  1DC   [8]  B4 07 8F FD 08 C0 C3 DD
  can0  1ED   [3]  FF E3 62
  can0  1C2   [1]  56
  can0  1DB   [8]  00 04 C2 62 00 00 00 BC
  can0  1DC   [8]  B4 07 8F FD 0C CC DC 0A
  can0  1ED   [3]  FF E0 68
  can0  1C2   [1]  57
  can0  380   [8]  02 04 10 21 00 00 00 27
  can0  5BF   [8]  00 00 00 00 18 00 00 08
  can0  1DB   [8]  00 04 C2 62 00 00 01 39
  can0  1DC   [8]  B4 07 8F FD 01 2C D5 C6
  can0  1ED   [3]  FF E1 ED
  can0  1C2   [1]  58
  can0  1DB   [8]  00 04 C2 62 00 00 02 33
  can0  1DC   [8]  B4 07 8F FD 05 10 CA DB
  can0  1ED   [3]  FF E2 E7
  can0  1C2   [1]  59
  can0  1DB   [8]  00 04 C2 62 00 00 03 B6
  can0  1DC   [8]  B4 07 8F FD 08 C0 C3 DD
  can0  1ED   [3]  FF E3 62
  can0  55B   [8]  D8 80 00 00 E7 00 11 23
  can0  5BC   [8]  BB 80 CE 64 C0 13 FF FF
  can0  1C2   [1]  5A
  can0  1DB   [8]  00 04 C2 62 00 00 00 BC
  can0  1DC   [8]  B4 07 8F FD 0C CC DC 0A
  can0  1ED   [3]  FF E0 68
  can0  1C2   [1]  5B
  can0  1DB   [8]  00 04 C2 62 00 00 01 39
  can0  1DC   [8]  B4 07 8F FD 01 2C D5 C6
  can0  1ED   [3]  FF E1 ED
  can0  1C2   [1]  5C
  can0  1DB   [8]  00 04 C2 62 00 00 02 33
  can0  1DC   [8]  B4 07 8F FD 05 10 CA DB
  can0  1ED   [3]  FF E2 E7
  can0  1C2   [1]  5D
  can0  1DB   [8]  00 04 C2 62 00 00 03 B6
  can0  1DC   [8]  B4 07 8F FD 08 C0 C3 DD
  can0  1ED   [3]  FF E3 62
  can0  1C2   [1]  5E
  can0  1DB   [8]  00 04 C2 62 00 00 00 BC
  can0  1DC   [8]  B4 07 8F FD 0C CC DC 0A
  can0  1ED   [3]  FF E0 68
  can0  1C2   [1]  5F
  can0  1DB   [8]  00 04 C2 62 00 00 01 39
  can0  1DC   [8]  B4 07 8F FD 01 2C D5 C6
  can0  1ED   [3]  FF E1 ED
  can0  1C2   [1]  50
  can0  1DB   [8]  00 04 C2 62 00 00 02 33
  can0  1DC   [8]  B4 07 8F FD 05 10 CA DB
  can0  1ED   [3]  FF E2 E7
  can0  1C2   [1]  51
  can0  380   [8]  02 04 10 21 00 00 00 38
  can0  5BF   [8]  00 00 00 00 18 00 00 19
  can0  1DB   [8]  00 04 C2 62 00 00 03 B6
  can0  1DC   [8]  B4 07 8F FD 08 C0 C3 DD
  can0  1ED   [3]  FF E3 62
  can0  1C2   [1]  52
  can0  1DB   [8]  00 04 C2 62 00 00 00 BC
  can0  1DC   [8]  B4 07 8F FD 0C CC DC 0A
  can0  1ED   [3]  FF E0 68
  can0  1C2   [1]  53
  can0  1DB   [8]  00 04 C2 62 00 00 01 39
  can0  1DC   [8]  B4 07 8F FD 01 2C D5 C6
  can0  1ED   [3]  FF E1 ED
  can0  55B   [8]  D8 80 00 00 E7 00 12 29
  can0  5BC   [8]  9F 40 CE 64 C0 03 FF FF
  can0  1C2   [1]  54
  can0  1DB   [8]  00 04 C2 62 00 00 02 33
  can0  1DC   [8]  B4 07 9F FD 05 10 CA 89
  can0  1ED   [3]  FF E2 E7
  can0  1C2   [1]  55
  can0  1DB   [8]  00 04 C2 62 00 00 03 B6
  can0  1DC   [8]  B4 07 9F FD 08 C0 C3 8F
  can0  1ED   [3]  FF E3 62
  can0  1C2   [1]  56
  can0  1DB   [8]  00 04 C2 62 00 00 00 BC
  can0  1DC   [8]  B4 07 9F FD 0C CC DC 58
  can0  1ED   [3]  FF E0 68
  can0  1C2   [1]  57
  can0  1DB   [8]  00 04 C2 62 00 00 01 39
  can0  1DC   [8]  B4 07 9F FD 01 2C D5 94
  can0  1ED   [3]  FF E1 ED
  can0  1C2   [1]  58
  can0  1DB   [8]  00 04 C2 62 00 00 02 33
  can0  1DC   [8]  B4 07 9F FD 05 10 CA 89
  can0  1ED   [3]  FF E2 E7
  can0  1C2   [1]  59
  can0  1DB   [8]  00 04 C2 62 00 00 03 B6
  can0  1DC   [8]  B4 07 9F FD 08 C0 C3 8F
  can0  1ED   [3]  FF E3 62
  can0  1C2   [1]  5A
  can0  1DB   [8]  00 04 C2 62 00 00 00 BC
  can0  1DC   [8]  B4 07 9F FD 0C CC DC 58
  can0  1ED   [3]  FF E0 68
  can0  1C2   [1]  5B
  can0  380   [8]  02 04 10 21 00 00 00 05
  can0  5BF   [8]  00 00 00 00 18 00 00 2A
  can0  1DB   [8]  00 04 C2 62 00 00 01 39
  can0  1DC   [8]  B4 07 9F FD 01 2C D5 94
  can0  1ED   [3]  FF E1 ED
  can0  1C2   [1]  5C
  can0  1DB   [8]  00 04 C2 62 00 00 02 33
  can0  1DC   [8]  B4 07 9F FD 05 10 CA 89
  can0  1ED   [3]  FF E2 E7
  can0  1C2   [1]  5D
  can0  1DB   [8]  00 04 C2 62 00 00 03 B6
  can0  1DC   [8]  B4 07 9F FD 08 C0 C3 8F
  can0  1ED   [3]  FF E3 62
  can0  55B   [8]  D8 80 00 00 E7 00 13 AC
  can0  5BC   [8]  BB 80 CE 64 C0 13 FF FF
  can0  1C2   [1]  5E
  can0  1DB   [8]  00 04 C2 62 00 00 00 BC
  can0  1DC   [8]  B4 07 8F FD 0C CC DC 0A
  can0  1ED   [3]  FF E0 68
  can0  1C2   [1]  5F
  can0  1DB   [8]  00 04 C2 62 00 00 01 39
  can0  1DC   [8]  B4 07 8F FD 01 2C D5 C6
  can0  1ED   [3]  FF E1 ED
  can0  1C2   [1]  50
  can0  1DB   [8]  00 04 C2 62 00 00 02 33
  can0  1DC   [8]  B4 07 8F FD 05 10 CA DB
  can0  1ED   [3]  FF E2 E7
  can0  1C2   [1]  51
  can0  1DB   [8]  00 04 C2 62 00 00 03 B6
  can0  1DC   [8]  B4 07 8F FD 08 C0 C3 DD
  can0  1ED   [3]  FF E3 62
  can0  1C2   [1]  52
  can0  1DB   [8]  00 04 C2 62 00 00 00 BC
  can0  1DC   [8]  B4 07 8F FD 0C CC DC 0A
  can0  1ED   [3]  FF E0 68
  can0  1C2   [1]  53
  can0  1DB   [8]  00 04 C2 62 00 00 01 39
  can0  1DC   [8]  B4 07 8F FD 01 2C D5 C6
  can0  1ED   [3]  FF E1 ED
  can0  1C2   [1]  54
  can0  1DB   [8]  00 04 C2 62 00 00 02 33
  can0  1DC   [8]  B4 07 8F FD 05 10 CA DB
  can0  1ED   [3]  FF E2 E7
  can0  1C2   [1]  55
  can0  380   [8]  02 04 10 21 00 00 00 16
  can0  5BF   [8]  00 00 00 00 18 00 00 3B
  can0  1DB   [8]  00 04 C2 62 00 00 03 B6
  can0  1DC   [8]  B4 07 8F FD 08 C0 C3 DD
  can0  1ED   [3]  FF E3 62
  can0  1C2   [1]  56
  can0  1DB   [8]  00 04 C2 62 00 00 00 BC
  can0  1DC   [8]  B4 07 8F FD 0C CC DC 0A
  can0  1ED   [3]  FF E0 68
  can0  1C2   [1]  57
  can0  1DB   [8]  00 04 C2 62 00 00 01 39
  can0  1DC   [8]  B4 07 8F FD 01 2C D5 C6
  can0  1ED   [3]  FF E1 ED
  can0  55B   [8]  D8 80 00 00 E7 00 10 A6
  can0  5BC   [8]  9F 40 CE 64 C0 03 FF FF
  can0  1C2   [1]  58
  can0  1DB   [8]  00 04 C2 62 00 00 02 33
  can0  1DC   [8]  B4 07 9F FD 05 10 CA 89
  can0  1ED   [3]  FF E2 E7
  can0  1C2   [1]  59
  can0  1DB   [8]  00 04 C2 62 00 00 03 B6
  can0  1DC   [8]  B4 07 9F FD 08 C0 C3 8F
  can0  1ED   [3]  FF E3 62
  can0  1C2   [1]  5A
  can0  1DB   [8]  00 04 C2 62 00 00 00 BC
  can0  1DC   [8]  B4 07 9F FD 0C CC DC 58
  can0  1ED   [3]  FF E0 68
  can0  1C2   [1]  5B
  can0  1DB   [8]  00 04 C2 62 00 00 01 39
  can0  1DC   [8]  B4 07 9F FD 01 2C D5 94
  can0  1ED   [3]  FF E1 ED
  can0  1C2   [1]  5C
  can0  1DB   [8]  00 04 C2 62 00 00 02 33
  can0  1DC   [8]  B4 07 9F FD 05 10 CA 89
  can0  1ED   [3]  FF E2 E7
  can0  1C2   [1]  5D
  can0  1DB   [8]  00 04 C2 A2 00 00 03 91
  can0  1DC   [8]  B4 07 9F FD 08 C0 C3 8F
  can0  1ED   [3]  FF E3 62
  can0  1C2   [1]  5E
  can0  1DB   [8]  00 04 C2 A2 00 00 00 9B
  can0  1DC   [8]  B4 07 9F FD 0C CC DC 58
  can0  1ED   [3]  FF E0 68
  can0  1C2   [1]  5F
  can0  380   [8]  02 04 10 21 00 00 00 27
  can0  5BF   [8]  00 00 00 00 18 00 00 08
  can0  1DB   [8]  00 04 C2 A2 00 00 01 1E
  can0  1DC   [8]  B4 07 9F FD 01 2C D5 94
  can0  1ED   [3]  FF E1 ED
  can0  1C2   [1]  50
  can0  1DB   [8]  00 04 C2 A2 00 00 02 14
  can0  1DC   [8]  B4 07 9F FD 05 10 CA 89
  can0  1ED   [3]  FF E2 E7
  can0  1C2   [1]  51
  can0  1DB   [8]  00 04 C2 62 00 00 03 B6
  can0  1DC   [8]  B4 07 9F FD 08 C0 C3 8F
  can0  1ED   [3]  FF E3 62
  can0  55B   [8]  D8 80 00 00 E7 00 11 23
  can0  5BC   [8]  BB 80 CE 64 C0 13 FF FF
  can0  1C2   [1]  52
  can0  1DB   [8]  00 04 C2 62 00 00 00 BC
  can0  1DC   [8]  B4 07 9F FD 0C CC DC 58
  can0  1ED   [3]  FF E0 68
  can0  59E   [8]  00 00 25 2F A0 00 00 AC
  can0  5C0   [8]  00 FE FF FF F9 FF FF 00
  can0  5EB   [8]  FF 0F FF FF FF FF FF FF
  can0  1C2   [1]  53
  can0  1DB   [8]  00 04 C2 62 00 00 01 39
  can0  1DC   [8]  B4 07 9F FD 01 2C D5 94
  can0  1ED   [3]  FF E1 ED
  can0  1C2   [1]  54
  can0  1DB   [8]  00 04 C2 62 00 00 02 33
  can0  1DC   [8]  B4 07 9F FD 05 10 CA 89
  can0  1ED   [3]  FF E2 E7
  can0  1C2   [1]  55
  can0  1DB   [8]  00 04 C2 62 00 00 03 B6
  can0  1DC   [8]  B4 07 9F FD 08 C0 C3 8F
  can0  1ED   [3]  FF E3 62
  can0  1C2   [1]  56
  can0  1DB   [8]  00 04 C2 62 00 00 00 BC
  can0  1DC   [8]  B4 07 9F FD 0C CC DC 58
  can0  1ED   [3]  FF E0 68
  can0  1C2   [1]  57
  can0  1DB   [8]  00 04 C2 62 00 00 01 39
  can0  1DC   [8]  B4 07 9F FD 01 2C D5 94
  can0  1ED   [3]  FF E1 ED
  can0  1C2   [1]  58
  can0  1DB   [8]  00 04 C2 62 00 00 02 33
  can0  1DC   [8]  B4 07 9F FD 05 10 CA 89
  can0  1ED   [3]  FF E2 E7
  can0  1C2   [1]  59
  can0  380   [8]  02 04 10 21 00 00 00 38
  can0  5BF   [8]  00 00 00 00 18 00 00 19
  can0  1DB   [8]  00 04 C2 62 00 00 03 B6
  can0  1DC   [8]  B4 07 9F FD 08 C0 C3 8F
  can0  1ED   [3]  FF E3 62
  can0  1C2   [1]  5A
  can0  1DB   [8]  00 04 C2 62 00 00 00 BC
  can0  1DC   [8]  B4 07 9F FD 0C CC DC 58
  can0  1ED   [3]  FF E0 68
  can0  1C2   [1]  5B
  can0  1DB   [8]  00 04 C2 62 00 00 01 39
  can0  1DC   [8]  B4 07 9F FD 01 2C D5 94
  can0  1ED   [3]  FF E1 ED
  can0  55B   [8]  D8 80 00 00 E7 00 12 29
  can0  5BC   [8]  9F 40 F0 64 C1 03 FF FF
  can0  1C2   [1]  5C
  can0  1DB   [8]  00 04 C2 62 00 00 02 33
  can0  1DC   [8]  B4 07 8F FD 05 10 CA DB
  can0  1ED   [3]  FF E2 E7
  can0  1C2   [1]  5D
  can0  1DB   [8]  00 04 C2 62 00 00 03 B6
  can0  1DC   [8]  B4 07 8F FD 08 C0 C3 DD
  can0  1ED   [3]  FF E3 62
  can0  1C2   [1]  5E
  can0  1DB   [8]  00 04 C2 62 00 00 00 BC
  can0  1DC   [8]  B4 07 8F FD 0C CC DC 0A
  can0  1ED   [3]  FF E0 68
  can0  1C2   [1]  5F
  can0  1DB   [8]  00 04 C2 62 00 00 01 39
  can0  1DC   [8]  B4 07 8F FD 01 2C D5 C6
  can0  1ED   [3]  FF E1 ED
  can0  1C2   [1]  50
  can0  1DB   [8]  00 04 C2 62 00 00 02 33
  can0  1DC   [8]  B4 07 8F FD 05 10 CA DB
  can0  1ED   [3]  FF E2 E7
  can0  1C2   [1]  51
  can0  1DB   [8]  00 04 C2 62 00 00 03 B6
  can0  1DC   [8]  B4 07 8F FD 08 C0 C3 DD
  can0  1ED   [3]  FF E3 62
  can0  1C2   [1]  52
  can0  1DB   [8]  00 04 C2 62 00 00 00 BC
  can0  1DC   [8]  B4 07 8F FD 0C CC DC 0A
  can0  1ED   [3]  FF E0 68
  can0  1C2   [1]  53
  can0  380   [8]  02 04 10 21 00 00 00 05
  can0  5BF   [8]  00 00 00 00 18 00 00 2A
  can0  1DB   [8]  00 04 C2 62 00 00 01 39
  can0  1DC   [8]  B4 07 8F FD 01 2C D5 C6
  can0  1ED   [3]  FF E1 ED
  can0  1C2   [1]  54
  can0  1DB   [8]  00 04 C2 62 00 00 02 33
  can0  1DC   [8]  B4 07 8F FD 05 10 CA DB
  can0  1ED   [3]  FF E2 E7
  can0  1C2   [1]  55
  can0  1DB   [8]  00 04 C2 62 00 00 03 B6
  can0  1DC   [8]  B4 07 8F FD 08 C0 C3 DD
  can0  1ED   [3]  FF E3 62
  can0  55B   [8]  D8 80 00 00 E7 00 13 AC
  can0  5BC   [8]  BB 80 F0 64 C1 13 FF FF
  can0  1C2   [1]  56
  can0  1DB   [8]  00 04 C2 62 00 00 00 BC
  can0  1DC   [8]  B4 07 8F FD 0C CC DC 0A
  can0  1ED   [3]  FF E0 68
  can0  1C2   [1]  57
  can0  1DB   [8]  00 04 C2 62 00 00 01 39
  can0  1DC   [8]  B4 07 8F FD 01 2C D5 C6
  can0  1ED   [3]  FF E1 ED
  can0  1C2   [1]  58
  can0  1DB   [8]  00 04 C2 62 00 00 02 33
  can0  1DC   [8]  B4 07 8F FD 05 10 CA DB
  can0  1ED   [3]  FF E2 E7
  can0  1C2   [1]  59
  can0  1DB   [8]  00 04 C2 62 00 00 03 B6
  can0  1DC   [8]  B4 07 8F FD 08 C0 C3 DD
  can0  1ED   [3]  FF E3 62
  can0  1C2   [1]  5A
  can0  1DB   [8]  00 04 C2 62 00 00 00 BC
  can0  1DC   [8]  B4 07 8F FD 0C CC DC 0A
  can0  1ED   [3]  FF E0 68
  can0  1C2   [1]  5B
  can0  1DB   [8]  00 04 C2 62 00 00 01 39
  can0  1DC   [8]  B4 07 8F FD 01 2C D5 C6
  can0  1ED   [3]  FF E1 ED
  can0  1C2   [1]  5C
  can0  1DB   [8]  00 04 C2 62 00 00 02 33
  can0  1DC   [8]  B4 07 8F FD 05 10 CA DB
  can0  1ED   [3]  FF E2 E7
  can0  1C2   [1]  5D
  can0  380   [8]  02 04 10 21 00 00 00 16
  can0  5BF   [8]  00 00 00 00 18 00 00 3B
  can0  1DB   [8]  00 04 C2 62 00 00 03 B6
  can0  1DC   [8]  B4 07 8F FD 08 C0 C3 DD
  can0  1ED   [3]  FF E3 62
  can0  1C2   [1]  5E
  can0  1DB   [8]  00 04 C2 62 00 00 00 BC
  can0  1DC   [8]  B4 07 8F FD 0C CC DC 0A
  can0  1ED   [3]  FF E0 68
  can0  1C2   [1]  5F
  can0  1DB   [8]  00 04 C2 62 00 00 01 39
  can0  1DC   [8]  B4 07 8F FD 01 2C D5 C6
  can0  1ED   [3]  FF E1 ED
  can0  55B   [8]  D8 80 00 00 E7 00 10 A6
  can0  5BC   [8]  9F 40 F0 64 C1 03 FF FF
  can0  1C2   [1]  50
  can0  1DB   [8]  00 04 C2 62 00 00 02 33
  can0  1DC   [8]  B4 07 8F FD 05 10 CA DB
  can0  1ED   [3]  FF E2 E7
  can0  1C2   [1]  51
  can0  1DB   [8]  00 04 C2 62 00 00 03 B6
  can0  1DC   [8]  B4 07 8F FD 08 C0 C3 DD
  can0  1ED   [3]  FF E3 62
  can0  1C2   [1]  52
  can0  1DB   [8]  00 04 C2 62 00 00 00 BC
  can0  1DC   [8]  B4 07 8F FD 0C CC DC 0A
  can0  1ED   [3]  FF E0 68
  can0  1C2   [1]  53
  can0  1DB   [8]  00 04 C2 62 00 00 01 39
  can0  1DC   [8]  B4 07 8F FD 01 2C D5 C6
  can0  1ED   [3]  FF E1 ED
  can0  1C2   [1]  54
  can0  1DB   [8]  00 04 C2 62 00 00 02 33
  can0  1DC   [8]  B4 07 8F FD 05 10 CA DB
  can0  1ED   [3]  FF E2 E7
  can0  1C2   [1]  55
  can0  1DB   [8]  00 04 C2 62 00 00 03 B6
  can0  1DC   [8]  B4 07 8F FD 08 C0 C3 DD
  can0  1ED   [3]  FF E3 62
  can0  1C2   [1]  56
  can0  1DB   [8]  00 04 C2 62 00 00 00 BC
  can0  1DC   [8]  B4 07 8F FD 0C CC DC 0A
  can0  1ED   [3]  FF E0 68
  can0  1C2   [1]  57
  can0  380   [8]  02 04 10 21 00 00 00 27
  can0  5BF   [8]  00 00 00 00 18 00 00 08
  can0  1DB   [8]  00 04 C2 62 00 00 01 39
  can0  1DC   [8]  B4 07 8F FD 01 2C D5 C6
  can0  1ED   [3]  FF E1 ED
  can0  1C2   [1]  58
  can0  1DB   [8]  00 04 C2 62 00 00 02 33
  can0  1DC   [8]  B4 07 8F FD 05 10 CA DB
  can0  1ED   [3]  FF E2 E7
  can0  1C2   [1]  59
  can0  1DB   [8]  00 04 C2 62 00 00 03 B6
  can0  1DC   [8]  B4 07 8F FD 08 C0 C3 DD
  can0  1ED   [3]  FF E3 62
  can0  55B   [8]  D8 80 00 00 E7 00 11 23
