  can0  120   [4]  00 00 04 9B
  can0  108   [3]  00 0D AD
  can0  1CB   [7]  00 00 00 00 10 02 C9
  can0  1F2   [8]  10 64 00 80 00 1E 03 8F
  can0  1DB   [8]  FF E0 B7 6A 00 FF F0 25
  can0  1D4   [8]  88 88 00 00 C7 46 01 C4
  can0  1DC   [8]  B4 0E AF FD 0C D4 C8 F8
  can0  1ED   [3]  FF E0 68
  can0  11A   [8]  01 40 04 55 00 00 01 C3
  can0  284   [8]  00 00 00 00 00 00 6D F3
  can0  1C2   [1]  5C
  can0  120   [4]  00 00 05 1E
  can0  1DA   [8]  B7 32 18 00 00 01 09 12
  can0  55A   [8]  00 37 39 37 55 00 5B 08
  can0  4B9   [1]  43
  can0  108   [3]  00 0E A7
  can0  1CB   [7]  00 00 00 00 10 03 4C
  can0  1F2   [8]  10 64 00 80 00 1E 00 8C
  can0  1DB   [8]  FF E0 B7 6A 00 FF F1 A0
  can0  1D4   [8]  88 88 00 00 07 46 01 08
  can0  1DC   [8]  B4 0E AF FD 01 29 09 A9
  can0  1ED   [3]  FF E1 ED
  can0  11A   [8]  01 40 04 55 40 00 02 0E
  can0  3B8   [5]  7F C8 0D 07 FF
  can0  50A   [8]  85 F3 A0 11 80 21 04 12
  can0  50B   [7]  00 00 06 C0 00 00 00
  can0  1C2   [1]  5D
  can0  120   [4]  00 00 06 14
  can0  1DA   [8]  B7 32 18 00 00 01 0A 18
  can0  108   [3]  00 0F 22
  can0  1CB   [7]  00 00 00 00 10 00 46
  can0  1F2   [8]  10 64 00 80 00 1E 01 8D
  can0  1DB   [8]  FF E0 B7 6A 00 FF F2 AA
  can0  1D4   [8]  88 88 00 00 47 46 01 CF
  can0  1DC   [8]  B4 0E AF FD 05 54 CA 7A
  can0  1ED   [3]  FF E2 E7
  can0  11A   [8]  01 40 04 AA 80 00 03 18
  can0  284   [8]  00 00 00 00 00 00 6E F4
  can0  355   [8]  00 00 00 00 30 00 60 00
  can0  1C2   [1]  5E
  can0  120   [4]  00 00 07 91
  can0  1DA   [8]  B7 72 18 00 00 01 0B 3F
  can0  108   [3]  00 00 00
  can0  1CB   [7]  00 00 00 00 10 01 C3
  can0  1F2   [8]  10 64 00 80 00 1E 02 8E
  can0  1D4   [8]  88 88 00 00 87 46 01 03
  can0  1DB   [8]  FF E0 B7 6A 00 FF F3 2F
  can0  1DC   [8]  B4 0E AF FD 08 C0 C3 32
  can0  11A   [8]  01 40 04 AA C0 00 00 D5
  can0  1ED   [3]  FF E3 62
  can0  56E   [4]  46 00 00 00
  can0  1DA   [8]  B7 72 18 00 00 01 08 35
  can0  120   [4]  00 00 08 B3
  can0  1C2   [1]  5F
  can0  108   [3]  00 01 85
  can0  1CB   [7]  00 00 00 00 10 02 C9
  can0  54A   [8]  3C 80 70 0E 00 00 00 59
  can0  54B   [8]  11 08 80 0A 04 00 00 00
  can0  54C   [8]  7E 65 00 00 00 00 64 00
  can0  1D4   [8]  88 88 00 00 C7 46 01 C4
  can0  1DB   [8]  FF E0 B7 6A 00 FF F0 25
  can0  1DC   [8]  B4 0E AF FD 0C D4 C8 F8
  can0  1ED   [3]  FF E0 68
  can0  11A   [8]  01 40 04 55 00 00 01 C3
  can0  1F2   [8]  10 64 00 80 00 1E 03 8F
  can0  54F   [8]  6B 00 00 00 04 00 8D 45
  can0  284   [8]  00 00 00 00 00 00 6F F5
  can0  5C5   [8]  40 00 55 6A 00 00 00 00
  can0  1DA   [8]  B7 32 18 00 00 01 09 12
  can0  120   [4]  00 00 09 36
  can0  1C2   [1]  50
  can0  108   [3]  00 02 8F
  can0  1CB   [7]  00 00 00 00 10 03 4C
  can0  1F2   [8]  10 64 00 80 00 1E 00 8C
  can0  1D4   [8]  88 88 00 00 07 46 01 08
  can0  1DB   [8]  FF E0 B7 6A 00 FF F1 A0
  can0  1DC   [8]  B4 0E AF FD 01 29 09 A9
  can0  1ED   [3]  FF E1 ED
  can0  11A   [8]  01 40 04 55 40 00 02 0E
  can0  390   [8]  04 00 00 02 00 00 00 35
  can0  1DA   [8]  B7 32 18 00 00 01 0A 18
  can0  120   [4]  00 00 0A 3C
  can0  1C2   [1]  51
  can0  625   [6]  02 00 FF 1D 20 00
  can0  393   [8]  00 20 00 00 00 00 00 34
  can0  1CB   [7]  00 00 00 00 10 00 46
  can0  108   [3]  00 03 0A
  can0  1F2   [8]  10 64 00 80 00 1E 01 8D
  can0  1DB   [8]  FF E0 B7 6A 00 FF F2 AA
  can0  1D4   [8]  88 88 00 00 47 46 01 CF
  can0  1DC   [8]  B4 0E AF FD 05 54 CA 7A
  can0  1ED   [3]  FF E2 E7
  can0  11A   [8]  01 40 04 AA 80 00 03 18
  can0  355   [8]  00 00 00 00 30 00 60 00
  can0  284   [8]  00 00 00 00 00 00 70 F6
  can0  1DA   [8]  B7 72 18 00 00 01 0B 3F
  can0  120   [4]  00 00 0B B9
  can0  1C2   [1]  52
  can0  108   [3]  00 04 9B
  can0  1CB   [7]  00 00 00 00 10 01 C3
  can0  1F2   [8]  10 64 00 80 00 1E 02 8E
  can0  1D4   [8]  88 88 00 00 87 46 01 03
  can0  1DB   [8]  FF E0 B7 6A 00 FF F3 2F
  can0  1DC   [8]  B4 0E AF FD 08 C0 C3 32
  can0  1ED   [3]  FF E3 62
  can0  11A   [8]  01 40 04 AA C0 00 00 D5
  can0  1DA   [8]  B7 72 18 00 00 01 08 35
  can0  120   [4]  00 00 0C 28
  can0  1C2   [1]  53
  can0  1CB   [7]  00 00 00 00 10 02 C9
  can0  108   [3]  00 05 1E
  can0  1F2   [8]  10 64 00 80 00 1E 03 8F
  can0  1D4   [8]  88 88 00 00 C7 46 01 C4
  can0  1DB   [8]  FF E0 B7 6A 00 FF F0 25
  can0  1DC   [8]  B4 0E AF FD 0C D4 C8 F8
  can0  1ED   [3]  FF E0 68
  can0  11A   [8]  01 40 04 55 00 00 01 C3
  can0  284   [8]  00 00 00 00 00 00 71 F7
  can0  1DA   [8]  B7 32 18 00 00 01 09 12
  can0  120   [4]  00 00 0D AD
  can0  1C2   [1]  54
  can0  108   [3]  00 06 14
  can0  1CB   [7]  00 00 00 00 10 03 4C
  can0  1F2   [8]  10 64 00 80 00 1E 00 8C
  can0  1D4   [8]  88 88 00 00 07 46 01 08
  can0  1DB   [8]  FF E0 B7 6A 00 FF F1 A0
  can0  1DC   [8]  B4 0E AF FD 01 29 09 A9
  can0  1ED   [3]  FF E1 ED
  can0  11A   [8]  01 40 04 55 40 00 02 0E
  can0  55B   [8]  A5 C0 00 00 E3 00 12 9B
  can0  5BC   [8]  74 40 F0 50 C1 02 3F FF
  can0  1DA   [8]  B7 32 18 00 00 01 0A 18
  can0  120   [4]  00 00 0E A7
  can0  1C2   [1]  55
  can0  1CB   [7]  00 00 00 00 10 00 46
  can0  108   [3]  00 07 91
  can0  1F2   [8]  10 64 00 80 00 1E 01 8D
  can0  1D4   [8]  88 88 00 00 47 46 01 CF
  can0  1DB   [8]  FF E0 B7 6A 00 FF F2 AA
  can0  1DC   [8]  B4 0E AF FD 05 54 CA 7A
  can0  1ED   [3]  FF E2 E7
  can0  11A   [8]  01 40 04 AA 80 00 03 18
  can0  59E   [8]  00 00 24 8B A0 00 00 7E
  can0  5C0   [8]  01 66 A8 00 19 C2 1F 00
  can0  5EB   [8]  E0 0F FF FF FF FF FF FF
  can0  355   [8]  00 00 00 00 30 00 60 00
  can0  284   [8]  00 00 00 00 00 00 72 F8
  can0  1DA   [8]  B7 72 18 00 00 01 0B 3F
  can0  120   [4]  00 00 0F 22
  can0  1C2   [1]  56
  can0  55A   [8]  00 37 39 37 55 00 5B 08
  can0  4B9   [1]  44
  can0  108   [3]  00 08 B3
  can0  1CB   [7]  00 00 00 00 10 01 C3
  can0  1F2   [8]  10 64 00 80 00 1E 02 8E
  can0  1D4   [8]  88 88 00 00 87 46 01 03
  can0  1DB   [8]  FF E0 B7 6A 00 FF F3 2F
  can0  1DC   [8]  B4 0E AF FD 08 C0 C3 32
  can0  11A   [8]  01 40 04 AA C0 00 00 D5
  can0  1ED   [3]  FF E3 62
  can0  3B8   [5]  7F E8 0D 07 FF
  can0  50A   [8]  85 93 A0 11 80 21 04 12
  can0  50B   [7]  00 00 06 C0 00 00 00
  can0  1DA   [8]  B7 72 18 00 00 01 08 35
  can0  120   [4]  00 00 00 00
  can0  1C2   [1]  57
  can0  1CB   [7]  00 00 00 00 10 02 C9
  can0  108   [3]  00 09 36
  can0  1F2   [8]  10 64 00 80 00 1E 03 8F
  can0  1D4   [8]  88 88 00 00 C7 46 01 C4
  can0  1DB   [8]  FF E0 B7 6A 00 FF F0 25
  can0  1DC   [8]  B4 0E AF FD 0C D4 C8 F8
  can0  1ED   [3]  FF E0 68
  can0  11A   [8]  01 40 04 55 00 00 01 C3
  can0  284   [8]  00 00 00 00 00 00 73 F9
  can0  1DA   [8]  B7 32 18 00 00 01 09 12
  can0  120   [4]  00 00 01 85
  can0  1C2   [1]  58
  can0  108   [3]  00 0A 3C
  can0  1CB   [7]  00 00 00 00 10 03 4C
  can0  5EC   [1]  00
  can0  1D4   [8]  88 88 00 00 07 46 01 08
  can0  1F2   [8]  10 64 00 80 00 1E 00 8C
  can0  1DB   [8]  FF E0 B7 6A 00 FF F1 A0
  can0  1DC   [8]  B4 0E AF FD 01 29 09 A9
  can0  11A   [8]  01 40 04 55 40 00 02 0E
  can0  1ED   [3]  FF E1 ED
  can0  56E   [4]  46 00 00 00
  can0  1DA   [8]  B7 32 18 00 00 01 0A 18
  can0  120   [4]  00 00 02 8F
  can0  1C2   [1]  59
  can0  1CB   [7]  00 00 00 00 10 00 46
  can0  54A   [8]  DA 80 70 0E 00 00 00 59
  can0  108   [3]  00 0B B9
  can0  54B   [8]  11 08 80 0A 04 00 00 00
  can0  54C   [8]  7E 65 00 00 00 00 64 00
  can0  1D4   [8]  88 88 00 00 47 46 01 CF
  can0  54F   [8]  6B 00 00 00 04 40 8D 45
  can0  1DB   [8]  FF E0 B7 6A 00 FF F2 AA
  can0  1DC   [8]  B4 0E AF FD 05 54 CA 7A
  can0  11A   [8]  01 40 04 AA 80 00 03 18
  can0  1ED   [3]  FF E2 E7
  can0  1F2   [8]  10 64 00 80 00 1E 01 8D
  can0  355   [8]  00 00 00 00 30 00 60 00
  can0  284   [8]  00 00 00 00 00 00 74 FA
  can0  1DA   [8]  B7 72 18 00 00 01 0B 3F
  can0  120   [4]  00 00 03 0A
  can0  1C2   [1]  5A
  can0  5C5   [8]  40 00 55 6A 00 00 00 00
  can0  1CB   [7]  00 00 00 00 10 01 C3
  can0  108   [3]  00 0C 28
  can0  1F2   [8]  10 64 00 80 00 1E 02 8E
  can0  1D4   [8]  88 88 00 00 87 46 01 03
  can0  1DB   [8]  FF E0 B7 6A 00 FF F3 2F
  can0  1DC   [8]  B4 0E AF FD 08 C0 C3 32
  can0  11A   [8]  01 40 04 AA C0 00 00 D5
  can0  1ED   [3]  FF E3 62
  can0  390   [8]  04 00 00 02 00 00 00 02
  can0  1DA   [8]  B7 72 18 00 00 01 08 35
  can0  120   [4]  00 00 04 9B
  can0  1C2   [1]  5B
  can0  625   [6]  02 00 FF 1D 20 00
  can0  393   [8]  00 20 00 00 00 00 00 01
  can0  1CB   [7]  00 00 00 00 10 02 C9
  can0  108   [3]  00 0D AD
  can0  1F2   [8]  10 64 00 80 00 1E 03 8F
  can0  1D4   [8]  88 88 00 00 C7 46 01 C4
  can0  1DB   [8]  FF E0 B7 6A 00 FF F0 25
  can0  1DC   [8]  B4 0E AF FD 0C D4 C8 F8
  can0  1ED   [3]  FF E0 68
  can0  11A   [8]  01 40 04 55 00 00 01 C3
  can0  284   [8]  00 00 00 00 00 00 75 FB
  can0  1DA   [8]  B7 32 18 00 00 01 09 12
  can0  120   [4]  00 00 05 1E
  can0  1C2   [1]  5C
  can0  1CB   [7]  00 00 00 00 10 03 4C
  can0  108   [3]  00 0E A7
  can0  1F2   [8]  10 64 00 80 00 1E 00 8C
  can0  1D4   [8]  88 88 00 00 07 46 01 08
  can0  1DB   [8]  FF E0 B7 6A 00 FF F1 A0
  can0  1DC   [8]  B4 0E AF FD 01 29 09 A9
  can0  11A   [8]  01 40 04 55 40 00 02 0E
  can0  1ED   [3]  FF E1 ED
  can0  1DA   [8]  B7 32 18 00 00 01 0A 18
  can0  120   [4]  00 00 06 14
  can0  1C2   [1]  5D
  can0  1CB   [7]  00 00 00 00 10 00 46
  can0  108   [3]  00 0F 22
  can0  1F2   [8]  10 64 00 80 00 1E 01 8D
  can0  1D4   [8]  88 88 00 00 47 46 01 CF
  can0  1DB   [8]  FF E0 B7 6A 00 FF F2 AA
  can0  1DC   [8]  B4 0E AF FD 05 54 CA 7A
  can0  1ED   [3]  FF E2 E7
  can0  11A   [8]  01 40 04 AA 80 00 03 18
  can0  284   [8]  00 00 00 00 00 00 76 FC
  can0  355   [8]  00 00 00 00 30 00 60 00
  can0  1DA   [8]  B7 72 18 00 00 01 0B 3F
  can0  120   [4]  00 00 07 91
  can0  1C2   [1]  5E
  can0  1CB   [7]  00 00 00 00 10 01 C3
  can0  108   [3]  00 00 00
  can0  1F2   [8]  10 64 00 80 00 1E 02 8E
  can0  1D4   [8]  88 88 00 00 87 46 01 03
  can0  1DB   [8]  FF E0 B7 6A 00 FF F3 2F
  can0  11A   [8]  01 40 04 AA C0 00 00 D5
  can0  1DC   [8]  B4 0E AF FD 08 C0 C3 32
  can0  1ED   [3]  FF E3 62
  can0  55B   [8]  A5 C0 00 00 E3 00 13 1E
  can0  5BC   [8]  BB 80 99 50 C0 10 20 00
  can0  1DA   [8]  B7 72 18 00 00 01 08 35
  can0  120   [4]  00 00 08 B3
  can0  1C2   [1]  5F
  can0  1CB   [7]  00 00 00 00 10 02 C9
  can0  108   [3]  00 01 85
  can0  1F2   [8]  10 64 00 80 00 1E 03 8F
  can0  1D4   [8]  88 88 00 00 C7 46 01 C4
  can0  1DB   [8]  FF E0 B7 6A 00 FF F0 25
  can0  1DC   [8]  B4 0E AF FD 0C D4 C8 F8
  can0  11A   [8]  01 40 04 55 00 00 01 C3
  can0  1ED   [3]  FF E0 68
  can0  284   [8]  00 00 00 00 00 00 77 FD
  can0  1DA   [8]  B7 32 18 00 00 01 09 12
  can0  120   [4]  00 00 09 36
  can0  1C2   [1]  50
  can0  55A   [8]  00 37 39 37 55 00 5B 08
  can0  4B9   [1]  45
  can0  1CB   [7]  00 00 00 00 10 03 4C
  can0  108   [3]  00 02 8F
  can0  1F2   [8]  10 64 00 80 00 1E 00 8C
  can0  1D4   [8]  88 88 00 00 07 46 01 08
  can0  3B8   [5]  7F C8 0E 07 FF
  can0  1DB   [8]  FF E0 B7 6A 00 FF F1 A0
  can0  1DC   [8]  B4 0E AF FD 01 29 09 A9
  can0  11A   [8]  01 40 04 55 40 00 02 0E
  can0  1ED   [3]  FF E1 ED
  can0  50A   [8]  85 B3 A0 11 80 21 04 12
  can0  50B   [7]  00 00 06 C0 00 00 00
  can0  1DA   [8]  B7 32 18 00 00 01 0A 18
  can0  120   [4]  00 00 0A 3C
  can0  1C2   [1]  51
  can0  1CB   [7]  00 00 00 00 10 00 46
  can0  108   [3]  00 03 0A
  can0  1F2   [8]  10 64 00 80 00 1E 01 8D
  can0  1D4   [8]  88 88 00 00 47 46 01 CF
  can0  1DB   [8]  FF E0 B7 6A 00 FF F2 AA
  can0  1DC   [8]  B4 0E AF FD 05 54 CA 7A
  can0  11A   [8]  01 40 04 AA 80 00 03 18
  can0  1ED   [3]  FF E2 E7
  can0  284   [8]  00 00 00 00 00 00 78 FE
  can0  355   [8]  00 00 00 00 30 00 60 00
  can0  1DA   [8]  B7 72 18 00 00 01 0B 3F
  can0  120   [4]  00 00 0B B9
  can0  1C2   [1]  52
  can0  1CB   [7]  00 00 00 00 10 01 C3
  can0  108   [3]  00 04 9B
  can0  1F2   [8]  10 64 00 80 00 1E 02 8E
  can0  1D4   [8]  88 88 00 00 87 46 01 03
  can0  1DB   [8]  FF E0 B7 6A 00 FF F3 2F
  can0  11A   [8]  01 40 04 AA C0 00 00 D5
  can0  1DC   [8]  B4 0E AF FD 08 C0 C3 32
  can0  1ED   [3]  FF E3 62
  can0  56E   [4]  46 00 00 00
  can0  1DA   [8]  B7 72 18 00 00 01 08 35
  can0  120   [4]  00 00 0C 28
  can0  1C2   [1]  53
  can0  1CB   [7]  00 00 00 00 10 02 C9
  can0  54A   [8]  3C 80 70 0E 00 00 00 59
  can0  108   [3]  00 05 1E
  can0  54B   [8]  11 08 80 0A 04 00 00 00
  can0  54C   [8]  7E 65 00 00 00 00 64 00
  can0  1D4   [8]  88 88 00 00 C7 46 01 C4
  can0  54F   [8]  6B 00 00 00 04 80 8D 45
  can0  1F2   [8]  10 64 00 80 00 1E 03 8F
  can0  1DB   [8]  FF E0 B7 6A 00 FF F0 25
  can0  11A   [8]  01 40 04 55 00 00 01 C3
  can0  1DC   [8]  B4 0E AF FD 0C D4 C8 F8
  can0  1ED   [3]  FF E0 68
  can0  284   [8]  00 00 00 00 00 00 79 FF
  can0  5C5   [8]  40 00 55 6A 00 00 00 00
  can0  120   [4]  00 00 0D AD
  can0  1DA   [8]  B7 32 18 00 00 01 09 12
  can0  1C2   [1]  54
  can0  1CB   [7]  00 00 00 00 10 03 4C
  can0  108   [3]  00 06 14
  can0  1F2   [8]  10 64 00 80 00 1E 00 8C
  can0  1D4   [8]  88 88 00 00 07 46 01 08
  can0  1DB   [8]  FF E0 B7 6A 00 FF F1 A0
  can0  11A   [8]  01 40 04 55 40 00 02 0E
  can0  1DC   [8]  B4 0E AF FD 01 29 09 A9
  can0  1ED   [3]  FF E1 ED
  can0  390   [8]  04 00 00 02 00 00 00 13
  can0  1DA   [8]  B7 32 18 00 00 01 0A 18
  can0  120   [4]  00 00 0E A7
  can0  1C2   [1]  55
  can0  625   [6]  02 00 FF 1D 20 00
  can0  393   [8]  00 20 00 00 00 00 00 12
  can0  1CB   [7]  00 00 00 00 10 00 46
  can0  108   [3]  00 07 91
  can0  1F2   [8]  10 64 00 80 00 1E 01 8D
  can0  1D4   [8]  88 88 00 00 47 46 01 CF
  can0  1DB   [8]  FF E0 B7 6A 00 FF F2 AA
  can0  1DC   [8]  B4 0E AF FD 05 54 CA 7A
  can0  11A   [8]  01 40 04 AA 80 00 03 18
  can0  1ED   [3]  FF E2 E7
  can0  284   [8]  00 00 00 00 00 00 7A 00
  can0  355   [8]  00 00 00 00 30 00 60 00
  can0  1DA   [8]  B8 72 18 00 00 01 0B 12
  can0  120   [4]  00 00 0F 22
  can0  1C2   [1]  56
  can0  1CB   [7]  00 00 00 00 10 01 C3
  can0  108   [3]  00 08 B3
  can0  1F2   [8]  10 64 00 80 00 1E 02 8E
  can0  1D4   [8]  88 88 00 00 87 46 01 03
  can0  11A   [8]  01 40 04 AA C0 00 00 D5
  can0  1DB   [8]  FF E0 B7 6A 00 FF F3 2F
  can0  1DC   [8]  B4 0E AF FD 08 C0 C3 32
  can0  1ED   [3]  FF E3 62
  can0  1DA   [8]  B7 72 18 00 00 01 08 35
  can0  120   [4]  00 00 00 00
  can0  1C2   [1]  57
  can0  1CB   [7]  00 00 00 00 10 02 C9
  can0  108   [3]  00 09 36
  can0  1F2   [8]  10 64 00 80 00 1E 03 8F
  can0  1D4   [8]  88 88 00 00 C7 46 01 C4
  can0  1DB   [8]  FF E0 B7 6A 00 FF F0 25
  can0  11A   [8]  01 40 04 55 00 00 01 C3
  can0  1DC   [8]  B4 0E AF FD 0C D4 C8 F8
  can0  1ED   [3]  FF E0 68
  can0  284   [8]  00 00 00 00 00 00 7B 01
  can0  1DA   [8]  B7 32 18 00 00 01 09 12
  can0  120   [4]  00 00 01 85
  can0  1C2   [1]  58
  can0  1CB   [7]  00 00 00 00 10 03 4C
  can0  108   [3]  00 0A 3C
  can0  1F2   [8]  10 64 00 80 00 1E 00 8C
  can0  1D4   [8]  88 88 00 00 07 46 01 08
  can0  11A   [8]  01 40 04 55 40 00 02 0E
  can0  1DB   [8]  FF E0 B7 6A 00 FF F1 A0
  can0  1DC   [8]  B4 0E AF FD 01 29 09 A9
  can0  1ED   [3]  FF E1 ED
  can0  55B   [8]  A5 C0 00 00 E3 00 10 14
  can0  5BC   [8]  74 40 99 50 C0 00 40 00
  can0  1DA   [8]  B7 32 18 00 00 01 0A 18
  can0  120   [4]  00 00 02 8F
  can0  1C2   [1]  59
  can0  1CB   [7]  00 00 00 00 10 00 46
  can0  108   [3]  00 0B B9
  can0  1F2   [8]  10 64 00 80 00 1E 01 8D
  can0  1D4   [8]  88 88 00 00 47 46 01 CF
  can0  1DB   [8]  FF E0 B7 6A 00 FF F2 AA
  can0  11A   [8]  01 40 04 AA 80 00 03 18
  can0  1DC   [8]  B4 0E AF FD 05 54 CA 7A
  can0  1ED   [3]  FF E2 E7
  can0  284   [8]  00 00 00 00 00 00 7C 02
  can0  355   [8]  00 00 00 00 30 00 60 00
  can0  1DA   [8]  B7 72 18 00 00 01 0B 3F
  can0  120   [4]  00 00 03 0A
  can0  55A   [8]  00 37 39 37 55 00 5B 08
  can0  1C2   [1]  5A
  can0  4B9   [1]  46
  can0  1CB   [7]  00 00 00 00 10 01 C3
  can0  108   [3]  00 0C 28
  can0  1F2   [8]  10 64 00 80 00 1E 02 8E
  can0  1D4   [8]  88 88 00 00 87 46 01 03
  can0  3B8   [5]  7F E8 0E 07 FF
  can0  50A   [8]  85 D3 A0 11 80 21 04 12
  can0  11A   [8]  01 40 04 AA C0 00 00 D5
  can0  1DB   [8]  FF E0 B7 6A 00 FF F3 2F
  can0  1DC   [8]  B4 0E AF FD 08 C0 C3 32
  can0  1ED   [3]  FF E3 62
  can0  50B   [7]  00 00 06 C0 00 00 00
  can0  1DA   [8]  B8 72 18 00 00 01 08 18
  can0  120   [4]  00 00 04 9B
  can0  1C2   [1]  5B
  can0  1CB   [7]  00 00 00 00 10 02 C9
  can0  108   [3]  00 0D AD
  can0  1F2   [8]  10 64 00 80 00 1E 03 8F
  can0  1D4   [8]  88 88 00 00 C7 46 01 C4
  can0  1DB   [8]  FF E0 B7 6A 00 FF F0 25
  can0  11A   [8]  01 40 04 55 00 00 01 C3
  can0  1DC   [8]  B4 0E AF FD 0C D4 C8 F8
  can0  1ED   [3]  FF E0 68
  can0  284   [8]  00 00 00 00 00 00 7D 03
  can0  1DA   [8]  B7 32 18 00 00 01 09 12
  can0  120   [4]  00 00 05 1E
  can0  1C2   [1]  5C
  can0  1CB   [7]  00 00 00 00 10 03 4C
  can0  108   [3]  00 0E A7
  can0  1F2   [8]  10 64 00 80 00 1E 00 8C
  can0  1D4   [8]  88 88 00 00 07 46 01 08
  can0  11A   [8]  01 40 04 55 40 00 02 0E
  can0  1DB   [8]  FF E0 B7 6A 00 FF F1 A0
  can0  1DC   [8]  B4 0E AF FD 01 29 09 A9
  can0  1ED   [3]  FF E1 ED
  can0  56E   [4]  46 00 00 00
  can0  1DA   [8]  B7 32 18 00 00 01 0A 18
  can0  120   [4]  00 00 06 14
  can0  1C2   [1]  5D
  can0  1CB   [7]  00 00 00 00 10 00 46
  can0  54A   [8]  DA 80 70 0E 00 00 00 59
  can0  108   [3]  00 0F 22
  can0  481   [2]  00 00
  can0  54B   [8]  11 08 80 0A 04 00 00 00
  can0  54C   [8]  7E 65 00 00 00 00 64 00
  can0  1D4   [8]  88 88 00 00 47 46 01 CF
  can0  54F   [8]  6B 00 00 00 04 C0 8D 45
  can0  1F2   [8]  10 64 00 80 00 1E 01 8D
  can0  11A   [8]  01 40 04 AA 80 00 03 18
  can0  1DB   [8]  FF E0 B7 6A 00 FF F2 AA
  can0  1DC   [8]  B4 0E AF FD 05 54 CA 7A
  can0  1ED   [3]  FF E2 E7
  can0  355   [8]  00 00 00 00 30 00 60 00
  can0  284   [8]  00 00 00 00 00 00 7E 04
  can0  1DA   [8]  B7 72 18 00 00 01 0B 3F
  can0  120   [4]  00 00 07 91
  can0  1C2   [1]  5E
  can0  5C5   [8]  40 00 55 6A 00 00 00 00
  can0  1CB   [7]  00 00 00 00 10 01 C3
  can0  108   [3]  00 00 00
  can0  1F2   [8]  10 64 00 80 00 1E 02 8E
  can0  1D4   [8]  88 88 00 00 87 46 01 03
  can0  11A   [8]  01 40 04 AA C0 00 00 D5
  can0  1DB   [8]  FF E0 B7 6A 00 FF F3 2F
  can0  1DC   [8]  B4 0E AF FD 08 C0 C3 32
  can0  1ED   [3]  FF E3 62
  can0  390   [8]  04 00 00 02 00 00 00 24
  can0  1DA   [8]  B7 72 18 00 00 01 08 35
  can0  120   [4]  00 00 08 B3
  can0  1C2   [1]  5F
  can0  625   [6]  02 00 FF 1D 20 00
  can0  393   [8]  00 20 00 00 00 00 00 23
  can0  1CB   [7]  00 00 00 00 10 02 C9
  can0  108   [3]  00 01 85
  can0  1F2   [8]  10 64 00 80 00 1E 03 8F
  can0  1D4   [8]  88 88 00 00 C7 46 01 C4
  can0  11A   [8]  01 40 04 55 00 00 01 C3
  can0  1DB   [8]  FF E0 B7 6A 00 FF F0 25
  can0  1DC   [8]  B4 0E AF FD 0C D4 C8 F8
  can0  1ED   [3]  FF E0 68
  can0  284   [8]  00 00 00 00 00 00 7F 05
  can0  1DA   [8]  B7 32 18 00 00 01 09 12
  can0  120   [4]  00 00 09 36
  can0  1C2   [1]  50
  can0  1CB   [7]  00 00 00 00 10 03 4C
  can0  108   [3]  00 02 8F
  can0  1F2   [8]  10 64 00 80 00 1E 00 8C
  can0  1D4   [8]  88 88 00 00 07 46 01 08
  can0  11A   [8]  01 40 04 55 40 00 02 0E
  can0  1DB   [8]  FF E0 B7 6A 00 FF F1 A0
  can0  1DC   [8]  B4 0E AF FD 01 29 09 A9
  can0  1ED   [3]  FF E1 ED
  can0  1DA   [8]  B7 32 18 00 00 01 0A 18
  can0  120   [4]  00 00 0A 3C
  can0  1C2   [1]  51
  can0  1CB   [7]  00 00 00 00 10 00 46
  can0  108   [3]  00 03 0A
  can0  1F2   [8]  10 64 00 80 00 1E 01 8D
  can0  1D4   [8]  88 88 00 00 47 46 01 CF
  can0  11A   [8]  01 40 04 AA 80 00 03 18
  can0  1DB   [8]  FF E0 B7 6A 00 FF F2 AA
  can0  1DC   [8]  B4 0E AF FD 05 54 CA 7A
  can0  1ED   [3]  FF E2 E7
  can0  284   [8]  00 00 00 00 00 00 80 06
  can0  355   [8]  00 00 00 00 30 00 60 00
  can0  1DA   [8]  B7 72 18 00 00 01 0B 3F
  can0  120   [4]  00 00 0B B9
  can0  1C2   [1]  52
  can0  1CB   [7]  00 00 00 00 10 01 C3
  can0  108   [3]  00 04 9B
  can0  1F2   [8]  10 64 00 80 00 1E 02 8E
  can0  1D4   [8]  88 88 00 00 87 46 01 03
  can0  11A   [8]  01 40 04 AA C0 00 00 D5
  can0  1DB   [8]  FF E0 B7 6A 00 FF F3 2F
  can0  1DC   [8]  B4 0E AF FD 08 C0 C3 32
  can0  1ED   [3]  FF E3 62
  can0  55B   [8]  A5 C0 00 00 E3 00 11 91
  can0  5BC   [8]  BB 80 99 50 C0 10 60 06
  can0  1DA   [8]  B7 72 18 00 00 01 08 35
  can0  120   [4]  00 00 0C 28
  can0  1C2   [1]  53
  can0  1CB   [7]  00 00 00 00 10 02 C9
  can0  108   [3]  00 05 1E
  can0  1F2   [8]  10 64 00 80 00 1E 03 8F
  can0  1D4   [8]  88 88 00 00 C7 46 01 C4
  can0  11A   [8]  01 40 04 55 00 00 01 C3
  can0  1DB   [8]  FF E0 B7 6A 00 FF F0 25
  can0  1DC   [8]  B4 0E AF FD 0C D4 C8 F8
  can0  1ED   [3]  FF E0 68
  can0  284   [8]  00 00 00 00 00 00 81 07
  can0  1DA   [8]  B7 32 18 00 00 01 09 12
  can0  120   [4]  00 00 0D AD
  can0  55A   [8]  00 37 39 37 55 00 5B 08
  can0  1C2   [1]  54
  can0  4B9   [1]  47
  can0  1CB   [7]  00 00 00 00 10 03 4C
  can0  108   [3]  00 06 14
  can0  1F2   [8]  10 64 00 80 00 1E 00 8C
  can0  1D4   [8]  88 88 00 00 07 46 01 08
  can0  3B8   [5]  7F C8 00 07 FF
  can0  50A   [8]  85 F3 A0 11 80 21 04 12
  can0  11A   [8]  01 40 04 55 40 00 02 0E
  can0  1DB   [8]  FF E0 B7 6A 00 FF F1 A0
  can0  1DC   [8]  B4 0E AF FD 01 29 09 A9
  can0  1ED   [3]  FF E1 ED
  can0  50B   [7]  00 00 06 C0 00 00 00
  can0  1DA   [8]  B7 32 18 00 00 01 0A 18
  can0  120   [4]  00 00 0E A7
  can0  1C2   [1]  55
  can0  1CB   [7]  00 00 00 00 10 00 46
  can0  108   [3]  00 07 91
  can0  1F2   [8]  10 64 00 80 00 1E 01 8D
  can0  1D4   [8]  88 88 00 00 47 46 01 CF
  can0  11A   [8]  01 40 04 AA 80 00 03 18
  can0  1DB   [8]  FF E0 B7 6A 00 FF F2 AA
  can0  1DC   [8]  B4 0E AF FD 05 54 CA 7A
  can0  1ED   [3]  FF E2 E7
  can0  284   [8]  00 00 00 00 00 00 82 08
  can0  355   [8]  00 00 00 00 30 00 60 00
  can0  1DA   [8]  B7 72 18 00 00 01 0B 3F
  can0  120   [4]  00 00 0F 22
  can0  1C2   [1]  56
  can0  1CB   [7]  00 00 00 00 10 01 C3
  can0  108   [3]  00 08 B3
  can0  1F2   [8]  10 64 00 80 00 1E 02 8E
  can0  1D4   [8]  88 88 00 00 87 46 01 03
  can0  11A   [8]  01 40 04 AA C0 00 00 D5
  can0  1DB   [8]  FF E0 B7 6A 00 FF F3 2F
  can0  1DC   [8]  B4 0E AF FD 08 C0 C3 32
  can0  1ED   [3]  FF E3 62
  can0  56E   [4]  46 00 00 00
  can0  1DA   [8]  B7 72 18 00 00 01 08 35
  can0  120   [4]  00 00 00 00
  can0  1C2   [1]  57
  can0  1CB   [7]  00 00 00 00 10 02 C9
  can0  54A   [8]  3C 80 70 0E 00 00 00 59
  can0  54B   [8]  11 08 80 0A 04 00 00 00
  can0  108   [3]  00 09 36
  can0  54C   [8]  7E 65 00 00 00 00 64 00
  can0  1D4   [8]  88 88 00 00 C7 46 01 C4
  can0  54F   [8]  6B 00 00 00 04 00 8D 45
  can0  1F2   [8]  10 64 00 80 00 1E 03 8F
  can0  11A   [8]  01 40 04 55 00 00 01 C3
  can0  1DB   [8]  FF E0 B7 6A 00 FF F0 25
  can0  1DC   [8]  B4 0E AF FD 0C D4 C8 F8
  can0  1ED   [3]  FF E0 68
  can0  284   [8]  00 00 00 00 00 00 83 09
  can0  5C5   [8]  40 00 55 6A 00 00 00 00
  can0  1DA   [8]  B7 32 18 00 00 01 09 12
  can0  120   [4]  00 00 01 85
  can0  1C2   [1]  58
  can0  1CB   [7]  00 00 00 00 10 03 4C
  can0  108   [3]  00 0A 3C
  can0  1F2   [8]  10 64 00 80 00 1E 00 8C
  can0  1D4   [8]  88 88 00 00 07 46 01 08
  can0  11A   [8]  01 40 04 55 40 00 02 0E
  can0  1DB   [8]  FF E0 B7 6A 00 FF F1 A0
  can0  1DC   [8]  B4 0E AF FD 01 29 09 A9
  can0  1ED   [3]  FF E1 ED
  can0  390   [8]  04 00 00 02 00 00 00 35
  can0  1DA   [8]  B7 32 18 00 00 01 0A 18
  can0  120   [4]  00 00 02 8F
  can0  1C2   [1]  59
  can0  625   [6]  02 00 FF 1D 20 00
  can0  393   [8]  00 20 00 00 00 00 00 34
  can0  1CB   [7]  00 00 00 00 10 00 46
  can0  108   [3]  00 0B B9
  can0  1F2   [8]  10 64 00 80 00 1E 01 8D
  can0  1D4   [8]  88 88 00 00 47 46 01 CF
  can0  11A   [8]  01 40 04 AA 80 00 03 18
  can0  1DB   [8]  FF E0 B7 6A 00 FF F2 AA
  can0  1DC   [8]  B4 0E AF FD 05 54 CA 7A
  can0  1ED   [3]  FF E2 E7
  can0  284   [8]  00 00 00 00 00 00 84 0A
  can0  355   [8]  00 00 00 00 30 00 60 00
  can0  1DA   [8]  B7 72 18 00 00 01 0B 3F
  can0  120   [4]  00 00 03 0A
  can0  1C2   [1]  5A
  can0  1CB   [7]  00 00 00 00 10 01 C3
  can0  108   [3]  00 0C 28
  can0  1F2   [8]  10 64 00 80 00 1E 02 8E
  can0  1D4   [8]  88 88 00 00 87 46 01 03
  can0  11A   [8]  01 40 04 AA C0 00 00 D5
  can0  1DB   [8]  FF E0 B7 6A 00 FF F3 2F
  can0  1DC   [8]  B4 0E AF FD 08 C0 C3 32
  can0  1ED   [3]  FF E3 62
  can0  1DA   [8]  B7 72 18 00 00 01 08 35
  can0  120   [4]  00 00 04 9B
  can0  1C2   [1]  5B
  can0  1CB   [7]  00 00 00 00 10 02 C9
  can0  108   [3]  00 0D AD
  can0  1F2   [8]  10 64 00 80 00 1E 03 8F
  can0  1D4   [8]  88 88 00 00 C7 46 01 C4
  can0  11A   [8]  01 40 04 55 00 00 01 C3
  can0  1DB   [8]  FF E0 B7 6A 00 FF F0 25
  can0  1DC   [8]  B4 0E AF FD 0C D4 C8 F8
  can0  1ED   [3]  FF E0 68
  can0  284   [8]  00 00 00 00 00 00 85 0B
  can0  1DA   [8]  B7 32 18 00 00 01 09 12
  can0  120   [4]  00 00 05 1E
  can0  1C2   [1]  5C
  can0  1CB   [7]  00 00 00 00 10 03 4C
  can0  108   [3]  00 0E A7
  can0  1F2   [8]  10 64 00 80 00 1E 00 8C
  can0  1D4   [8]  88 88 00 00 07 46 01 08
  can0  11A   [8]  01 40 04 55 40 00 02 0E
  can0  1DB   [8]  FF E0 B7 6A 00 FF F1 A0
  can0  1DC   [8]  B4 0E AF FD 01 29 09 A9
  can0  1ED   [3]  FF E1 ED
  can0  55B   [8]  A5 C0 00 00 E3 00 12 9B
  can0  5BC   [8]  74 40 99 50 C0 00 80 4F
  can0  1DA   [8]  B7 32 18 00 00 01 0A 18
  can0  120   [4]  00 00 06 14
  can0  1C2   [1]  5D
  can0  1CB   [7]  00 00 00 00 10 00 46
  can0  108   [3]  00 0F 22
  can0  1D4   [8]  88 88 00 00 47 46 01 CF
  can0  1F2   [8]  10 64 00 80 00 1E 01 8D
  can0  11A   [8]  01 40 04 AA 80 00 03 18
  can0  1DB   [8]  FF E0 B7 6A 00 FF F2 AA
  can0  1DC   [8]  B4 0E AF FD 05 54 CA 7A
  can0  1ED   [3]  FF E2 E7
  can0  284   [8]  00 00 00 00 00 00 86 0C
  can0  355   [8]  00 00 00 00 30 00 60 00
  can0  1DA   [8]  B7 72 18 00 00 01 0B 3F
  can0  120   [4]  00 00 07 91
  can0  55A   [8]  00 37 39 37 55 00 5B 08
  can0  1C2   [1]  5E
  can0  4B9   [1]  48
  can0  1CB   [7]  00 00 00 00 10 01 C3
  can0  108   [3]  00 00 00
  can0  1F2   [8]  10 64 00 80 00 1E 02 8E
  can0  1D4   [8]  88 88 00 00 87 46 01 03
  can0  3B8   [5]  7F E8 00 07 FF
  can0  50A   [8]  85 93 A0 11 80 21 04 12
  can0  11A   [8]  01 40 04 AA C0 00 00 D5
  can0  50B   [7]  00 00 06 C0 00 00 00
  can0  1DB   [8]  FF E0 B7 6A 00 FF F3 2F
  can0  1DC   [8]  B4 0E AF FD 08 C0 C3 32
  can0  1ED   [3]  FF E3 62
  can0  1DA   [8]  B7 72 18 00 00 01 08 35
  can0  120   [4]  00 00 08 B3
  can0  1C2   [1]  5F
  can0  1CB   [7]  00 00 00 00 10 02 C9
  can0  108   [3]  00 01 85
  can0  1D4   [8]  88 88 00 00 C7 46 01 C4
  can0  1F2   [8]  10 64 00 80 00 1E 03 8F
  can0  11A   [8]  01 40 04 55 00 00 01 C3
  can0  1DB   [8]  FF E0 B7 6A 00 FF F0 25
  can0  1DC   [8]  B4 0E AF FD 0C D4 C8 F8
  can0  1ED   [3]  FF E0 68
  can0  284   [8]  00 00 00 00 00 00 87 0D
  can0  1DA   [8]  B7 32 18 00 00 01 09 12
  can0  120   [4]  00 00 09 36
  can0  1C2   [1]  50
  can0  1CB   [7]  00 00 00 00 10 03 4C
  can0  108   [3]  00 02 8F
  can0  1F2   [8]  10 64 00 80 00 1E 00 8C
  can0  1D4   [8]  88 88 00 00 07 46 01 08
  can0  11A   [8]  01 40 04 55 40 00 02 0E
  can0  1DB   [8]  FF E0 B7 6A 00 FF F1 A0
  can0  1DC   [8]  B4 0E AF FD 01 29 09 A9
  can0  1ED   [3]  FF E1 ED
  can0  56E   [4]  46 00 00 00
  can0  1DA   [8]  B7 32 18 00 00 01 0A 18
  can0  120   [4]  00 00 0A 3C
  can0  1C2   [1]  51
  can0  1CB   [7]  00 00 00 00 10 00 46
  can0  54A   [8]  DA 80 70 0E 00 00 00 59
  can0  54B   [8]  11 08 80 0A 04 00 00 00
  can0  54C   [8]  7E 65 00 00 00 00 64 00
  can0  108   [3]  00 03 0A
  can0  54F   [8]  6B 00 00 00 04 40 8D 45
  can0  1D4   [8]  88 88 00 00 47 46 01 CF
  can0  1F2   [8]  10 64 00 80 00 1E 01 8D
  can0  11A   [8]  01 40 04 AA 80 00 03 18
  can0  1DB   [8]  FF E0 B7 6A 00 FF F2 AA
  can0  1DC   [8]  B4 0E AF FD 05 54 CA 7A
  can0  1ED   [3]  FF E2 E7
  can0  355   [8]  00 00 00 00 30 00 60 00
  can0  284   [8]  00 00 00 00 00 00 88 0E
  can0  1DA   [8]  B7 72 18 00 00 01 0B 3F
  can0  120   [4]  00 00 0B B9
  can0  5C5   [8]  40 00 55 6A 00 00 00 00
  can0  1C2   [1]  52
  can0  1CB   [7]  00 00 00 00 10 01 C3
  can0  108   [3]  00 04 9B
  can0  1F2   [8]  10 64 00 80 00 1E 02 8E
  can0  1D4   [8]  88 88 00 00 87 46 01 03
  can0  11A   [8]  01 40 04 AA C0 00 00 D5
  can0  1DB   [8]  FF E0 B7 6A 00 FF F3 2F
  can0  1DC   [8]  B4 0E AF FD 08 C0 C3 32
  can0  1ED   [3]  FF E3 62
  can0  390   [8]  04 00 00 02 00 00 00 02
  can0  1DA   [8]  B7 72 18 00 00 01 08 35
  can0  120   [4]  00 00 0C 28
  can0  625   [6]  02 00 FF 1D 20 00
  can0  1C2   [1]  53
  can0  393   [8]  00 20 00 00 00 00 00 01
  can0  1CB   [7]  00 00 00 00 10 02 C9
  can0  108   [3]  00 05 1E
  can0  1D4   [8]  88 88 00 00 C7 46 01 C4
  can0  1F2   [8]  10 64 00 80 00 1E 03 8F
  can0  11A   [8]  01 40 04 55 00 00 01 C3
  can0  1DB   [8]  FF E0 B7 6A 00 FF F0 25
  can0  1DC   [8]  B4 0E AF FD 0C D4 C8 F8
  can0  1ED   [3]  FF E0 68
  can0  284   [8]  00 00 00 00 00 00 89 0F
  can0  1DA   [8]  B7 32 18 00 00 01 09 12
  can0  120   [4]  00 00 0D AD
  can0  1C2   [1]  54
  can0  1CB   [7]  00 00 00 00 10 03 4C
  can0  108   [3]  00 06 14
  can0  1F2   [8]  10 64 00 80 00 1E 00 8C
  can0  1D4   [8]  88 88 00 00 07 46 01 08
  can0  11A   [8]  01 40 04 55 40 00 02 0E
  can0  1DB   [8]  FF E0 B7 6A 00 FF F1 A0
  can0  1DC   [8]  B4 0E AF FD 01 29 09 A9
  can0  1ED   [3]  FF E1 ED
  can0  1DA   [8]  B7 32 18 00 00 01 0A 18
  can0  120   [4]  00 00 0E A7
  can0  1C2   [1]  55
  can0  1CB   [7]  00 00 00 00 10 00 46
  can0  1F2   [8]  10 64 00 80 00 1E 01 8D
  can0  1D4   [8]  88 88 00 00 47 46 01 CF
  can0  108   [3]  00 07 91
  can0  11A   [8]  01 40 04 AA 80 00 03 18
  can0  1DB   [8]  FF E0 B7 6A 00 FF F2 AA
  can0  1DC   [8]  B4 0E AF FD 05 54 CA 7A
  can0  1ED   [3]  FF E2 E7
  can0  284   [8]  00 00 00 00 00 00 8A 10
  can0  355   [8]  00 00 00 00 30 00 60 00
  can0  1DA   [8]  B7 72 18 00 00 01 0B 3F
  can0  120   [4]  00 00 0F 22
  can0  1C2   [1]  56
  can0  1CB   [7]  00 00 00 00 10 01 C3
  can0  108   [3]  00 08 B3
  can0  1F2   [8]  10 64 00 80 00 1E 02 8E
  can0  1D4   [8]  88 88 00 00 87 46 01 03
  can0  11A   [8]  01 40 04 AA C0 00 00 D5
  can0  1DB   [8]  FF E0 B7 6A 00 FF F3 2F
  can0  1DC   [8]  B4 0E AF FD 08 C0 C3 32
  can0  1ED   [3]  FF E3 62
  can0  55B   [8]  A5 C0 00 00 E3 00 13 1E
  can0  5BC   [8]  BB 80 99 50 C0 10 A0 00
  can0  1DA   [8]  B7 72 18 00 00 01 08 35
  can0  120   [4]  00 00 00 00
  can0  1C2   [1]  57
  can0  1CB   [7]  00 00 00 00 10 02 C9
  can0  108   [3]  00 09 36
  can0  1D4   [8]  88 88 00 00 C7 46 01 C4
  can0  1F2   [8]  10 64 00 80 00 1E 03 8F
  can0  11A   [8]  01 40 04 55 00 00 01 C3
  can0  1DB   [8]  FF E0 B7 6A 00 FF F0 25
  can0  1DC   [8]  B4 0E AF FD 0C D4 C8 F8
  can0  1ED   [3]  FF E0 68
  can0  59E   [8]  00 00 24 8B A0 00 00 7E
  can0  5C0   [8]  02 64 A7 00 01 C8 1F 00
  can0  284   [8]  00 00 00 00 00 00 8B 11
  can0  5EB   [8]  E0 0F FF FF FF FF FF FF
  can0  1DA   [8]  B7 32 18 00 00 01 09 12
  can0  120   [4]  00 00 01 85
  can0  55A   [8]  00 37 39 37 55 00 5B 08
  can0  1C2   [1]  58
  can0  4B9   [1]  49
  can0  1CB   [7]  00 00 00 00 10 03 4C
  can0  108   [3]  00 0A 3C
  can0  1F2   [8]  10 64 00 80 00 1E 00 8C
  can0  1D4   [8]  88 88 00 00 07 46 01 08
  can0  3B8   [5]  7F C8 01 07 FF
  can0  50A   [8]  85 B3 A0 11 80 21 04 12
  can0  11A   [8]  01 40 04 55 40 00 02 0E
  can0  50B   [7]  00 00 06 C0 00 00 00
  can0  1DB   [8]  FF E0 B7 6A 00 FF F1 A0
  can0  1DC   [8]  B4 0E AF FD 01 29 09 A9
  can0  1ED   [3]  FF E1 ED
  can0  1DA   [8]  B7 32 18 00 00 01 0A 18
  can0  120   [4]  00 00 02 8F
  can0  1C2   [1]  59
  can0  1CB   [7]  00 00 00 00 10 00 46
  can0  1F2   [8]  10 64 00 80 00 1E 01 8D
  can0  108   [3]  00 0B B9
  can0  1D4   [8]  88 88 00 00 47 46 01 CF
  can0  11A   [8]  01 40 04 AA 80 00 03 18
  can0  1DB   [8]  FF E0 B7 6A 00 FF F2 AA
  can0  1DC   [8]  B4 0E AF FD 05 54 CA 7A
  can0  1ED   [3]  FF E2 E7
  can0  284   [8]  00 00 00 00 00 00 8C 12
  can0  355   [8]  00 00 00 00 30 00 60 00
  can0  1DA   [8]  B7 72 18 00 00 01 0B 3F
  can0  120   [4]  00 00 03 0A
  can0  1C2   [1]  5A
  can0  1CB   [7]  00 00 00 00 10 01 C3
  can0  108   [3]  00 0C 28
  can0  1D4   [8]  88 88 00 00 87 46 01 03
  can0  1F2   [8]  10 64 00 80 00 1E 02 8E
  can0  5EC   [1]  00
  can0  11A   [8]  01 40 04 AA C0 00 00 D5
  can0  1DB   [8]  FF E0 B7 6A 00 FF F3 2F
  can0  1DC   [8]  B4 0E AF FD 08 C0 C3 32
  can0  1ED   [3]  FF E3 62
  can0  56E   [4]  46 00 00 00
  can0  1DA   [8]  B7 72 18 00 00 01 08 35
  can0  120   [4]  00 00 04 9B
  can0  1C2   [1]  5B
  can0  1CB   [7]  00 00 00 00 10 02 C9
  can0  54A   [8]  3C 80 70 0E 00 00 00 59
  can0  54B   [8]  11 08 80 0A 04 00 00 00
  can0  54C   [8]  7E 65 00 00 00 00 64 00
  can0  108   [3]  00 0D AD
  can0  54F   [8]  6B 00 00 00 04 80 8D 45
  can0  1D4   [8]  88 88 00 00 C7 46 01 C4
  can0  1F2   [8]  10 64 00 80 00 1E 03 8F
  can0  11A   [8]  01 40 04 55 00 00 01 C3
  can0  1DB   [8]  FF E0 B7 6A 00 FF F0 25
  can0  1DC   [8]  B4 0E AF FD 0C D4 C8 F8
  can0  1ED   [3]  FF E0 68
  can0  284   [8]  00 00 00 00 00 00 8D 13
  can0  5C5   [8]  40 00 55 6A 00 00 00 00
  can0  1DA   [8]  B7 32 18 00 00 01 09 12
  can0  120   [4]  00 00 05 1E
  can0  1C2   [1]  5C
  can0  1CB   [7]  00 00 00 00 10 03 4C
  can0  108   [3]  00 0E A7
  can0  1D4   [8]  88 88 00 00 07 46 01 08
  can0  1F2   [8]  10 64 00 80 00 1E 00 8C
  can0  5CD   [5]  96 D2 FB 15 A0
  can0  11A   [8]  01 40 04 55 40 00 02 0E
  can0  1DB   [8]  FF E0 B7 6A 00 FF F1 A0
  can0  1DC   [8]  B4 0E AF FD 01 29 09 A9
  can0  1ED   [3]  FF E1 ED
  can0  390   [8]  04 00 00 02 00 00 00 13
  can0  1DA   [8]  B7 32 18 00 00 01 0A 18
  can0  120   [4]  00 00 06 14
  can0  625   [6]  02 00 FF 1D 20 00
  can0  1C2   [1]  5D
  can0  393   [8]  00 20 00 00 00 00 00 12
  can0  1CB   [7]  00 00 00 00 10 00 46
  can0  1F2   [8]  10 64 00 80 00 1E 01 8D
  can0  1D4   [8]  88 88 00 00 47 46 01 CF
  can0  108   [3]  00 0F 22
  can0  11A   [8]  01 40 04 AA 80 00 03 18
  can0  1DB   [8]  FF E0 B7 6A 00 FF F2 AA
  can0  1DC   [8]  B4 0E AF FD 05 54 CA 7A
  can0  1ED   [3]  FF E2 E7
  can0  284   [8]  00 00 00 00 00 00 8E 14
  can0  355   [8]  00 00 00 00 30 00 60 00
  can0  1DA   [8]  B7 72 18 00 00 01 0B 3F
  can0  120   [4]  00 00 07 91
  can0  1C2   [1]  5E
  can0  1CB   [7]  00 00 00 00 10 01 C3
  can0  108   [3]  00 00 00
  can0  1D4   [8]  88 88 00 00 87 46 01 03
  can0  1F2   [8]  10 64 00 80 00 1E 02 8E
  can0  11A   [8]  01 40 04 AA C0 00 00 D5
  can0  1DB   [8]  FF E0 B7 6A 00 FF F3 2F
  can0  1DC   [8]  B4 0E AF FD 08 C0 C3 32
  can0  1ED   [3]  FF E3 62
  can0  1DA   [8]  B7 72 18 00 00 01 08 35
  can0  120   [4]  00 00 08 B3
  can0  1C2   [1]  5F
  can0  1CB   [7]  00 00 00 00 10 02 C9
  can0  1F2   [8]  10 64 00 80 00 1E 03 8F
  can0  1D4   [8]  88 88 00 00 C7 46 01 C4
  can0  108   [3]  00 01 85
  can0  11A   [8]  01 40 04 55 00 00 01 C3
  can0  1DB   [8]  FF E0 B7 6A 00 FF F0 25
  can0  1DC   [8]  B4 0E AF FD 0C D4 C8 F8
  can0  1ED   [3]  FF E0 68
  can0  284   [8]  00 00 00 00 00 00 8F 15
  can0  1DA   [8]  B7 32 18 00 00 01 09 12
  can0  120   [4]  00 00 09 36
  can0  1C2   [1]  50
  can0  1CB   [7]  00 00 00 00 10 03 4C
  can0  108   [3]  00 02 8F
  can0  1D4   [8]  88 88 00 00 07 46 01 08
  can0  1F2   [8]  10 64 00 80 00 1E 00 8C
  can0  11A   [8]  01 40 04 55 40 00 02 0E
  can0  1DB   [8]  FF E0 B7 6A 00 FF F1 A0
  can0  1DC   [8]  B4 0E AF FD 01 29 09 A9
  can0  1ED   [3]  FF E1 ED
  can0  55B   [8]  A5 C0 00 00 E3 00 10 14
  can0  5BC   [8]  74 40 F0 50 C1 00 C0 00
  can0  1DA   [8]  B7 32 18 00 00 01 0A 18
  can0  120   [4]  00 00 0A 3C
  can0  1C2   [1]  51
  can0  1CB   [7]  00 00 00 00 10 00 46
  can0  1F2   [8]  10 64 00 80 00 1E 01 8D
  can0  1D4   [8]  88 88 00 00 47 46 01 CF
  can0  108   [3]  00 03 0A
  can0  11A   [8]  01 40 04 AA 80 00 03 18
  can0  1DB   [8]  FF E0 B7 6A 00 FF F2 AA
  can0  1DC   [8]  B4 0E AF FD 05 54 CA 7A
  can0  1ED   [3]  FF E2 E7
  can0  284   [8]  00 00 00 00 00 00 90 16
  can0  355   [8]  00 00 00 00 30 00 60 00
  can0  1DA   [8]  B7 72 18 00 00 01 0B 3F
  can0  120   [4]  00 00 0B B9
  can0  55A   [8]  00 37 39 37 55 00 5B 08
  can0  1C2   [1]  52
  can0  4B9   [1]  4A
  can0  1CB   [7]  00 00 00 00 10 01 C3
  can0  108   [3]  00 04 9B
  can0  1D4   [8]  88 88 00 00 87 46 01 03
  can0  1F2   [8]  10 64 00 80 00 1E 02 8E
  can0  3B8   [5]  7F E8 01 07 FF
  can0  50A   [8]  85 D3 A0 11 80 21 04 12
  can0  11A   [8]  01 40 04 AA C0 00 00 D5
  can0  50B   [7]  00 00 06 C0 00 00 00
  can0  1DB   [8]  FF E0 B7 6A 00 FF F3 2F
  can0  1DC   [8]  B4 0E AF FD 08 C0 C3 32
  can0  1ED   [3]  FF E3 62
  can0  1DA   [8]  B7 72 18 00 00 01 08 35
  can0  120   [4]  00 00 0C 28
  can0  1C2   [1]  53
  can0  1CB   [7]  00 00 00 00 10 02 C9
  can0  1F2   [8]  10 64 00 80 00 1E 03 8F
  can0  1D4   [8]  88 88 00 00 C7 46 01 C4
  can0  108   [3]  00 05 1E
  can0  11A   [8]  01 40 04 55 00 00 01 C3
  can0  1DB   [8]  FF E0 B7 6A 00 FF F0 25
  can0  1DC   [8]  B4 0E AF FD 0C D4 C8 F8
  can0  1ED   [3]  FF E0 68
  can0  284   [8]  00 00 00 00 00 00 91 17
  can0  1DA   [8]  B7 32 18 00 00 01 09 12
  can0  120   [4]  00 00 0D AD
  can0  1C2   [1]  54
  can0  1CB   [7]  00 00 00 00 10 03 4C
  can0  1F2   [8]  10 64 00 80 00 1E 00 8C
  can0  1D4   [8]  88 88 00 00 07 46 01 08
  can0  108   [3]  00 06 14
  can0  11A   [8]  01 40 04 55 40 00 02 0E
  can0  1DB   [8]  FF E0 B7 6A 00 FF F1 A0
  can0  1DC   [8]  B4 0E AF FD 01 29 09 A9
  can0  1ED   [3]  FF E1 ED
  can0  56E   [4]  46 00 00 00
  can0  1DA   [8]  B7 32 18 00 00 01 0A 18
  can0  120   [4]  00 00 0E A7
  can0  1C2   [1]  55
  can0  1CB   [7]  00 00 00 00 10 00 46
  can0  54A   [8]  DA 80 70 0E 00 00 00 59
  can0  54B   [8]  11 08 80 0A 04 00 00 00
  can0  54C   [8]  7E 65 00 00 00 00 64 00
  can0  1D4   [8]  88 88 00 00 47 46 01 CF
  can0  54F   [8]  6B 00 00 00 04 C0 8D 45
  can0  108   [3]  00 07 91
  can0  1F2   [8]  10 64 00 80 00 1E 01 8D
  can0  11A   [8]  01 40 04 AA 80 00 03 18
  can0  1DB   [8]  FF E0 B7 6A 00 FF F2 AA
  can0  1DC   [8]  B4 0E AF FD 05 54 CA 7A
  can0  1ED   [3]  FF E2 E7
  can0  284   [8]  00 00 00 00 00 00 92 18
  can0  355   [8]  00 00 00 00 30 00 60 00
  can0  1DA   [8]  B7 72 18 00 00 01 0B 3F
  can0  120   [4]  00 00 0F 22
  can0  1C2   [1]  56
  can0  5C5   [8]  40 00 55 6A 00 00 00 00
  can0  1CB   [7]  00 00 00 00 10 01 C3
  can0  1F2   [8]  10 64 00 80 00 1E 02 8E
  can0  108   [3]  00 08 B3
  can0  1D4   [8]  88 88 00 00 87 46 01 03
  can0  11A   [8]  01 40 04 AA C0 00 00 D5
  can0  1DB   [8]  FF E0 B7 6A 00 FF F3 2F
  can0  1DC   [8]  B4 0E AF FD 08 C0 C3 32
  can0  1ED   [3]  FF E3 62
  can0  390   [8]  04 00 00 02 00 00 00 24
  can0  1DA   [8]  B7 72 18 00 00 01 08 35
  can0  120   [4]  00 00 00 00
  can0  625   [6]  02 00 FF 1D 20 00
  can0  1C2   [1]  57
  can0  393   [8]  00 20 00 00 00 00 00 23
  can0  1CB   [7]  00 00 00 00 10 02 C9
  can0  1F2   [8]  10 64 00 80 00 1E 03 8F
  can0  1D4   [8]  88 88 00 00 C7 46 01 C4
  can0  108   [3]  00 09 36
  can0  11A   [8]  01 40 04 55 00 00 01 C3
  can0  1DB   [8]  FF E0 B7 6A 00 FF F0 25
  can0  1DC   [8]  B4 0E AF FD 0C D4 C8 F8
  can0  1ED   [3]  FF E0 68
  can0  284   [8]  00 00 00 00 00 00 93 19
  can0  1DA   [8]  B7 32 18 00 00 01 09 12
  can0  120   [4]  00 00 01 85
  can0  1C2   [1]  58
  can0  1CB   [7]  00 00 00 00 10 03 4C
  can0  1F2   [8]  10 64 00 80 00 1E 00 8C
  can0  1D4   [8]  88 88 00 00 07 46 01 08
  can0  108   [3]  00 0A 3C
  can0  11A   [8]  01 40 04 55 40 00 02 0E
  can0  1DB   [8]  FF E0 B7 6A 00 FF F1 A0
  can0  1DC   [8]  B4 0E AF FD 01 29 09 A9
  can0  1ED   [3]  FF E1 ED
  can0  1DA   [8]  B7 32 18 00 00 01 0A 18
  can0  120   [4]  00 00 02 8F
  can0  1C2   [1]  59
  can0  1CB   [7]  00 00 00 00 10 00 46
  can0  1F2   [8]  10 64 00 80 00 1E 01 8D
  can0  1D4   [8]  88 88 00 00 47 46 01 CF
  can0  108   [3]  00 0B B9
  can0  11A   [8]  01 40 04 AA 80 00 03 18
  can0  284   [8]  00 00 00 00 00 00 94 1A
  can0  1DB   [8]  FF E0 B7 6A 00 FF F2 AA
  can0  1DC   [8]  B4 0E AF FD 05 54 CA 7A
  can0  1ED   [3]  FF E2 E7
  can0  355   [8]  00 00 00 00 30 00 60 00
  can0  1DA   [8]  B7 72 18 00 00 01 0B 3F
  can0  120   [4]  00 00 03 0A
  can0  1C2   [1]  5A
  can0  1CB   [7]  00 00 00 00 10 01 C3
  can0  1F2   [8]  10 64 00 80 00 1E 02 8E
  can0  1D4   [8]  88 88 00 00 87 46 01 03
  can0  108   [3]  00 0C 28
  can0  11A   [8]  01 40 04 AA C0 00 00 D5
  can0  1DB   [8]  FF E0 B7 6A 00 FF F3 2F
  can0  1DC   [8]  B4 0E AF FD 08 C0 C3 32
  can0  1ED   [3]  FF E3 62
  can0  55B   [8]  A5 C0 00 00 E3 00 11 91
  can0  5BC   [8]  BB 80 F0 50 C1 10 E0 2D
  can0  1DA   [8]  B7 72 18 00 00 01 08 35
  can0  120   [4]  00 00 04 9B
  can0  1C2   [1]  5B
  can0  1CB   [7]  00 00 00 00 10 02 C9
  can0  1F2   [8]  10 64 00 80 00 1E 03 8F
  can0  1D4   [8]  88 88 00 00 C7 46 01 C4
  can0  108   [3]  00 0D AD
  can0  11A   [8]  01 40 04 55 00 00 01 C3
  can0  1DB   [8]  FF E0 B7 6A 00 FF F0 25
  can0  1DC   [8]  B4 0E AF FD 0C D4 C8 F8
  can0  1ED   [3]  FF E0 68
  can0  284   [8]  00 00 00 00 00 00 95 1B
  can0  1DA   [8]  B7 32 18 00 00 01 09 12
  can0  120   [4]  00 00 05 1E
  can0  55A   [8]  00 37 39 37 55 00 5B 08
  can0  1C2   [1]  5C
  can0  4B9   [1]  4B
  can0  1CB   [7]  00 00 00 00 10 03 4C
  can0  1F2   [8]  10 64 00 80 00 1E 00 8C
  can0  108   [3]  00 0E A7
  can0  1D4   [8]  88 88 00 00 07 46 01 08
  can0  3B8   [5]  7F C8 01 07 FF
  can0  50A   [8]  85 F3 A0 11 80 21 04 12
  can0  11A   [8]  01 40 04 55 40 00 02 0E
  can0  50B   [7]  00 00 06 C0 00 00 00
  can0  1DB   [8]  FF E0 B7 6A 00 FF F1 A0
  can0  1DC   [8]  B4 0E AF FD 01 29 09 A9
  can0  1ED   [3]  FF E1 ED
  can0  1DA   [8]  B7 32 18 00 00 01 0A 18
  can0  120   [4]  00 00 06 14
  can0  1C2   [1]  5D
  can0  1CB   [7]  00 00 00 00 10 00 46
  can0  1F2   [8]  10 64 00 80 00 1E 01 8D
  can0  1D4   [8]  88 88 00 00 47 46 01 CF
  can0  108   [3]  00 0F 22
  can0  11A   [8]  01 40 04 AA 80 00 03 18
  can0  284   [8]  00 00 00 00 00 00 96 1C
  can0  1DB   [8]  FF E0 B7 6A 00 FF F2 AA
  can0  1DC   [8]  B4 0E AF FD 05 54 CA 7A
  can0  1ED   [3]  FF E2 E7
  can0  355   [8]  00 00 00 00 30 00 60 00
  can0  1DA   [8]  B7 72 18 00 00 01 0B 3F
  can0  120   [4]  00 00 07 91
  can0  1C2   [1]  5E
  can0  1CB   [7]  00 00 00 00 10 01 C3
  can0  1F2   [8]  10 64 00 80 00 1E 02 8E
  can0  1D4   [8]  88 88 00 00 87 46 01 03
  can0  108   [3]  00 00 00
  can0  11A   [8]  01 40 04 AA C0 00 00 D5
  can0  1DB   [8]  FF E0 B7 6A 00 FF F3 2F
  can0  1DC   [8]  B4 0E AF FD 08 C0 C3 32
  can0  1ED   [3]  FF E3 62
  can0  56E   [4]  46 00 00 00
  can0  1DA   [8]  B7 72 18 00 00 01 08 35
  can0  120   [4]  00 00 08 B3
  can0  1C2   [1]  5F
  can0  1CB   [7]  00 00 00 00 10 02 C9
  can0  54A   [8]  3C 80 70 0E 00 00 00 59
  can0  481   [2]  00 00
  can0  54B   [8]  11 08 80 0A 04 00 00 00
  can0  1D4   [8]  88 88 00 00 C7 46 01 C4
  can0  54C   [8]  7E 65 00 00 00 00 64 00
  can0  108   [3]  00 01 85
  can0  54F   [8]  6B 00 00 00 04 00 8D 45
  can0  11A   [8]  01 40 04 55 00 00 01 C3
  can0  1F2   [8]  10 64 00 80 00 1E 03 8F
  can0  284   [8]  00 00 00 00 00 00 97 1D
  can0  1DB   [8]  FF E0 B7 6A 00 FF F0 25
  can0  1DC   [8]  B4 0E AF FD 0C D4 C8 F8
  can0  1ED   [3]  FF E0 68
  can0  5C5   [8]  40 00 55 6A 00 00 00 00
  can0  1DA   [8]  B7 32 18 00 00 01 09 12
  can0  120   [4]  00 00 09 36
  can0  1C2   [1]  50
  can0  1CB   [7]  00 00 00 00 10 03 4C
  can0  1F2   [8]  10 64 00 80 00 1E 00 8C
  can0  1D4   [8]  88 88 00 00 07 46 01 08
  can0  108   [3]  00 02 8F
  can0  11A   [8]  01 40 04 55 40 00 02 0E
  can0  1DB   [8]  FF E0 B7 6A 00 FF F1 A0
  can0  1DC   [8]  B4 0E AF FD 01 29 09 A9
  can0  1ED   [3]  FF E1 ED
  can0  390   [8]  04 00 00 02 00 00 00 35
  can0  1DA   [8]  B7 32 18 00 00 01 0A 18
  can0  120   [4]  00 00 0A 3C
  can0  625   [6]  02 00 FF 1D 20 00
  can0  1C2   [1]  51
  can0  393   [8]  00 20 00 00 00 00 00 34
  can0  1CB   [7]  00 00 00 00 10 00 46
  can0  1F2   [8]  10 64 00 80 00 1E 01 8D
  can0  1D4   [8]  88 88 00 00 47 46 01 CF
  can0  108   [3]  00 03 0A
  can0  11A   [8]  01 40 04 AA 80 00 03 18
  can0  284   [8]  00 00 00 00 00 00 98 1E
  can0  1DB   [8]  FF E0 B7 6A 00 FF F2 AA
  can0  1DC   [8]  B4 0E AF FD 05 54 CA 7A
  can0  1ED   [3]  FF E2 E7
  can0  355   [8]  00 00 00 00 30 00 60 00
  can0  1DA   [8]  B7 72 18 00 00 01 0B 3F
  can0  120   [4]  00 00 0B B9
  can0  1C2   [1]  52
  can0  1CB   [7]  00 00 00 00 10 01 C3
  can0  1F2   [8]  10 64 00 80 00 1E 02 8E
  can0  1D4   [8]  88 88 00 00 87 46 01 03
  can0  108   [3]  00 04 9B
  can0  11A   [8]  01 40 04 AA C0 00 00 D5
  can0  1DB   [8]  FF E0 B7 6A 00 FF F3 2F
  can0  1DC   [8]  B4 0E AF FD 08 C0 C3 32
  can0  1ED   [3]  FF E3 62
  can0  1DA   [8]  B7 72 18 00 00 01 08 35
  can0  120   [4]  00 00 0C 28
  can0  1C2   [1]  53
  can0  1CB   [7]  00 00 00 00 10 02 C9
  can0  1F2   [8]  10 64 00 80 00 1E 03 8F
  can0  1D4   [8]  88 88 00 00 C7 46 01 C4
  can0  108   [3]  00 05 1E
  can0  11A   [8]  01 40 04 55 00 00 01 C3
  can0  284   [8]  00 00 00 00 00 00 99 1F
  can0  1DB   [8]  FF E0 B7 6A 00 FF F0 25
  can0  1DC   [8]  B4 0E AF FD 0C D4 C8 F8
  can0  1ED   [3]  FF E0 68
  can0  1DA   [8]  B7 32 18 00 00 01 09 12
  can0  120   [4]  00 00 0D AD
  can0  1C2   [1]  54
  can0  1CB   [7]  00 00 00 00 10 03 4C
  can0  1F2   [8]  10 64 00 80 00 1E 00 8C
  can0  1D4   [8]  88 88 00 00 07 46 01 08
  can0  108   [3]  00 06 14
  can0  11A   [8]  01 40 04 55 40 00 02 0E
  can0  1DB   [8]  FF E0 B7 6A 00 FF F1 A0
  can0  1DC   [8]  B4 0E AF FD 01 29 09 A9
  can0  1ED   [3]  FF E1 ED
  can0  55B   [8]  A5 C0 00 00 E3 00 12 9B
  can0  5BC   [8]  74 40 F0 50 C1 01 01 0A
  can0  1DA   [8]  B7 32 18 00 00 01 0A 18
  can0  120   [4]  00 00 0E A7
  can0  1C2   [1]  55
  can0  1CB   [7]  00 00 00 00 10 00 46
  can0  1F2   [8]  10 64 00 80 00 1E 01 8D
  can0  1D4   [8]  88 88 00 00 47 46 01 CF
  can0  108   [3]  00 07 91
  can0  11A   [8]  01 40 04 AA 80 00 03 18
  can0  284   [8]  00 00 00 00 00 00 9A 20
  can0  1DB   [8]  FF E0 B7 6A 00 FF F2 AA
  can0  1DC   [8]  B4 0E AF FD 05 54 CA 7A
  can0  1ED   [3]  FF E2 E7
  can0  355   [8]  00 00 00 00 30 00 60 00
  can0  1DA   [8]  B7 72 18 00 00 01 0B 3F
  can0  120   [4]  00 00 0F 22
  can0  55A   [8]  00 37 39 37 55 00 5B 08
  can0  1C2   [1]  56
  can0  4B9   [1]  4C
  can0  1CB   [7]  00 00 00 00 10 01 C3
  can0  1F2   [8]  10 64 00 80 00 1E 02 8E
  can0  1D4   [8]  88 88 00 00 87 46 01 03
  can0  108   [3]  00 08 B3
  can0  3B8   [5]  7F E8 02 07 FF
  can0  11A   [8]  01 40 04 AA C0 00 00 D5
  can0  50A   [8]  85 93 A0 11 80 21 04 12
  can0  50B   [7]  00 00 06 C0 00 00 00
  can0  1DB   [8]  FF E0 B7 6A 00 FF F3 2F
  can0  1DC   [8]  B4 0E AF FD 08 C0 C3 32
  can0  1ED   [3]  FF E3 62
  can0  1DA   [8]  B7 72 18 00 00 01 08 35
  can0  120   [4]  00 00 00 00
  can0  1C2   [1]  57
  can0  1CB   [7]  00 00 00 00 10 02 C9
  can0  1F2   [8]  10 64 00 80 00 1E 03 8F
  can0  1D4   [8]  88 88 00 00 C7 46 01 C4
  can0  108   [3]  00 09 36
  can0  11A   [8]  01 40 04 55 00 00 01 C3
  can0  284   [8]  00 00 00 00 00 00 9B 21
  can0  1DB   [8]  FF E0 B7 6A 00 FF F0 25
  can0  1DC   [8]  B4 0E AF FD 0C D4 C8 F8
  can0  1ED   [3]  FF E0 68
  can0  1DA   [8]  B7 32 18 00 00 01 09 12
  can0  120   [4]  00 00 01 85
  can0  1C2   [1]  58
  can0  1CB   [7]  00 00 00 00 10 03 4C
  can0  1F2   [8]  10 64 00 80 00 1E 00 8C
  can0  1D4   [8]  88 88 00 00 07 46 01 08
  can0  108   [3]  00 0A 3C
  can0  11A   [8]  01 40 04 55 40 00 02 0E
  can0  56E   [4]  46 00 00 00
  can0  1DB   [8]  FF E0 B7 6A 00 FF F1 A0
  can0  1DC   [8]  B4 0E AF FD 01 29 09 A9
  can0  1ED   [3]  FF E1 ED
  can0  1DA   [8]  B7 32 18 00 00 01 0A 18
  can0  120   [4]  00 00 02 8F
  can0  1C2   [1]  59
  can0  1CB   [7]  00 00 00 00 10 00 46
  can0  54A   [8]  DA 80 70 0E 00 00 00 59
  can0  54B   [8]  11 08 80 0A 04 00 00 00
  can0  1F2   [8]  10 64 00 80 00 1E 01 8D
  can0  54C   [8]  7E 65 00 00 00 00 64 00
  can0  1D4   [8]  88 88 00 00 47 46 01 CF
  can0  54F   [8]  6B 00 00 00 04 40 8D 45
  can0  108   [3]  00 0B B9
  can0  11A   [8]  01 40 04 AA 80 00 03 18
  can0  284   [8]  00 00 00 00 00 00 9C 22
  can0  1DB   [8]  FF E0 B7 6A 00 FF F2 AA
  can0  1DC   [8]  B4 0E AF FD 05 54 CA 7A
  can0  1ED   [3]  FF E2 E7
  can0  355   [8]  00 00 00 00 30 00 60 00
  can0  1DA   [8]  B7 72 18 00 00 01 0B 3F
  can0  120   [4]  00 00 03 0A
  can0  5C5   [8]  40 00 55 6A 00 00 00 00
  can0  1C2   [1]  5A
  can0  1CB   [7]  00 00 00 00 10 01 C3
  can0  1F2   [8]  10 64 00 80 00 1E 02 8E
  can0  1D4   [8]  88 88 00 00 87 46 01 03
  can0  108   [3]  00 0C 28
  can0  11A   [8]  01 40 04 AA C0 00 00 D5
  can0  390   [8]  04 00 00 02 00 00 00 02
  can0  1DB   [8]  FF E0 B7 6A 00 FF F3 2F
  can0  1DC   [8]  B4 0E AF FD 08 C0 C3 32
  can0  1ED   [3]  FF E3 62
  can0  1DA   [8]  B7 72 18 00 00 01 08 35
  can0  120   [4]  00 00 04 9B
  can0  625   [6]  02 00 FF 1D 20 00
  can0  1C2   [1]  5B
  can0  393   [8]  00 20 00 00 00 00 00 01
  can0  1CB   [7]  00 00 00 00 10 02 C9
  can0  1F2   [8]  10 64 00 80 00 1E 03 8F
  can0  1D4   [8]  88 88 00 00 C7 46 01 C4
  can0  108   [3]  00 0D AD
  can0  11A   [8]  01 40 04 55 00 00 01 C3
  can0  284   [8]  00 00 00 00 00 00 9D 23
  can0  1DB   [8]  FF E0 B7 6A 00 FF F0 25
  can0  1DC   [8]  B4 0E AF FD 0C D4 C8 F8
  can0  1ED   [3]  FF E0 68
  can0  1DA   [8]  B7 32 18 00 00 01 09 12
  can0  120   [4]  00 00 05 1E
  can0  1C2   [1]  5C
  can0  1CB   [7]  00 00 00 00 10 03 4C
  can0  1F2   [8]  10 64 00 80 00 1E 00 8C
  can0  1D4   [8]  88 88 00 00 07 46 01 08
  can0  108   [3]  00 0E A7
  can0  11A   [8]  01 40 04 55 40 00 02 0E
  can0  1DB   [8]  FF E0 B7 6A 00 FF F1 A0
  can0  1DC   [8]  B4 0E AF FD 01 29 09 A9
  can0  1ED   [3]  FF E1 ED
  can0  1DA   [8]  B7 32 18 00 00 01 0A 18
  can0  120   [4]  00 00 06 14
  can0  1C2   [1]  5D
  can0  1CB   [7]  00 00 00 00 10 00 46
  can0  1F2   [8]  10 64 00 80 00 1E 01 8D
  can0  1D4   [8]  88 88 00 00 47 46 01 CF
  can0  108   [3]  00 0F 22
  can0  11A   [8]  01 40 04 AA 80 00 03 18
  can0  284   [8]  00 00 00 00 00 00 9E 24
  can0  1DB   [8]  FF E0 B7 6A 00 FF F2 AA
  can0  1DC   [8]  B4 0E AF FD 05 54 CA 7A
  can0  1ED   [3]  FF E2 E7
  can0  355   [8]  00 00 00 00 30 00 60 00
  can0  1DA   [8]  B7 72 18 00 00 01 0B 3F
  can0  120   [4]  00 00 07 91
  can0  1C2   [1]  5E
  can0  1CB   [7]  00 00 00 00 10 01 C3
  can0  1F2   [8]  10 64 00 80 00 1E 02 8E
  can0  1D4   [8]  88 88 00 00 87 46 01 03
  can0  108   [3]  00 00 00
  can0  11A   [8]  01 40 04 AA C0 00 00 D5
  can0  1DB   [8]  FF E0 B7 6A 00 FF F3 2F
  can0  1DC   [8]  B4 0E AF FD 08 C0 C3 32
  can0  1ED   [3]  FF E3 62
  can0  55B   [8]  A5 C0 00 00 E3 00 13 1E
  can0  5BC   [8]  BB 80 F0 50 C1 11 20 00
  can0  1DA   [8]  B7 72 18 00 00 01 08 35
  can0  120   [4]  00 00 08 B3
  can0  1C2   [1]  5F
  can0  1CB   [7]  00 00 00 00 10 02 C9
  can0  1F2   [8]  10 64 00 80 00 1E 03 8F
  can0  1D4   [8]  88 88 00 00 C7 46 01 C4
  can0  108   [3]  00 01 85
  can0  11A   [8]  01 40 04 55 00 00 01 C3
  can0  284   [8]  00 00 00 00 00 00 9F 25
  can0  1DB   [8]  FF E0 B7 6A 00 FF F0 25
  can0  1DC   [8]  B4 0E AF FD 0C D4 C8 F8
  can0  1ED   [3]  FF E0 68
  can0  1DA   [8]  B7 32 18 00 00 01 09 12
  can0  120   [4]  00 00 09 36
  can0  55A   [8]  00 37 39 37 55 00 5B 08
  can0  1C2   [1]  50
  can0  4B9   [1]  4D
  can0  1CB   [7]  00 00 00 00 10 03 4C
  can0  1F2   [8]  10 64 00 80 00 1E 00 8C
  can0  1D4   [8]  88 88 00 00 07 46 01 08
  can0  3B8   [5]  7F C8 02 07 FF
  can0  50A   [8]  85 B3 A0 11 80 21 04 12
  can0  11A   [8]  01 40 04 55 40 00 02 0E
  can0  108   [3]  00 02 8F
  can0  50B   [7]  00 00 06 C0 00 00 00
  can0  1DB   [8]  FF E0 B7 6A 00 FF F1 A0
  can0  1DC   [8]  B4 0E AF FD 01 29 09 A9
  can0  1ED   [3]  FF E1 ED
  can0  1DA   [8]  B7 32 18 00 00 01 0A 18
  can0  120   [4]  00 00 0A 3C
  can0  1C2   [1]  51
  can0  1CB   [7]  00 00 00 00 10 00 46
  can0  1F2   [8]  10 64 00 80 00 1E 01 8D
  can0  1D4   [8]  88 88 00 00 47 46 01 CF
  can0  108   [3]  00 03 0A
  can0  11A   [8]  01 40 04 AA 80 00 03 18
  can0  284   [8]  00 00 00 00 00 00 A0 26
  can0  1DB   [8]  FF E0 B7 6A 00 FF F2 AA
  can0  1DC   [8]  B4 0E AF FD 05 54 CA 7A
  can0  1ED   [3]  FF E2 E7
  can0  355   [8]  00 00 00 00 30 00 60 00
  can0  1DA   [8]  B7 72 18 00 00 01 0B 3F
  can0  120   [4]  00 00 0B B9
  can0  1C2   [1]  52
  can0  1CB   [7]  00 00 00 00 10 01 C3
  can0  1F2   [8]  10 64 00 80 00 1E 02 8E
  can0  1D4   [8]  88 88 00 00 87 46 01 03
  can0  108   [3]  00 04 9B
  can0  11A   [8]  01 40 04 AA C0 00 00 D5
  can0  56E   [4]  46 00 00 00
  can0  1DB   [8]  FF E0 B7 6A 00 FF F3 2F
  can0  1DC   [8]  B4 0E AF FD 08 C0 C3 32
  can0  1ED   [3]  FF E3 62
  can0  1DA   [8]  B7 72 18 00 00 01 08 35
  can0  120   [4]  00 00 0C 28
  can0  1C2   [1]  53
  can0  1CB   [7]  00 00 00 00 10 02 C9
  can0  54A   [8]  3C 80 70 0E 00 00 00 59
  can0  54B   [8]  11 08 80 0A 04 00 00 00
  can0  1F2   [8]  10 64 00 80 00 1E 03 8F
  can0  54C   [8]  7E 65 00 00 00 00 64 00
  can0  1D4   [8]  88 88 00 00 C7 46 01 C4
  can0  54F   [8]  6B 00 00 00 04 80 8D 45
  can0  108   [3]  00 05 1E
  can0  11A   [8]  01 40 04 55 00 00 01 C3
  can0  284   [8]  00 00 00 00 00 00 A1 27
  can0  1DB   [8]  FF E0 B7 6A 00 FF F0 25
  can0  1DC   [8]  B4 0E AF FD 0C D4 C8 F8
  can0  1ED   [3]  FF E0 68
  can0  1DA   [8]  B7 32 18 00 00 01 09 12
  can0  120   [4]  00 00 0D AD
  can0  5C5   [8]  40 00 55 6A 00 00 00 00
  can0  1C2   [1]  54
  can0  1CB   [7]  00 00 00 00 10 03 4C
  can0  1F2   [8]  10 64 00 80 00 1E 00 8C
  can0  1D4   [8]  88 88 00 00 07 46 01 08
  can0  108   [3]  00 06 14
  can0  11A   [8]  01 40 04 55 40 00 02 0E
  can0  390   [8]  04 00 00 02 00 00 00 13
  can0  1DB   [8]  FF E0 B7 6A 00 FF F1 A0
  can0  1DC   [8]  B4 0E AF FD 01 29 09 A9
  can0  1ED   [3]  FF E1 ED
  can0  1DA   [8]  B7 32 18 00 00 01 0A 18
  can0  120   [4]  00 00 0E A7
  can0  625   [6]  02 00 FF 1D 20 00
  can0  393   [8]  00 20 00 00 00 00 00 12
  can0  1C2   [1]  55
  can0  1CB   [7]  00 00 00 00 10 00 46
  can0  1F2   [8]  10 64 00 80 00 1E 01 8D
  can0  1D4   [8]  88 88 00 00 47 46 01 CF
  can0  108   [3]  00 07 91
  can0  11A   [8]  01 40 04 AA 80 00 03 18
  can0  284   [8]  00 00 00 00 00 00 A2 28
  can0  355   [8]  00 00 00 00 30 00 60 00
  can0  1DB   [8]  FF E0 B7 6A 00 FF F2 AA
  can0  1DC   [8]  B4 0E AF FD 05 54 CA 7A
  can0  1ED   [3]  FF E2 E7
  can0  1DA   [8]  B7 72 18 00 00 01 0B 3F
  can0  120   [4]  00 00 0F 22
  can0  1C2   [1]  56
  can0  1CB   [7]  00 00 00 00 10 01 C3
  can0  1F2   [8]  10 64 00 80 00 1E 02 8E
  can0  1D4   [8]  88 88 00 00 87 46 01 03
  can0  11A   [8]  01 40 04 AA C0 00 00 D5
  can0  108   [3]  00 08 B3
  can0  1DB   [8]  FF E0 B7 6A 00 FF F3 2F
  can0  1DC   [8]  B4 0E AF FD 08 C0 C3 32
  can0  1ED   [3]  FF E3 62
  can0  1DA   [8]  B7 72 18 00 00 01 08 35
  can0  120   [4]  00 00 00 00
  can0  1C2   [1]  57
  can0  1CB   [7]  00 00 00 00 10 02 C9
  can0  1F2   [8]  10 64 00 80 00 1E 03 8F
  can0  1D4   [8]  88 88 00 00 C7 46 01 C4
  can0  108   [3]  00 09 36
  can0  11A   [8]  01 40 04 55 00 00 01 C3
  can0  284   [8]  00 00 00 00 00 00 A3 29
  can0  1DB   [8]  FF E0 B7 6A 00 FF F0 25
  can0  1DC   [8]  B4 0E AF FD 0C D4 C8 F8
  can0  1ED   [3]  FF E0 68
  can0  1DA   [8]  B7 32 18 00 00 01 09 12
  can0  120   [4]  00 00 01 85
  can0  1C2   [1]  58
  can0  1CB   [7]  00 00 00 00 10 03 4C
  can0  1F2   [8]  10 64 00 80 00 1E 00 8C
  can0  1D4   [8]  88 88 00 00 07 46 01 08
  can0  108   [3]  00 0A 3C
  can0  11A   [8]  01 40 04 55 40 00 02 0E
  can0  1DB   [8]  FF E0 B7 6A 00 FF F1 A0
  can0  1DC   [8]  B4 0E AF FD 01 29 09 A9
  can0  1ED   [3]  FF E1 ED
  can0  55B   [8]  A5 C0 00 00 E3 00 10 14
  can0  5BC   [8]  74 40 F0 50 C1 01 40 00
  can0  1DA   [8]  B7 32 18 00 00 01 0A 18
  can0  120   [4]  00 00 02 8F
  can0  1C2   [1]  59
  can0  1CB   [7]  00 00 00 00 10 00 46
  can0  1F2   [8]  10 64 00 80 00 1E 01 8D
  can0  1D4   [8]  88 88 00 00 47 46 01 CF
  can0  11A   [8]  01 40 04 AA 80 00 03 18
  can0  108   [3]  00 0B B9
  can0  284   [8]  00 00 00 00 00 00 A4 2A
  can0  355   [8]  00 00 00 00 30 00 60 00
  can0  1DB   [8]  FF E0 B7 6A 00 FF F2 AA
  can0  1DC   [8]  B4 0E AF FD 05 54 CA 7A
  can0  1ED   [3]  FF E2 E7
  can0  59E   [8]  00 00 24 8B A0 00 00 7E
  can0  5C0   [8]  03 64 A6 00 01 00 1F 00
  can0  5EB   [8]  E0 0F FF FF FF FF FF FF
  can0  1DA   [8]  B7 72 18 00 00 01 0B 3F
  can0  120   [4]  00 00 03 0A
  can0  55A   [8]  00 37 39 37 55 00 5B 08
  can0  1C2   [1]  5A
  can0  1CB   [7]  00 00 00 00 10 01 C3
  can0  4B9   [1]  4E
  can0  1F2   [8]  10 64 00 80 00 1E 02 8E
  can0  1D4   [8]  88 88 00 00 87 46 01 03
  can0  3B8   [5]  7F E8 02 07 FF
  can0  50A   [8]  85 D3 A0 11 80 21 04 12
  can0  11A   [8]  01 40 04 AA C0 00 00 D5
  can0  108   [3]  00 0C 28
  can0  50B   [7]  00 00 06 C0 00 00 00
  can0  1DB   [8]  FF E0 B7 6A 00 FF F3 2F
  can0  1DC   [8]  B4 0E AF FD 08 C0 C3 32
  can0  1ED   [3]  FF E3 62
  can0  1DA   [8]  B7 72 18 00 00 01 08 35
  can0  120   [4]  00 00 04 9B
  can0  1C2   [1]  5B
  can0  1CB   [7]  00 00 00 00 10 02 C9
  can0  1F2   [8]  10 64 00 80 00 1E 03 8F
  can0  1D4   [8]  88 88 00 00 C7 46 01 C4
  can0  11A   [8]  01 40 04 55 00 00 01 C3
  can0  108   [3]  00 0D AD
  can0  284   [8]  00 00 00 00 00 00 A5 2B
  can0  1DB   [8]  FF E0 B7 6A 00 FF F0 25
  can0  1DC   [8]  B4 0E AF FD 0C D4 C8 F8
  can0  1ED   [3]  FF E0 68
  can0  1DA   [8]  B7 32 18 00 00 01 09 12
  can0  120   [4]  00 00 05 1E
  can0  1C2   [1]  5C
  can0  1CB   [7]  00 00 00 00 10 03 4C
  can0  5EC   [1]  00
  can0  1D4   [8]  88 88 00 00 07 46 01 08
  can0  1F2   [8]  10 64 00 80 00 1E 00 8C
  can0  108   [3]  00 0E A7
  can0  11A   [8]  01 40 04 55 40 00 02 0E
  can0  56E   [4]  46 00 00 00
  can0  1DB   [8]  FF E0 B7 6A 00 FF F1 A0
  can0  1DC   [8]  B4 0E AF FD 01 29 09 A9
  can0  1ED   [3]  FF E1 ED
  can0  1DA   [8]  B7 32 18 00 00 01 0A 18
  can0  120   [4]  00 00 06 14
  can0  1C2   [1]  5D
  can0  1CB   [7]  00 00 00 00 10 00 46
  can0  54A   [8]  DA 80 70 0E 00 00 00 59
  can0  54B   [8]  11 08 80 0A 04 00 00 00
  can0  1F2   [8]  10 64 00 80 00 1E 01 8D
  can0  54C   [8]  7E 65 00 00 00 00 64 00
  can0  1D4   [8]  88 88 00 00 47 46 01 CF
  can0  54F   [8]  6B 00 00 00 04 C0 8D 45
  can0  11A   [8]  01 40 04 AA 80 00 03 18
  can0  108   [3]  00 0F 22
  can0  284   [8]  00 00 00 00 00 00 A6 2C
  can0  355   [8]  00 00 00 00 30 00 60 00
  can0  1DB   [8]  FF E0 B7 6A 00 FF F2 AA
  can0  1DC   [8]  B4 0E AF FD 05 54 CA 7A
  can0  1ED   [3]  FF E2 E7
  can0  1DA   [8]  B7 72 18 00 00 01 0B 3F
  can0  120   [4]  00 00 07 91
  can0  5C5   [8]  40 00 55 6A 00 00 00 00
  can0  1C2   [1]  5E
  can0  1CB   [7]  00 00 00 00 10 01 C3
  can0  1F2   [8]  10 64 00 80 00 1E 02 8E
  can0  1D4   [8]  88 88 00 00 87 46 01 03
  can0  11A   [8]  01 40 04 AA C0 00 00 D5
  can0  108   [3]  00 00 00
  can0  390   [8]  04 00 00 02 00 00 00 24
  can0  1DB   [8]  FF E0 B7 6A 00 FF F3 2F
  can0  1DC   [8]  B4 0E AF FD 08 C0 C3 32
  can0  1ED   [3]  FF E3 62
  can0  1DA   [8]  B7 72 18 00 00 01 08 35
  can0  120   [4]  00 00 08 B3
  can0  625   [6]  02 00 FF 1D 20 00
  can0  393   [8]  00 20 00 00 00 00 00 23
  can0  1C2   [1]  5F
  can0  1CB   [7]  00 00 00 00 10 02 C9
  can0  1F2   [8]  10 64 00 80 00 1E 03 8F
  can0  1D4   [8]  88 88 00 00 C7 46 01 C4
  can0  108   [3]  00 01 85
  can0  11A   [8]  01 40 04 55 00 00 01 C3
  can0  284   [8]  00 00 00 00 00 00 A7 2D
  can0  1DB   [8]  FF E0 B7 6A 00 FF F0 25
  can0  1DC   [8]  B4 0E AF FD 0C D4 C8 F8
  can0  1ED   [3]  FF E0 68
  can0  1DA   [8]  B7 32 18 00 00 01 09 12
  can0  120   [4]  00 00 09 36
  can0  1C2   [1]  50
  can0  1CB   [7]  00 00 00 00 10 03 4C
  can0  1F2   [8]  10 64 00 80 00 1E 00 8C
  can0  1D4   [8]  88 88 00 00 07 46 01 08
  can0  11A   [8]  01 40 04 55 40 00 02 0E
  can0  108   [3]  00 02 8F
  can0  1DB   [8]  FF E0 B7 6A 00 FF F1 A0
  can0  1DC   [8]  B4 0E AF FD 01 29 09 A9
  can0  1ED   [3]  FF E1 ED
  can0  1DA   [8]  B7 32 18 00 00 01 0A 18
  can0  120   [4]  00 00 0A 3C
  can0  1C2   [1]  51
  can0  1CB   [7]  00 00 00 00 10 00 46
  can0  1F2   [8]  10 64 00 80 00 1E 01 8D
  can0  1D4   [8]  88 88 00 00 47 46 01 CF
  can0  11A   [8]  01 40 04 AA 80 00 03 18
  can0  108   [3]  00 03 0A
  can0  355   [8]  00 00 00 00 30 00 60 00
  can0  284   [8]  00 00 00 00 00 00 A8 2E
  can0  1DB   [8]  FF E0 B7 6A 00 FF F2 AA
  can0  1DC   [8]  B4 0E AF FD 05 54 CA 7A
  can0  1ED   [3]  FF E2 E7
  can0  1DA   [8]  B7 72 18 00 00 01 0B 3F
  can0  120   [4]  00 00 0B B9
  can0  1C2   [1]  52
  can0  1CB   [7]  00 00 00 00 10 01 C3
  can0  1F2   [8]  10 64 00 80 00 1E 02 8E
  can0  1D4   [8]  88 88 00 00 87 46 01 03
  can0  11A   [8]  01 40 04 AA C0 00 00 D5
  can0  108   [3]  00 04 9B
  can0  1DB   [8]  FF E0 B7 6A 00 FF F3 2F
  can0  1DC   [8]  B4 0E AF FD 08 C0 C3 32
  can0  1ED   [3]  FF E3 62
  can0  55B   [8]  A5 C0 00 00 E3 00 11 91
  can0  5BC   [8]  BB 80 99 50 C0 11 60 51
  can0  1DA   [8]  B7 72 18 00 00 01 08 35
  can0  120   [4]  00 00 0C 28
  can0  1C2   [1]  53
  can0  1CB   [7]  00 00 00 00 10 02 C9
  can0  1F2   [8]  10 64 00 80 00 1E 03 8F
  can0  1D4   [8]  88 88 00 00 C7 46 01 C4
  can0  11A   [8]  01 40 04 55 00 00 01 C3
  can0  108   [3]  00 05 1E
  can0  284   [8]  00 00 00 00 00 00 A9 2F
  can0  1DB   [8]  FF E0 B7 6A 00 FF F0 25
  can0  1DC   [8]  B4 0E AF FD 0C D4 C8 F8
  can0  1ED   [3]  FF E0 68
  can0  1DA   [8]  B7 32 18 00 00 01 09 12
  can0  120   [4]  00 00 0D AD
  can0  55A   [8]  00 37 39 37 55 00 5B 08
  can0  1C2   [1]  54
  can0  1CB   [7]  00 00 00 00 10 03 4C
  can0  4B9   [1]  4F
  can0  1F2   [8]  10 64 00 80 00 1E 00 8C
  can0  1D4   [8]  88 88 00 00 07 46 01 08
  can0  3B8   [5]  7F C8 02 07 FF
  can0  50A   [8]  85 F3 A0 11 80 21 04 12
  can0  11A   [8]  01 40 04 55 40 00 02 0E
  can0  108   [3]  00 06 14
  can0  50B   [7]  00 00 06 C0 00 00 00
  can0  1DB   [8]  FF E0 B7 6A 00 FF F1 A0
  can0  1DC   [8]  B4 0E AF FD 01 29 09 A9
  can0  1ED   [3]  FF E1 ED
  can0  1DA   [8]  B7 32 18 00 00 01 0A 18
  can0  120   [4]  00 00 0E A7
  can0  1C2   [1]  55
  can0  1CB   [7]  00 00 00 00 10 00 46
  can0  1F2   [8]  10 64 00 80 00 1E 01 8D
  can0  1D4   [8]  88 88 00 00 47 46 01 CF
  can0  11A   [8]  01 40 04 AA 80 00 03 18
  can0  108   [3]  00 07 91
  can0  284   [8]  00 00 00 00 00 00 AA 30
  can0  355   [8]  00 00 00 00 30 00 60 00
  can0  1DB   [8]  FF E0 B7 6A 00 FF F2 AA
  can0  1DC   [8]  B4 0E AF FD 05 54 CA 7A
  can0  1ED   [3]  FF E2 E7
  can0  1DA   [8]  B7 72 18 00 00 01 0B 3F
  can0  120   [4]  00 00 0F 22
  can0  1C2   [1]  56
  can0  1CB   [7]  00 00 00 00 10 01 C3
  can0  1F2   [8]  10 64 00 80 00 1E 02 8E
  can0  1D4   [8]  88 88 00 00 87 46 01 03
  can0  11A   [8]  01 40 04 AA C0 00 00 D5
  can0  108   [3]  00 08 B3
  can0  56E   [4]  46 00 00 00
  can0  1DB   [8]  FF E0 B7 6A 00 FF F3 2F
  can0  1DC   [8]  B4 0E AF FD 08 C0 C3 32
  can0  1ED   [3]  FF E3 62
  can0  1DA   [8]  B7 72 18 00 00 01 08 35
  can0  120   [4]  00 00 00 00
  can0  1C2   [1]  57
  can0  1CB   [7]  00 00 00 00 10 02 C9
  can0  54A   [8]  3C 80 70 0E 00 00 00 59
  can0  54B   [8]  11 08 80 0A 04 00 00 00
  can0  1D4   [8]  88 88 00 00 C7 46 01 C4
  can0  54C   [8]  7E 65 00 00 00 00 64 00
  can0  1F2   [8]  10 64 00 80 00 1E 03 8F
  can0  54F   [8]  6C 00 00 00 04 00 8D 45
  can0  11A   [8]  01 40 04 55 00 00 01 C3
  can0  108   [3]  00 09 36
  can0  284   [8]  00 00 00 00 00 00 AB 31
  can0  1DB   [8]  FF E0 B7 6A 00 FF F0 25
  can0  1DC   [8]  B4 0E AF FD 0C D4 C8 F8
  can0  1ED   [3]  FF E0 68
  can0  1DA   [8]  B7 32 18 00 00 01 09 12
  can0  120   [4]  00 00 01 85
  can0  5C5   [8]  40 00 55 6A 00 00 00 00
  can0  1C2   [1]  58
  can0  1CB   [7]  00 00 00 00 10 03 4C
  can0  1F2   [8]  10 64 00 80 00 1E 00 8C
  can0  1D4   [8]  88 88 00 00 07 46 01 08
  can0  11A   [8]  01 40 04 55 40 00 02 0E
  can0  108   [3]  00 0A 3C
  can0  390   [8]  04 00 00 02 00 00 00 35
  can0  1DB   [8]  FF E0 B7 6A 00 FF F1 A0
  can0  1DC   [8]  B4 0E AF FD 01 29 09 A9
  can0  1ED   [3]  FF E1 ED
  can0  1DA   [8]  B7 32 18 00 00 01 0A 18
  can0  120   [4]  00 00 02 8F
  can0  625   [6]  02 00 FF 1D 20 00
  can0  393   [8]  00 20 00 00 00 00 00 34
  can0  1C2   [1]  59
  can0  1CB   [7]  00 00 00 00 10 00 46
  can0  1F2   [8]  10 64 00 80 00 1E 01 8D
  can0  1D4   [8]  88 88 00 00 47 46 01 CF
  can0  11A   [8]  01 40 04 AA 80 00 03 18
  can0  108   [3]  00 0B B9
  can0  284   [8]  00 00 00 00 00 00 AC 32
  can0  355   [8]  00 00 00 00 30 00 60 00
  can0  1DB   [8]  FF E0 B7 6A 00 FF F2 AA
  can0  1DC   [8]  B4 0E AF FD 05 54 CA 7A
  can0  1ED   [3]  FF E2 E7
  can0  1DA   [8]  B7 72 18 00 00 01 0B 3F
  can0  120   [4]  00 00 03 0A
  can0  1C2   [1]  5A
  can0  1CB   [7]  00 00 00 00 10 01 C3
  can0  1F2   [8]  10 64 00 80 00 1E 02 8E
  can0  1D4   [8]  88 88 00 00 87 46 01 03
  can0  11A   [8]  01 40 04 AA C0 00 00 D5
  can0  108   [3]  00 0C 28
  can0  1DB   [8]  FF E0 B7 6A 00 FF F3 2F
  can0  1DC   [8]  B4 0E AF FD 08 C0 C3 32
  can0  1ED   [3]  FF E3 62
  can0  1DA   [8]  B7 72 18 00 00 01 08 35
  can0  120   [4]  00 00 04 9B
  can0  1C2   [1]  5B
  can0  1CB   [7]  00 00 00 00 10 02 C9
  can0  1F2   [8]  10 64 00 80 00 1E 03 8F
  can0  1D4   [8]  88 88 00 00 C7 46 01 C4
  can0  11A   [8]  01 40 04 55 00 00 01 C3
  can0  108   [3]  00 0D AD
  can0  284   [8]  00 00 00 00 00 00 AD 33
  can0  1DB   [8]  FF E0 B7 6A 00 FF F0 25
  can0  1DC   [8]  B4 0E AF FD 0C D4 C8 F8
  can0  1ED   [3]  FF E0 68
  can0  1DA   [8]  B7 32 18 00 00 01 09 12
  can0  120   [4]  00 00 05 1E
  can0  1C2   [1]  5C
  can0  1CB   [7]  00 00 00 00 10 03 4C
  can0  1F2   [8]  10 64 00 80 00 1E 00 8C
  can0  1D4   [8]  88 88 00 00 07 46 01 08
  can0  11A   [8]  01 40 04 55 40 00 02 0E
  can0  108   [3]  00 0E A7
  can0  1DB   [8]  FF E0 B7 6A 00 FF F1 A0
  can0  1DC   [8]  B4 0E AF FD 01 29 09 A9
  can0  1ED   [3]  FF E1 ED
  can0  55B   [8]  A5 C0 00 00 E3 00 12 9B
  can0  5BC   [8]  74 40 99 50 C0 01 81 CB
  can0  1DA   [8]  B7 32 18 00 00 01 0A 18
  can0  120   [4]  00 00 06 14
  can0  1C2   [1]  5D
  can0  1CB   [7]  00 00 00 00 10 00 46
  can0  1F2   [8]  10 64 00 80 00 1E 01 8D
  can0  1D4   [8]  88 88 00 00 47 46 01 CF
  can0  11A   [8]  01 40 04 AA 80 00 03 18
  can0  108   [3]  00 0F 22
  can0  284   [8]  00 00 00 00 00 00 AE 34
  can0  1DB   [8]  FF E0 B7 6A 00 FF F2 AA
  can0  1DC   [8]  B4 0E AF FD 05 54 CA 7A
  can0  1ED   [3]  FF E2 E7
  can0  355   [8]  00 00 00 00 30 00 60 00
  can0  1DA   [8]  B7 72 18 00 00 01 0B 3F
  can0  120   [4]  00 00 07 91
  can0  55A   [8]  00 37 39 37 55 00 5B 08
  can0  1CB   [7]  00 00 00 00 10 01 C3
  can0  1C2   [1]  5E
  can0  4B9   [1]  40
  can0  1F2   [8]  10 64 00 80 00 1E 02 8E
  can0  1D4   [8]  88 88 00 00 87 46 01 03
  can0  3B8   [5]  7F E8 03 07 FF
  can0  11A   [8]  01 40 04 AA C0 00 00 D5
  can0  50A   [8]  85 93 A0 11 80 21 04 12
  can0  50B   [7]  00 00 06 C0 00 00 00
  can0  108   [3]  00 00 00
  can0  1DB   [8]  FF E0 B7 6A 00 FF F3 2F
  can0  1DC   [8]  B4 0E AF FD 08 C0 C3 32
  can0  1ED   [3]  FF E3 62
  can0  1DA   [8]  B7 72 18 00 00 01 08 35
  can0  120   [4]  00 00 08 B3
  can0  1CB   [7]  00 00 00 00 10 02 C9
  can0  1C2   [1]  5F
  can0  1F2   [8]  10 64 00 80 00 1E 03 8F
  can0  1D4   [8]  88 88 00 00 C7 46 01 C4
  can0  11A   [8]  01 40 04 55 00 00 01 C3
  can0  108   [3]  00 01 85
  can0  284   [8]  00 00 00 00 00 00 AF 35
  can0  1DB   [8]  FF E0 B7 6A 00 FF F0 25
  can0  1DC   [8]  B4 0E AF FD 0C D4 C8 F8
  can0  1ED   [3]  FF E0 68
  can0  1DA   [8]  B7 32 18 00 00 01 09 12
  can0  120   [4]  00 00 09 36
  can0  1CB   [7]  00 00 00 00 10 03 4C
  can0  1C2   [1]  50
  can0  1F2   [8]  10 64 00 80 00 1E 00 8C
  can0  1D4   [8]  88 88 00 00 07 46 01 08
  can0  11A   [8]  01 40 04 55 40 00 02 0E
  can0  108   [3]  00 02 8F
  can0  56E   [4]  46 00 00 00
  can0  1DB   [8]  FF E0 B7 6A 00 FF F1 A0
  can0  1DC   [8]  B4 0E AF FD 01 29 09 A9
  can0  1ED   [3]  FF E1 ED
  can0  1DA   [8]  B7 32 18 00 00 01 0A 18
  can0  120   [4]  00 00 0A 3C
  can0  1CB   [7]  00 00 00 00 10 00 46
  can0  1C2   [1]  51
  can0  54A   [8]  DA 80 70 0E 00 00 00 59
  can0  481   [2]  00 00
  can0  54B   [8]  11 08 80 0A 04 00 00 00
  can0  1D4   [8]  88 88 00 00 47 46 01 CF
  can0  54C   [8]  7E 65 00 00 00 00 64 00
  can0  1F2   [8]  10 64 00 80 00 1E 01 8D
  can0  11A   [8]  01 40 04 AA 80 00 03 18
  can0  54F   [8]  6C 00 00 00 04 40 8D 45
  can0  108   [3]  00 03 0A
  can0  284   [8]  00 00 00 00 00 00 B0 36
  can0  355   [8]  00 00 00 00 30 00 60 00
  can0  1DB   [8]  FF E0 B7 6A 00 FF F2 AA
  can0  1DC   [8]  B4 0E AF FD 05 54 CA 7A
  can0  1ED   [3]  FF E2 E7
  can0  1DA   [8]  B7 72 18 00 00 01 0B 3F
  can0  120   [4]  00 00 0B B9
  can0  5C5   [8]  40 00 55 6A 00 00 00 00
  can0  1CB   [7]  00 00 00 00 10 01 C3
  can0  1C2   [1]  52
  can0  1F2   [8]  10 64 00 80 00 1E 02 8E
  can0  1D4   [8]  88 88 00 00 87 46 01 03
  can0  11A   [8]  01 40 04 AA C0 00 00 D5
  can0  108   [3]  00 04 9B
  can0  390   [8]  04 00 00 02 00 00 00 02
  can0  1DB   [8]  FF E0 B7 6A 00 FF F3 2F
  can0  1DC   [8]  B4 0E AF FD 08 C0 C3 32
  can0  1ED   [3]  FF E3 62
  can0  1DA   [8]  B7 72 18 00 00 01 08 35
  can0  120   [4]  00 00 0C 28
  can0  625   [6]  02 00 FF 1D 20 00
  can0  393   [8]  00 20 00 00 00 00 00 01
  can0  1CB   [7]  00 00 00 00 10 02 C9
  can0  1C2   [1]  53
  can0  1F2   [8]  10 64 00 80 00 1E 03 8F
  can0  1D4   [8]  88 88 00 00 C7 46 01 C4
  can0  11A   [8]  01 40 04 55 00 00 01 C3
  can0  108   [3]  00 05 1E
  can0  284   [8]  00 00 00 00 00 00 B1 37
  can0  1DB   [8]  FF E0 B7 6A 00 FF F0 25
  can0  1DC   [8]  B4 0E AF FD 0C D4 C8 F8
  can0  1ED   [3]  FF E0 68
  can0  1DA   [8]  B7 32 18 00 00 01 09 12
  can0  120   [4]  00 00 0D AD
  can0  1CB   [7]  00 00 00 00 10 03 4C
  can0  1C2   [1]  54
  can0  1F2   [8]  10 64 00 80 00 1E 00 8C
  can0  1D4   [8]  88 88 00 00 07 46 01 08
  can0  11A   [8]  01 40 04 55 40 00 02 0E
  can0  108   [3]  00 06 14
  can0  1DB   [8]  FF E0 B7 6A 00 FF F1 A0
  can0  1DC   [8]  B4 0E AF FD 01 29 09 A9
  can0  1ED   [3]  FF E1 ED
  can0  1DA   [8]  B7 32 18 00 00 01 0A 18
  can0  120   [4]  00 00 0E A7
  can0  1CB   [7]  00 00 00 00 10 00 46
  can0  1C2   [1]  55
  can0  1F2   [8]  10 64 00 80 00 1E 01 8D
  can0  1D4   [8]  88 88 00 00 47 46 01 CF
  can0  11A   [8]  01 40 04 AA 80 00 03 18
  can0  108   [3]  00 07 91
  can0  284   [8]  00 00 00 00 00 00 B2 38
  can0  1DB   [8]  FF E0 B7 6A 00 FF F2 AA
  can0  1DC   [8]  B4 0E AF FD 05 54 CA 7A
  can0  1ED   [3]  FF E2 E7
  can0  355   [8]  00 00 00 00 30 00 60 00
  can0  1DA   [8]  B7 72 18 00 00 01 0B 3F
  can0  120   [4]  00 00 0F 22
  can0  1CB   [7]  00 00 00 00 10 01 C3
  can0  1C2   [1]  56
  can0  1F2   [8]  10 64 00 80 00 1E 02 8E
  can0  1D4   [8]  88 88 00 00 87 46 01 03
  can0  11A   [8]  01 40 04 AA C0 00 00 D5
  can0  108   [3]  00 08 B3
  can0  1DB   [8]  FF E0 B7 6A 00 FF F3 2F
  can0  1DC   [8]  B4 0E AF FD 08 C0 C3 32
  can0  1ED   [3]  FF E3 62
  can0  55B   [8]  A5 C0 00 00 E3 00 13 1E
  can0  5BC   [8]  BB 80 99 50 C0 11 A0 00
  can0  1DA   [8]  B7 72 18 00 00 01 08 35
  can0  120   [4]  00 00 00 00
  can0  1CB   [7]  00 00 00 00 10 02 C9
  can0  1C2   [1]  57
  can0  1F2   [8]  10 64 00 80 00 1E 03 8F
  can0  1D4   [8]  88 88 00 00 C7 46 01 C4
  can0  11A   [8]  01 40 04 55 00 00 01 C3
  can0  108   [3]  00 09 36
  can0  284   [8]  00 00 00 00 00 00 B3 39
  can0  1DB   [8]  FF E0 B7 6A 00 FF F0 25
  can0  1DC   [8]  B4 0E AF FD 0C D4 C8 F8
  can0  1ED   [3]  FF E0 68
  can0  1DA   [8]  B7 32 18 00 00 01 09 12
  can0  120   [4]  00 00 01 85
  can0  55A   [8]  00 37 39 37 55 00 5B 08
  can0  1CB   [7]  00 00 00 00 10 03 4C
  can0  4B9   [1]  41
  can0  1C2   [1]  58
  can0  1F2   [8]  10 64 00 80 00 1E 00 8C
  can0  1D4   [8]  88 88 00 00 07 46 01 08
  can0  3B8   [5]  7F C8 03 07 FF
  can0  50A   [8]  85 B3 A0 11 80 21 04 12
  can0  11A   [8]  01 40 04 55 40 00 02 0E
  can0  50B   [7]  00 00 06 C0 00 00 00
  can0  108   [3]  00 0A 3C
  can0  1DB   [8]  FF E0 B7 6A 00 FF F1 A0
  can0  1DC   [8]  B4 0E AF FD 01 29 09 A9
  can0  1ED   [3]  FF E1 ED
  can0  1DA   [8]  B7 32 18 00 00 01 0A 18
  can0  120   [4]  00 00 02 8F
  can0  1CB   [7]  00 00 00 00 10 00 46
  can0  1C2   [1]  59
  can0  1F2   [8]  10 64 00 80 00 1E 01 8D
  can0  1D4   [8]  88 88 00 00 47 46 01 CF
  can0  11A   [8]  01 40 04 AA 80 00 03 18
  can0  108   [3]  00 0B B9
  can0  284   [8]  00 00 00 00 00 00 B4 3A
  can0  1DB   [8]  FF E0 B7 6A 00 FF F2 AA
  can0  1DC   [8]  B4 0E AF FD 05 54 CA 7A
  can0  1ED   [3]  FF E2 E7
  can0  355   [8]  00 00 00 00 30 00 60 00
  can0  1DA   [8]  B7 72 18 00 00 01 0B 3F
  can0  120   [4]  00 00 03 0A
  can0  1CB   [7]  00 00 00 00 10 01 C3
  can0  1C2   [1]  5A
  can0  1F2   [8]  10 64 00 80 00 1E 02 8E
  can0  1D4   [8]  88 88 00 00 87 46 01 03
  can0  11A   [8]  01 40 04 AA C0 00 00 D5
  can0  108   [3]  00 0C 28
  can0  56E   [4]  46 00 00 00
  can0  1DB   [8]  FF E0 B7 6A 00 FF F3 2F
  can0  1DC   [8]  B4 0E AF FD 08 C0 C3 32
  can0  1ED   [3]  FF E3 62
  can0  1DA   [8]  B7 72 18 00 00 01 08 35
  can0  120   [4]  00 00 04 9B
  can0  1CB   [7]  00 00 00 00 10 02 C9
  can0  1C2   [1]  5B
  can0  54A   [8]  3C 80 70 0E 00 00 00 59
  can0  54B   [8]  11 08 80 0A 04 00 00 00
  can0  1D4   [8]  88 88 00 00 C7 46 01 C4
  can0  54C   [8]  7E 65 00 00 00 00 64 00
  can0  1F2   [8]  10 64 00 80 00 1E 03 8F
  can0  54F   [8]  6C 00 00 00 04 80 8D 45
  can0  11A   [8]  01 40 04 55 00 00 01 C3
  can0  108   [3]  00 0D AD
  can0  284   [8]  00 00 00 00 00 00 B5 3B
  can0  1DB   [8]  FF E0 B7 6A 00 FF F0 25
  can0  1DC   [8]  B4 0E AF FD 0C D4 C8 F8
  can0  1ED   [3]  FF E0 68
  can0  5C5   [8]  40 00 55 6A 00 00 00 00
  can0  1DA   [8]  B7 32 18 00 00 01 09 12
  can0  120   [4]  00 00 05 1E
  can0  1CB   [7]  00 00 00 00 10 03 4C
  can0  1C2   [1]  5C
  can0  1F2   [8]  10 64 00 80 00 1E 00 8C
  can0  1D4   [8]  88 88 00 00 07 46 01 08
  can0  11A   [8]  01 40 04 55 40 00 02 0E
  can0  108   [3]  00 0E A7
  can0  390   [8]  04 00 00 02 00 00 00 13
  can0  1DB   [8]  FF E0 B7 6A 00 FF F1 A0
  can0  1DC   [8]  B4 0E AF FD 01 29 09 A9
  can0  1ED   [3]  FF E1 ED
  can0  1DA   [8]  B7 32 18 00 00 01 0A 18
  can0  120   [4]  00 00 06 14
  can0  625   [6]  02 00 FF 1D 20 00
  can0  393   [8]  00 20 00 00 00 00 00 12
  can0  1CB   [7]  00 00 00 00 10 00 46
  can0  1C2   [1]  5D
  can0  1F2   [8]  10 64 00 80 00 1E 01 8D
  can0  1D4   [8]  88 88 00 00 47 46 01 CF
  can0  11A   [8]  01 40 04 AA 80 00 03 18
  can0  108   [3]  00 0F 22
  can0  284   [8]  00 00 00 00 00 00 B6 3C
  can0  1DB   [8]  FF E0 B7 6A 00 FF F2 AA
  can0  1DC   [8]  B4 0E AF FD 05 54 CA 7A
  can0  1ED   [3]  FF E2 E7
  can0  355   [8]  00 00 00 00 30 00 60 00
  can0  1DA   [8]  B7 72 18 00 00 01 0B 3F
  can0  120   [4]  00 00 07 91
  can0  1CB   [7]  00 00 00 00 10 01 C3
  can0  1C2   [1]  5E
  can0  1F2   [8]  10 64 00 80 00 1E 02 8E
  can0  1D4   [8]  88 88 00 00 87 46 01 03
  can0  11A   [8]  01 40 04 AA C0 00 00 D5
  can0  108   [3]  00 00 00
  can0  1DB   [8]  FF E0 B7 6A 00 FF F3 2F
  can0  1DC   [8]  B4 0E AF FD 08 C0 C3 32
  can0  1ED   [3]  FF E3 62
  can0  1DA   [8]  B7 72 18 00 00 01 08 35
  can0  120   [4]  00 00 08 B3
  can0  1CB   [7]  00 00 00 00 10 02 C9
  can0  1C2   [1]  5F
  can0  1F2   [8]  10 64 00 80 00 1E 03 8F
  can0  1D4   [8]  88 88 00 00 C7 46 01 C4
  can0  11A   [8]  01 40 04 55 00 00 01 C3
  can0  108   [3]  00 01 85
  can0  284   [8]  00 00 00 00 00 00 B7 3D
  can0  1DB   [8]  FF E0 B7 6A 00 FF F0 25
  can0  1DC   [8]  B4 0E AF FD 0C D4 C8 F8
  can0  1ED   [3]  FF E0 68
  can0  1DA   [8]  B7 32 18 00 00 01 09 12
  can0  120   [4]  00 00 09 36
  can0  1CB   [7]  00 00 00 00 10 03 4C
  can0  1C2   [1]  50
  can0  1F2   [8]  10 64 00 80 00 1E 00 8C
  can0  1D4   [8]  88 88 00 00 07 46 01 08
  can0  11A   [8]  01 40 04 55 40 00 02 0E
  can0  108   [3]  00 02 8F
  can0  1DB   [8]  FF E0 B7 6A 00 FF F1 A0
  can0  1DC   [8]  B4 0E AF FD 01 29 09 A9
  can0  1ED   [3]  FF E1 ED
  can0  55B   [8]  A5 C0 00 00 E3 00 10 14
  can0  5BC   [8]  74 40 99 50 C0 01 C0 00
  can0  1DA   [8]  B7 32 18 00 00 01 0A 18
  can0  120   [4]  00 00 0A 3C
  can0  1CB   [7]  00 00 00 00 10 00 46
  can0  1C2   [1]  51
  can0  1F2   [8]  10 64 00 80 00 1E 01 8D
  can0  1D4   [8]  88 88 00 00 47 46 01 CF
  can0  11A   [8]  01 40 04 AA 80 00 03 18
  can0  108   [3]  00 03 0A
  can0  284   [8]  00 00 00 00 00 00 B8 3E
  can0  355   [8]  00 00 00 00 30 00 60 00
  can0  1DB   [8]  FF E0 B7 6A 00 FF F2 AA
  can0  1DC   [8]  B4 0E AF FD 05 54 CA 7A
  can0  1ED   [3]  FF E2 E7
  can0  1DA   [8]  B7 72 18 00 00 01 0B 3F
  can0  120   [4]  00 00 0B B9
  can0  55A   [8]  00 37 39 37 55 00 5B 08
  can0  1CB   [7]  00 00 00 00 10 01 C3
  can0  4B9   [1]  42
  can0  1C2   [1]  52
  can0  1F2   [8]  10 64 00 80 00 1E 02 8E
  can0  1D4   [8]  88 88 00 00 87 46 01 03
  can0  3B8   [5]  7F E8 03 07 FF
  can0  50A   [8]  85 D3 A0 11 80 21 04 12
  can0  11A   [8]  01 40 04 AA C0 00 00 D5
  can0  50B   [7]  00 00 06 C0 00 00 00
  can0  108   [3]  00 04 9B
  can0  1DB   [8]  FF E0 B7 6A 00 FF F3 2F
  can0  1DC   [8]  B4 0E AF FD 08 C0 C3 32
  can0  1ED   [3]  FF E3 62
  can0  1DA   [8]  B7 72 18 00 00 01 08 35
  can0  120   [4]  00 00 0C 28
  can0  1CB   [7]  00 00 00 00 10 02 C9
  can0  1C2   [1]  53
  can0  1F2   [8]  10 64 00 80 00 1E 03 8F
  can0  1D4   [8]  88 88 00 00 C7 46 01 C4
  can0  11A   [8]  01 40 04 55 00 00 01 C3
  can0  108   [3]  00 05 1E
  can0  284   [8]  00 00 00 00 00 00 B9 3F
  can0  1DB   [8]  FF E0 B7 6A 00 FF F0 25
  can0  1DC   [8]  B4 0E AF FD 0C D4 C8 F8
  can0  1ED   [3]  FF E0 68
  can0  1DA   [8]  B7 32 18 00 00 01 09 12
  can0  120   [4]  00 00 0D AD
  can0  1CB   [7]  00 00 00 00 10 03 4C
  can0  1C2   [1]  54
  can0  1F2   [8]  10 64 00 80 00 1E 00 8C
  can0  1D4   [8]  88 88 00 00 07 46 01 08
  can0  11A   [8]  01 40 04 55 40 00 02 0E
  can0  108   [3]  00 06 14
  can0  56E   [4]  46 00 00 00
  can0  1DB   [8]  FF E0 B7 6A 00 FF F1 A0
  can0  1DC   [8]  B4 0E AF FD 01 29 09 A9
  can0  1ED   [3]  FF E1 ED
  can0  1DA   [8]  B7 32 18 00 00 01 0A 18
  can0  120   [4]  00 00 0E A7
  can0  1CB   [7]  00 00 00 00 10 00 46
  can0  1C2   [1]  55
  can0  54A   [8]  DA 80 70 0E 00 00 00 59
  can0  54B   [8]  11 08 80 0A 04 00 00 00
  can0  1D4   [8]  88 88 00 00 47 46 01 CF
  can0  54C   [8]  7E 65 00 00 00 00 64 00
  can0  1F2   [8]  10 64 00 80 00 1E 01 8D
  can0  11A   [8]  01 40 04 AA 80 00 03 18
  can0  54F   [8]  6B 00 00 00 04 C0 8D 45
  can0  108   [3]  00 07 91
  can0  284   [8]  00 00 00 00 00 00 BA 40
  can0  355   [8]  00 00 00 00 30 00 60 00
  can0  1DB   [8]  FF E0 B7 6A 00 FF F2 AA
  can0  1DC   [8]  B4 0E AF FD 05 54 CA 7A
  can0  1ED   [3]  FF E2 E7
  can0  1DA   [8]  B7 72 18 00 00 01 0B 3F
  can0  120   [4]  00 00 0F 22
  can0  5C5   [8]  40 00 55 6A 00 00 00 00
  can0  1CB   [7]  00 00 00 00 10 01 C3
  can0  1C2   [1]  56
  can0  1F2   [8]  10 64 00 80 00 1E 02 8E
  can0  1D4   [8]  88 88 00 00 87 46 01 03
  can0  11A   [8]  01 40 04 AA C0 00 00 D5
  can0  108   [3]  00 08 B3
  can0  390   [8]  04 00 00 02 00 00 00 24
  can0  1DB   [8]  FF E0 B7 6A 00 FF F3 2F
  can0  1DC   [8]  B4 0E AF FD 08 C0 C3 32
  can0  1ED   [3]  FF E3 62
  can0  1DA   [8]  B7 72 18 00 00 01 08 35
  can0  120   [4]  00 00 00 00
  can0  625   [6]  02 00 FF 1D 20 00
  can0  393   [8]  00 20 00 00 00 00 00 23
  can0  1CB   [7]  00 00 00 00 10 02 C9
  can0  1C2   [1]  57
  can0  1F2   [8]  10 64 00 80 00 1E 03 8F
  can0  1D4   [8]  88 88 00 00 C7 46 01 C4
  can0  11A   [8]  01 40 04 55 00 00 01 C3
  can0  108   [3]  00 09 36
  can0  284   [8]  00 00 00 00 00 00 BB 41
  can0  1DB   [8]  FF E0 B7 6A 00 FF F0 25
  can0  1DC   [8]  B4 0E AF FD 0C D4 C8 F8
  can0  1ED   [3]  FF E0 68
  can0  1DA   [8]  B7 32 18 00 00 01 09 12
  can0  120   [4]  00 00 01 85
  can0  1CB   [7]  00 00 00 00 10 03 4C
  can0  1C2   [1]  58
  can0  1F2   [8]  10 64 00 80 00 1E 00 8C
  can0  1D4   [8]  88 88 00 00 07 46 01 08
  can0  11A   [8]  01 40 04 55 40 00 02 0E
  can0  108   [3]  00 0A 3C
  can0  1DB   [8]  FF E0 B7 6A 00 FF F1 A0
  can0  1DC   [8]  B4 0E AF FD 01 29 09 A9
  can0  1ED   [3]  FF E1 ED
  can0  1DA   [8]  B7 32 18 00 00 01 0A 18
  can0  120   [4]  00 00 02 8F
  can0  1CB   [7]  00 00 00 00 10 00 46
  can0  1C2   [1]  59
  can0  1F2   [8]  10 64 00 80 00 1E 01 8D
  can0  1D4   [8]  88 88 00 00 47 46 01 CF
  can0  11A   [8]  01 40 04 AA 80 00 03 18
  can0  108   [3]  00 0B B9
  can0  284   [8]  00 00 00 00 00 00 BC 42
  can0  355   [8]  00 00 00 00 30 00 60 00
  can0  1DB   [8]  FF E0 B7 6A 00 FF F2 AA
  can0  1DC   [8]  B4 0E AF FD 05 54 CA 7A
  can0  1ED   [3]  FF E2 E7
  can0  1DA   [8]  B7 72 18 00 00 01 0B 3F
  can0  120   [4]  00 00 03 0A
  can0  1CB   [7]  00 00 00 00 10 01 C3
  can0  1C2   [1]  5A
  can0  1F2   [8]  10 64 00 80 00 1E 02 8E
  can0  1D4   [8]  88 88 00 00 87 46 01 03
  can0  11A   [8]  01 40 04 AA C0 00 00 D5
  can0  108   [3]  00 0C 28
  can0  1DB   [8]  FF E0 B7 6A 00 FF F3 2F
  can0  1DC   [8]  B4 0E AF FD 08 C0 C3 32
  can0  1ED   [3]  FF E3 62
  can0  55B   [8]  A5 C0 00 00 E3 00 11 91
  can0  5BC   [8]  BB 80 99 50 C0 11 E1 06
  can0  120   [4]  00 00 04 9B
  can0  1DA   [8]  B7 72 18 00 00 01 08 35
  can0  1CB   [7]  00 00 00 00 10 02 C9
  can0  1C2   [1]  5B
  can0  1F2   [8]  10 64 00 80 00 1E 03 8F
  can0  1D4   [8]  88 88 00 00 C7 46 01 C4
  can0  11A   [8]  01 40 04 55 00 00 01 C3
  can0  108   [3]  00 0D AD
  can0  284   [8]  00 00 00 00 00 00 BD 43
  can0  1DB   [8]  FF E0 B7 6A 00 FF F0 25
  can0  1DC   [8]  B4 0E AF FD 0C D4 C8 F8
  can0  1ED   [3]  FF E0 68
  can0  59E   [8]  00 00 24 8B A0 00 00 7E
  can0  5C0   [8]  04 4E A8 00 01 4E 1F 00
  can0  120   [4]  00 00 05 1E
  can0  1DA   [8]  B7 32 18 00 00 01 09 12
  can0  55A   [8]  00 37 39 37 55 00 5B 08
  can0  5EB   [8]  E0 0F FF FF FF FF FF FF
  can0  1CB   [7]  00 00 00 00 10 03 4C
  can0  4B9   [1]  43
  can0  1C2   [1]  5C
  can0  1F2   [8]  10 64 00 80 00 1E 00 8C
  can0  1D4   [8]  88 88 00 00 07 46 01 08
  can0  3B8   [5]  7F C8 04 07 FF
  can0  50A   [8]  85 F3 A0 11 80 21 04 12
  can0  11A   [8]  01 40 04 55 40 00 02 0E
  can0  50B   [7]  00 00 06 C0 00 00 00
  can0  108   [3]  00 0E A7
  can0  1DB   [8]  FF E0 B7 6A 00 FF F1 A0
  can0  1DC   [8]  B4 0E AF FD 01 29 09 A9
  can0  1ED   [3]  FF E1 ED
  can0  1DA   [8]  B7 32 18 00 00 01 0A 18
  can0  120   [4]  00 00 06 14
  can0  1CB   [7]  00 00 00 00 10 00 46
  can0  1C2   [1]  5D
  can0  1F2   [8]  10 64 00 80 00 1E 01 8D
  can0  1D4   [8]  88 88 00 00 47 46 01 CF
  can0  11A   [8]  01 40 04 AA 80 00 03 18
  can0  108   [3]  00 0F 22
  can0  284   [8]  00 00 00 00 00 00 BE 44
  can0  355   [8]  00 00 00 00 30 00 60 00
  can0  1DB   [8]  FF E0 B7 6A 00 FF F2 AA
  can0  1DC   [8]  B4 0E AF FD 05 54 CA 7A
  can0  1ED   [3]  FF E2 E7
  can0  1DA   [8]  B7 72 18 00 00 01 0B 3F
  can0  120   [4]  00 00 07 91
  can0  1CB   [7]  00 00 00 00 10 01 C3
  can0  1C2   [1]  5E
  can0  5EC   [1]  00
  can0  1D4   [8]  88 88 00 00 87 46 01 03
  can0  1F2   [8]  10 64 00 80 00 1E 02 8E
  can0  11A   [8]  01 40 04 AA C0 00 00 D5
  can0  108   [3]  00 00 00
  can0  56E   [4]  46 00 00 00
  can0  1DB   [8]  FF E0 B7 6A 00 FF F3 2F
  can0  1DC   [8]  B4 0E AF FD 08 C0 C3 32
  can0  1ED   [3]  FF E3 62
  can0  1DA   [8]  B7 72 18 00 00 01 08 35
  can0  120   [4]  00 00 08 B3
  can0  1CB   [7]  00 00 00 00 10 02 C9
  can0  1C2   [1]  5F
  can0  54A   [8]  3C 80 70 0E 00 00 00 59
  can0  54B   [8]  11 08 80 0A 04 00 00 00
  can0  1D4   [8]  88 88 00 00 C7 46 01 C4
  can0  54C   [8]  7E 65 00 00 00 00 64 00
  can0  1F2   [8]  10 64 00 80 00 1E 03 8F
  can0  11A   [8]  01 40 04 55 00 00 01 C3
  can0  54F   [8]  6B 00 00 00 04 00 8D 45
  can0  108   [3]  00 01 85
  can0  284   [8]  00 00 00 00 00 00 BF 45
  can0  1DB   [8]  FF E0 B7 6A 00 FF F0 25
  can0  1DC   [8]  B4 0E AF FD 0C D4 C8 F8
  can0  1ED   [3]  FF E0 68
  can0  5C5   [8]  40 00 55 6A 00 00 00 00
  can0  1DA   [8]  B7 32 18 00 00 01 09 12
  can0  120   [4]  00 00 09 36
  can0  1CB   [7]  00 00 00 00 10 03 4C
  can0  1C2   [1]  50
  can0  1F2   [8]  10 64 00 80 00 1E 00 8C
  can0  1D4   [8]  88 88 00 00 07 46 01 08
  can0  5CD   [5]  96 D6 FB 15 A0
  can0  11A   [8]  01 40 04 55 40 00 02 0E
  can0  108   [3]  00 02 8F
  can0  390   [8]  04 00 00 02 00 00 00 35
  can0  1DB   [8]  FF E0 B7 6A 00 FF F1 A0
  can0  1DC   [8]  B4 0E AF FD 01 29 09 A9
  can0  1ED   [3]  FF E1 ED
  can0  1DA   [8]  B7 32 18 00 00 01 0A 18
  can0  120   [4]  00 00 0A 3C
  can0  625   [6]  02 00 FF 1D 20 00
  can0  393   [8]  00 20 00 00 00 00 00 34
  can0  1CB   [7]  00 00 00 00 10 00 46
  can0  1C2   [1]  51
  can0  1F2   [8]  10 64 00 80 00 1E 01 8D
  can0  1D4   [8]  88 88 00 00 47 46 01 CF
  can0  11A   [8]  01 40 04 AA 80 00 03 18
  can0  108   [3]  00 03 0A
  can0  284   [8]  00 00 00 00 00 00 C0 46
  can0  355   [8]  00 00 00 00 30 00 60 00
  can0  1DB   [8]  FF E0 B7 6A 00 FF F2 AA
  can0  1DC   [8]  B4 0E AF FD 05 54 CA 7A
  can0  1ED   [3]  FF E2 E7
  can0  1DA   [8]  B7 72 18 00 00 01 0B 3F
  can0  120   [4]  00 00 0B B9
  can0  1CB   [7]  00 00 00 00 10 01 C3
  can0  1C2   [1]  52
  can0  1F2   [8]  10 64 00 80 00 1E 02 8E
  can0  1D4   [8]  88 88 00 00 87 46 01 03
  can0  11A   [8]  01 40 04 AA C0 00 00 D5
  can0  108   [3]  00 04 9B
  can0  1DB   [8]  FF E0 B7 6A 00 FF F3 2F
  can0  1DC   [8]  B4 0E AF FD 08 C0 C3 32
  can0  1ED   [3]  FF E3 62
  can0  1DA   [8]  B7 72 18 00 00 01 08 35
  can0  120   [4]  00 00 0C 28
  can0  1CB   [7]  00 00 00 00 10 02 C9
  can0  1C2   [1]  53
  can0  1F2   [8]  10 64 00 80 00 1E 03 8F
  can0  1D4   [8]  88 88 00 00 C7 46 01 C4
  can0  11A   [8]  01 40 04 55 00 00 01 C3
  can0  108   [3]  00 05 1E
  can0  284   [8]  00 00 00 00 00 00 C1 47
  can0  1DB   [8]  FF E0 B7 6A 00 FF F0 25
  can0  1DC   [8]  B4 0E AF FD 0C D4 C8 F8
  can0  1ED   [3]  FF E0 68
  can0  1DA   [8]  B7 32 18 00 00 01 09 12
  can0  120   [4]  00 00 0D AD
  can0  1CB   [7]  00 00 00 00 10 03 4C
  can0  1C2   [1]  54
  can0  1F2   [8]  10 64 00 80 00 1E 00 8C
  can0  1D4   [8]  88 88 00 00 07 46 01 08
  can0  11A   [8]  01 40 04 55 40 00 02 0E
  can0  108   [3]  00 06 14
  can0  1DB   [8]  FF E0 B7 6A 00 FF F1 A0
  can0  1DC   [8]  B4 0E AF FD 01 29 09 A9
  can0  1ED   [3]  FF E1 ED
  can0  55B   [8]  A5 C0 00 00 E3 00 12 9B
  can0  120   [4]  00 00 0E A7
  can0  1DA   [8]  B7 32 18 00 00 01 0A 18
  can0  5BC   [8]  74 40 F0 50 C1 02 05 6C
  can0  1CB   [7]  00 00 00 00 10 00 46
  can0  1C2   [1]  55
  can0  1F2   [8]  10 64 00 80 00 1E 01 8D
  can0  1D4   [8]  88 88 00 00 47 46 01 CF
  can0  11A   [8]  01 40 04 AA 80 00 03 18
  can0  108   [3]  00 07 91
  can0  284   [8]  00 00 00 00 00 00 C2 48
  can0  355   [8]  00 00 00 00 30 00 60 00
  can0  1DB   [8]  FF E0 B7 6A 00 FF F2 AA
  can0  1DC   [8]  B4 0E AF FD 05 54 CA 7A
  can0  1ED   [3]  FF E2 E7
  can0  1DA   [8]  B7 72 18 00 00 01 0B 3F
  can0  120   [4]  00 00 0F 22
  can0  55A   [8]  00 37 39 37 55 00 5B 08
  can0  1CB   [7]  00 00 00 00 10 01 C3
  can0  4B9   [1]  44
  can0  1C2   [1]  56
  can0  1F2   [8]  10 64 00 80 00 1E 02 8E
  can0  1D4   [8]  88 88 00 00 87 46 01 03
  can0  3B8   [5]  7F E8 04 07 FF
  can0  11A   [8]  01 40 04 AA C0 00 00 D5
  can0  50A   [8]  85 93 A0 11 80 21 04 12
  can0  50B   [7]  00 00 06 C0 00 00 00
  can0  108   [3]  00 08 B3
  can0  1DB   [8]  FF E0 B7 6A 00 FF F3 2F
  can0  1DC   [8]  B4 0E AF FD 08 C0 C3 32
  can0  1ED   [3]  FF E3 62
  can0  1DA   [8]  B7 72 18 00 00 01 08 35
  can0  120   [4]  00 00 00 00
  can0  1CB   [7]  00 00 00 00 10 02 C9
  can0  1C2   [1]  57
  can0  1F2   [8]  10 64 00 80 00 1E 03 8F
  can0  1D4   [8]  88 88 00 00 C7 46 01 C4
  can0  11A   [8]  01 40 04 55 00 00 01 C3
  can0  108   [3]  00 09 36
  can0  284   [8]  00 00 00 00 00 00 C3 49
  can0  1DB   [8]  FF E0 B7 6A 00 FF F0 25
  can0  1DC   [8]  B4 0E AF FD 0C D4 C8 F8
  can0  1ED   [3]  FF E0 68
  can0  1DA   [8]  B7 32 18 00 00 01 09 12
  can0  120   [4]  00 00 01 85
  can0  1CB   [7]  00 00 00 00 10 03 4C
  can0  1C2   [1]  58
  can0  1F2   [8]  10 64 00 80 00 1E 00 8C
  can0  1D4   [8]  88 88 00 00 07 46 01 08
  can0  11A   [8]  01 40 04 55 40 00 02 0E
  can0  108   [3]  00 0A 3C
  can0  56E   [4]  46 00 00 00
  can0  1DB   [8]  FF E0 B7 6A 00 FF F1 A0
  can0  1DC   [8]  B4 0E AF FD 01 29 09 A9
  can0  1ED   [3]  FF E1 ED
  can0  120   [4]  00 00 02 8F
  can0  1DA   [8]  B7 32 18 00 00 01 0A 18
  can0  1CB   [7]  00 00 00 00 10 00 46
  can0  1C2   [1]  59
  can0  54A   [8]  DA 80 70 0E 00 00 00 59
  can0  1D4   [8]  88 88 00 00 47 46 01 CF
  can0  54B   [8]  11 08 80 0A 04 00 00 00
  can0  1F2   [8]  10 64 00 80 00 1E 01 8D
  can0  54C   [8]  7E 65 00 00 00 00 64 00
  can0  11A   [8]  01 40 04 AA 80 00 03 18
  can0  54F   [8]  6B 00 00 00 04 40 8D 45
  can0  108   [3]  00 0B B9
  can0  284   [8]  00 00 00 00 00 00 C4 4A
  can0  355   [8]  00 00 00 00 30 00 60 00
  can0  1DB   [8]  FF E0 B7 6A 00 FF F2 AA
  can0  1DC   [8]  B4 0E AF FD 05 54 CA 7A
  can0  1ED   [3]  FF E2 E7
  can0  1DA   [8]  B7 72 18 00 00 01 0B 3F
  can0  120   [4]  00 00 03 0A
  can0  5C5   [8]  40 00 55 6A 00 00 00 00
  can0  1CB   [7]  00 00 00 00 10 01 C3
  can0  1C2   [1]  5A
  can0  1F2   [8]  10 64 00 80 00 1E 02 8E
  can0  1D4   [8]  88 88 00 00 87 46 01 03
  can0  11A   [8]  01 40 04 AA C0 00 00 D5
  can0  108   [3]  00 0C 28
  can0  390   [8]  04 00 00 02 00 00 00 02
  can0  1DB   [8]  FF E0 B7 6A 00 FF F3 2F
  can0  1DC   [8]  B4 0E AF FD 08 C0 C3 32
  can0  1ED   [3]  FF E3 62
  can0  120   [4]  00 00 04 9B
  can0  1DA   [8]  B7 72 18 00 00 01 08 35
  can0  625   [6]  02 00 FF 1D 20 00
  can0  1CB   [7]  00 00 00 00 10 02 C9
  can0  393   [8]  00 20 00 00 00 00 00 01
  can0  1C2   [1]  5B
  can0  1F2   [8]  10 64 00 80 00 1E 03 8F
  can0  1D4   [8]  88 88 00 00 C7 46 01 C4
  can0  11A   [8]  01 40 04 55 00 00 01 C3
  can0  108   [3]  00 0D AD
  can0  284   [8]  00 00 00 00 00 00 C5 4B
  can0  1DB   [8]  FF E0 B7 6A 00 FF F0 25
  can0  1DC   [8]  B4 0E AF FD 0C D4 C8 F8
  can0  1ED   [3]  FF E0 68
  can0  120   [4]  00 00 05 1E
  can0  1DA   [8]  B7 32 18 00 00 01 09 12
  can0  1CB   [7]  00 00 00 00 10 03 4C
  can0  1C2   [1]  5C
  can0  1F2   [8]  10 64 00 80 00 1E 00 8C
  can0  1D4   [8]  88 88 00 00 07 46 01 08
  can0  11A   [8]  01 40 04 55 40 00 02 0E
  can0  108   [3]  00 0E A7
  can0  1DB   [8]  FF E0 B7 6A 00 FF F1 A0
  can0  1DC   [8]  B4 0E AF FD 01 29 09 A9
  can0  1ED   [3]  FF E1 ED
  can0  120   [4]  00 00 06 14
  can0  1DA   [8]  B7 32 18 00 00 01 0A 18
  can0  1CB   [7]  00 00 00 00 10 00 46
  can0  1C2   [1]  5D
  can0  1F2   [8]  10 64 00 80 00 1E 01 8D
  can0  1D4   [8]  88 88 00 00 47 46 01 CF
  can0  11A   [8]  01 40 04 AA 80 00 03 18
  can0  108   [3]  00 0F 22
  can0  284   [8]  00 00 00 00 00 00 C6 4C
  can0  355   [8]  00 00 00 00 30 00 60 00
  can0  1DB   [8]  FF E0 B7 6A 00 FF F2 AA
  can0  1DC   [8]  B4 0E AF FD 05 54 CA 7A
  can0  1ED   [3]  FF E2 E7
  can0  120   [4]  00 00 07 91
  can0  1DA   [8]  B7 72 18 00 00 01 0B 3F
  can0  1CB   [7]  00 00 00 00 10 01 C3
  can0  1C2   [1]  5E
  can0  1F2   [8]  10 64 00 80 00 1E 02 8E
  can0  1D4   [8]  88 88 00 00 87 46 01 03
  can0  11A   [8]  01 40 04 AA C0 00 00 D5
  can0  108   [3]  00 00 00
  can0  1DB   [8]  FF E0 B7 6A 00 FF F3 2F
  can0  1DC   [8]  B4 0E AF FD 08 C0 C3 32
  can0  120   [4]  00 00 08 B3
  can0  1DA   [8]  B7 72 18 00 00 01 08 35
  can0  1ED   [3]  FF E3 62
  can0  55B   [8]  A5 C0 00 00 E3 00 13 1E
  can0  5BC   [8]  BB 80 F0 50 C1 12 3F FF
  can0  1CB   [7]  00 00 00 00 10 02 C9
  can0  1C2   [1]  5F
  can0  1F2   [8]  10 64 00 80 00 1E 03 8F
  can0  1D4   [8]  88 88 00 00 C7 46 01 C4
  can0  11A   [8]  01 40 04 55 00 00 01 C3
  can0  108   [3]  00 01 85
  can0  284   [8]  00 00 00 00 00 00 C7 4D
  can0  1DB   [8]  FF E0 B7 6A 00 FF F0 25
  can0  1DC   [8]  B4 0E AF FD 0C D4 C8 F8
  can0  1ED   [3]  FF E0 68
  can0  120   [4]  00 00 09 36
  can0  1DA   [8]  B7 32 18 00 00 01 09 12
  can0  55A   [8]  00 37 39 37 55 00 5B 08
  can0  1CB   [7]  00 00 00 00 10 03 4C
  can0  4B9   [1]  45
  can0  1C2   [1]  50
  can0  1F2   [8]  10 64 00 80 00 1E 00 8C
  can0  1D4   [8]  88 88 00 00 07 46 01 08
  can0  3B8   [5]  7F C8 04 07 FF
  can0  50A   [8]  85 B3 A0 11 80 21 04 12
  can0  11A   [8]  01 40 04 55 40 00 02 0E
  can0  50B   [7]  00 00 06 C0 00 00 00
  can0  108   [3]  00 02 8F
  can0  1DB   [8]  FF E0 B7 6A 00 FF F1 A0
  can0  1DC   [8]  B4 0E AF FD 01 29 09 A9
  can0  1ED   [3]  FF E1 ED
  can0  120   [4]  00 00 0A 3C
  can0  1DA   [8]  B7 32 18 00 00 01 0A 18
  can0  1CB   [7]  00 00 00 00 10 00 46
  can0  1C2   [1]  51
  can0  1F2   [8]  10 64 00 80 00 1E 01 8D
  can0  1D4   [8]  88 88 00 00 47 46 01 CF
  can0  11A   [8]  01 40 04 AA 80 00 03 18
  can0  108   [3]  00 03 0A
  can0  284   [8]  00 00 00 00 00 00 C8 4E
  can0  355   [8]  00 00 00 00 30 00 60 00
  can0  1DB   [8]  FF E0 B7 6A 00 FF F2 AA
  can0  1DC   [8]  B4 0E AF FD 05 54 CA 7A
  can0  1ED   [3]  FF E2 E7
  can0  120   [4]  00 00 0B B9
  can0  1DA   [8]  B7 72 18 00 00 01 0B 3F
  can0  1CB   [7]  00 00 00 00 10 01 C3
  can0  1C2   [1]  52
  can0  1F2   [8]  10 64 00 80 00 1E 02 8E
  can0  1D4   [8]  88 88 00 00 87 46 01 03
  can0  11A   [8]  01 40 04 AA C0 00 00 D5
  can0  108   [3]  00 04 9B
  can0  56E   [4]  46 00 00 00
  can0  1DB   [8]  FF E0 B7 6A 00 FF F3 2F
  can0  1DC   [8]  B4 0E AF FD 08 C0 C3 32
  can0  120   [4]  00 00 0C 28
  can0  1DA   [8]  B7 72 18 00 00 01 08 35
  can0  1ED   [3]  FF E3 62
  can0  1CB   [7]  00 00 00 00 10 02 C9
  can0  1C2   [1]  53
  can0  54A   [8]  3C 80 70 0E 00 00 00 59
  can0  1D4   [8]  88 88 00 00 C7 46 01 C4
  can0  481   [2]  00 00
  can0  1F2   [8]  10 64 00 80 00 1E 03 8F
  can0  54B   [8]  11 08 80 0A 04 00 00 00
  can0  11A   [8]  01 40 04 55 00 00 01 C3
  can0  54C   [8]  7E 65 00 00 00 00 64 00
  can0  54F   [8]  6B 00 00 00 04 80 8D 45
  can0  108   [3]  00 05 1E
  can0  284   [8]  00 00 00 00 00 00 C9 4F
  can0  1DB   [8]  FF E0 B7 6A 00 FF F0 25
  can0  1DC   [8]  B4 0E AF FD 0C D4 C8 F8
  can0  120   [4]  00 00 0D AD
  can0  1DA   [8]  B7 32 18 00 00 01 09 12
  can0  1ED   [3]  FF E0 68
  can0  5C5   [8]  40 00 55 6A 00 00 00 00
  can0  1CB   [7]  00 00 00 00 10 03 4C
  can0  1C2   [1]  54
  can0  1F2   [8]  10 64 00 80 00 1E 00 8C
  can0  1D4   [8]  88 88 00 00 07 46 01 08
  can0  11A   [8]  01 40 04 55 40 00 02 0E
  can0  108   [3]  00 06 14
  can0  390   [8]  04 00 00 02 00 00 00 13
  can0  1DB   [8]  FF E0 B7 6A 00 FF F1 A0
  can0  1DC   [8]  B4 0E AF FD 01 29 09 A9
  can0  120   [4]  00 00 0E A7
  can0  1DA   [8]  B7 32 18 00 00 01 0A 18
  can0  1ED   [3]  FF E1 ED
  can0  625   [6]  02 00 FF 1D 20 00
  can0  1CB   [7]  00 00 00 00 10 00 46
  can0  393   [8]  00 20 00 00 00 00 00 12
  can0  1C2   [1]  55
  can0  1F2   [8]  10 64 00 80 00 1E 01 8D
  can0  1D4   [8]  88 88 00 00 47 46 01 CF
  can0  11A   [8]  01 40 04 AA 80 00 03 18
  can0  108   [3]  00 07 91
  can0  284   [8]  00 00 00 00 00 00 CA 50
  can0  355   [8]  00 00 00 00 30 00 60 00
  can0  1DB   [8]  FF E0 B7 6A 00 FF F2 AA
  can0  1DC   [8]  B4 0E AF FD 05 54 CA 7A
  can0  120   [4]  00 00 0F 22
  can0  1DA   [8]  B7 72 18 00 00 01 0B 3F
  can0  1ED   [3]  FF E2 E7
  can0  1CB   [7]  00 00 00 00 10 01 C3
  can0  1C2   [1]  56
  can0  1F2   [8]  10 64 00 80 00 1E 02 8E
  can0  1D4   [8]  88 88 00 00 87 46 01 03
  can0  11A   [8]  01 40 04 AA C0 00 00 D5
  can0  108   [3]  00 08 B3
  can0  1DB   [8]  FF E0 B7 6A 00 FF F3 2F
  can0  1DC   [8]  B4 0E AF FD 08 C0 C3 32
  can0  120   [4]  00 00 00 00
  can0  1DA   [8]  B7 72 18 00 00 01 08 35
  can0  1ED   [3]  FF E3 62
  can0  1CB   [7]  00 00 00 00 10 02 C9
  can0  1C2   [1]  57
  can0  1F2   [8]  10 64 00 80 00 1E 03 8F
  can0  1D4   [8]  88 88 00 00 C7 46 01 C4
  can0  11A   [8]  01 40 04 55 00 00 01 C3
  can0  284   [8]  00 00 00 00 00 00 CB 51
  can0  108   [3]  00 09 36
  can0  1DB   [8]  FF E0 B7 6A 00 FF F0 25
  can0  1DC   [8]  B4 0E AF FD 0C D4 C8 F8
  can0  120   [4]  00 00 01 85
  can0  1DA   [8]  B7 32 18 00 00 01 09 12
  can0  1ED   [3]  FF E0 68
  can0  1CB   [7]  00 00 00 00 10 03 4C
  can0  1C2   [1]  58
  can0  1F2   [8]  10 64 00 80 00 1E 00 8C
  can0  1D4   [8]  88 88 00 00 07 46 01 08
  can0  11A   [8]  01 40 04 55 40 00 02 0E
  can0  108   [3]  00 0A 3C
  can0  1DB   [8]  FF E0 B7 6A 00 FF F1 A0
  can0  120   [4]  00 00 02 8F
  can0  1DA   [8]  B7 32 18 00 00 01 0A 18
  can0  1DC   [8]  B4 0E AF FD 01 29 09 A9
  can0  1ED   [3]  FF E1 ED
  can0  55B   [8]  A5 C0 00 00 E3 00 10 14
  can0  5BC   [8]  74 40 F0 50 C1 00 20 00
  can0  1CB   [7]  00 00 00 00 10 00 46
  can0  1C2   [1]  59
  can0  1F2   [8]  10 64 00 80 00 1E 01 8D
  can0  1D4   [8]  88 88 00 00 47 46 01 CF
  can0  11A   [8]  01 40 04 AA 80 00 03 18
  can0  108   [3]  00 0B B9
  can0  284   [8]  00 00 00 00 00 00 CC 52
  can0  355   [8]  00 00 00 00 30 00 60 00
  can0  1DB   [8]  FF E0 B7 6A 00 FF F2 AA
  can0  1DC   [8]  B4 0E AF FD 05 54 CA 7A
  can0  120   [4]  00 00 03 0A
  can0  1DA   [8]  B7 72 18 00 00 01 0B 3F
  can0  1ED   [3]  FF E2 E7
  can0  55A   [8]  00 37 39 37 55 00 5B 08
  can0  1CB   [7]  00 00 00 00 10 01 C3
  can0  4B9   [1]  46
  can0  1C2   [1]  5A
  can0  1F2   [8]  10 64 00 80 00 1E 02 8E
  can0  1D4   [8]  88 88 00 00 87 46 01 03
  can0  3B8   [5]  7F E8 04 07 FF
  can0  50A   [8]  85 D3 A0 11 80 21 04 12
  can0  11A   [8]  01 40 04 AA C0 00 00 D5
  can0  50B   [7]  00 00 06 C0 00 00 00
  can0  108   [3]  00 0C 28
  can0  1DB   [8]  FF E0 B7 6A 00 FF F3 2F
  can0  120   [4]  00 00 04 9B
  can0  1DA   [8]  B7 72 18 00 00 01 08 35
  can0  1DC   [8]  B4 0E AF FD 08 C0 C3 32
  can0  1ED   [3]  FF E3 62
  can0  1CB   [7]  00 00 00 00 10 02 C9
  can0  1C2   [1]  5B
  can0  1F2   [8]  10 64 00 80 00 1E 03 8F
  can0  1D4   [8]  88 88 00 00 C7 46 01 C4
  can0  11A   [8]  01 40 04 55 00 00 01 C3
  can0  284   [8]  00 00 00 00 00 00 CD 53
  can0  108   [3]  00 0D AD
  can0  1DB   [8]  FF E0 B7 6A 00 FF F0 25
  can0  120   [4]  00 00 05 1E
  can0  1DA   [8]  B7 32 18 00 00 01 09 12
  can0  1DC   [8]  B4 0E AF FD 0C D4 C8 F8
  can0  1ED   [3]  FF E0 68
  can0  1CB   [7]  00 00 00 00 10 03 4C
  can0  1C2   [1]  5C
  can0  1F2   [8]  10 64 00 80 00 1E 00 8C
  can0  1D4   [8]  88 88 00 00 07 46 01 08
  can0  11A   [8]  01 40 04 55 40 00 02 0E
  can0  108   [3]  00 0E A7
  can0  56E   [4]  46 00 00 00
  can0  1DB   [8]  FF E0 B7 6A 00 FF F1 A0
  can0  120   [4]  00 00 06 14
  can0  1DA   [8]  B7 32 18 00 00 01 0A 18
  can0  1DC   [8]  B4 0E AF FD 01 29 09 A9
  can0  1ED   [3]  FF E1 ED
  can0  1CB   [7]  00 00 00 00 10 00 46
  can0  1C2   [1]  5D
  can0  54A   [8]  DA 80 70 0E 00 00 00 59
  can0  1D4   [8]  88 88 00 00 47 46 01 CF
  can0  54B   [8]  11 08 80 0A 04 00 00 00
  can0  1F2   [8]  10 64 00 80 00 1E 01 8D
  can0  11A   [8]  01 40 04 AA 80 00 03 18
  can0  54C   [8]  7E 65 00 00 00 00 64 00
  can0  54F   [8]  6B 00 00 00 04 C0 8D 45
  can0  284   [8]  00 00 00 00 00 00 CE 54
  can0  108   [3]  00 0F 22
  can0  355   [8]  00 00 00 00 30 00 60 00
  can0  1DB   [8]  FF E0 B7 6A 00 FF F2 AA
  can0  120   [4]  00 00 07 91
  can0  1DA   [8]  B7 72 18 00 00 01 0B 3F
  can0  1DC   [8]  B4 0E AF FD 05 54 CA 7A
  can0  1ED   [3]  FF E2 E7
  can0  5C5   [8]  40 00 55 6A 00 00 00 00
  can0  1CB   [7]  00 00 00 00 10 01 C3
  can0  1C2   [1]  5E
  can0  1F2   [8]  10 64 00 80 00 1E 02 8E
  can0  1D4   [8]  88 88 00 00 87 46 01 03
  can0  11A   [8]  01 40 04 AA C0 00 00 D5
  can0  108   [3]  00 00 00
  can0  390   [8]  04 00 00 02 00 00 00 24
  can0  1DA   [8]  B7 72 18 00 00 01 08 35
  can0  120   [4]  00 00 08 B3
  can0  1DB   [8]  FF E0 B7 6A 00 FF F3 2F
  can0  1DC   [8]  B4 0E AF FD 08 C0 C3 32
  can0  1ED   [3]  FF E3 62
  can0  625   [6]  02 00 FF 1D 20 00
  can0  1CB   [7]  00 00 00 00 10 02 C9
  can0  393   [8]  00 20 00 00 00 00 00 23
  can0  1C2   [1]  5F
  can0  1F2   [8]  10 64 00 80 00 1E 03 8F
  can0  1D4   [8]  88 88 00 00 C7 46 01 C4
  can0  11A   [8]  01 40 04 55 00 00 01 C3
  can0  284   [8]  00 00 00 00 00 00 CF 55
  can0  108   [3]  00 01 85
  can0  1DB   [8]  FF E0 B7 6A 00 FF F0 25
  can0  120   [4]  00 00 09 36
  can0  1DA   [8]  B7 32 18 00 00 01 09 12
  can0  1DC   [8]  B4 0E AF FD 0C D4 C8 F8
  can0  1ED   [3]  FF E0 68
